/net09 X,/net09 Y,/o1 X,/o1 Y,/net1 X,/net1 Y
0,4.999999990889179,0,1.704906616105221e-08,0,0
2.5e-11,4.999999990889179,2.5e-11,1.704906630792952e-08,2.5e-11,0
7.5e-11,4.999999990889177,7.5e-11,1.704906632217244e-08,7.5e-11,0
1.75e-10,4.999999990889178,1.75e-10,1.704906572788496e-08,1.75e-10,0
3.749999999999999e-10,4.999999990889178,3.749999999999999e-10,1.704906616852962e-08,3.749999999999999e-10,0
6.25e-10,4.999999990889179,6.25e-10,1.704906652697787e-08,6.25e-10,0
8.125e-10,4.999999990889179,8.125e-10,1.704906636833065e-08,8.125e-10,0
1e-09,4.999999990889179,1e-09,1.704906653893388e-08,1e-09,0
1.000049164419211e-09,5.000148550066408,1.000049164419211e-09,3.136741771560133e-05,1.000049164419211e-09,0.002458220960538196
1.000083734786125e-09,5.000252992586168,1.000083734786125e-09,5.338678101132502e-05,1.000083734786125e-09,0.004186739306253255
1.000152875519954e-09,5.000461770478216,1.000152875519954e-09,9.732079258055888e-05,1.000152875519954e-09,0.007643775997683371
1.000291156987611e-09,5.000878849089209,1.000291156987611e-09,0.0001847372640082905,1.000291156987611e-09,0.0145578493805436
1.000567719922925e-09,5.001711067800107,1.000567719922925e-09,0.0003577514470484255,1.000567719922925e-09,0.02838599614626407
1.001120845793554e-09,5.003367799162446,1.001120845793554e-09,0.0006966021965619497,1.001120845793554e-09,0.05604228967770501
1.002227097534812e-09,5.006651039707393,1.002227097534812e-09,0.001346505481922724,1.002227097534812e-09,0.1113548767405869
1.004439601017327e-09,5.01310145369677,1.004439601017327e-09,0.002542132341437151,1.004439601017327e-09,0.2219800508663506
1.007293843744974e-09,5.02120719703603,1.007293843744974e-09,0.003897487673991533,1.007293843744974e-09,0.3646921872487112
1.010273700974859e-09,5.029430564111367,1.010273700974859e-09,0.005112074081124855,1.010273700974859e-09,0.5136850487429694
1.013390793718978e-09,5.037874821411123,1.013390793718978e-09,0.006206730964615673,1.013390793718978e-09,0.6695396859488935
1.01516227574799e-09,5.042892973975671,1.01516227574799e-09,0.00681357195715872,1.01516227574799e-09,0.7581137873994762
1.01679970335234e-09,5.047769924068865,1.01679970335234e-09,0.0073859406824359,1.01679970335234e-09,0.8399851676169889
1.018233541898409e-09,5.051986448792648,1.018233541898409e-09,0.007846574667276503,1.018233541898409e-09,0.911677094920459
1.019582990143211e-09,5.055781773572804,1.019582990143211e-09,0.008221242804874381,1.019582990143211e-09,0.9791495071605267
1.021189856629096e-09,5.060016599528207,1.021189856629096e-09,0.008583716933253801,1.021189856629096e-09,1.059492831454806
1.023691844707758e-09,5.065913127444433,1.023691844707758e-09,0.00896426511922613,1.023691844707758e-09,1.184592235387896
1.028695820865082e-09,5.074906963765365,1.028695820865082e-09,0.009089775074854952,1.028695820865082e-09,1.434791043254076
1.033053760499592e-09,5.079544932154176,1.033053760499592e-09,0.008566451571651958,1.033053760499592e-09,1.652688024979603
1.036764076077323e-09,5.081069669643577,1.036764076077323e-09,0.007706080726338159,1.036764076077323e-09,1.838203803866128
1.040391587564931e-09,5.08035714455255,1.040391587564931e-09,0.006540507231858683,1.040391587564931e-09,2.01957937824657
1.043957727961365e-09,5.077505462310407,1.043957727961365e-09,0.005120298294656581,1.043957727961365e-09,2.197886398068267
1.047577297528952e-09,5.072410930781178,1.047577297528952e-09,0.003435474836894133,1.047577297528952e-09,2.378864876447585
1.051340135451866e-09,5.064747502716118,1.051340135451866e-09,0.001456953091475973,1.051340135451866e-09,2.567006772593303
1.055292432345802e-09,5.054083392448704,1.055292432345802e-09,-0.000877488404515609,1.055292432345802e-09,2.764621617290116
1.062174206923168e-09,5.029016176303605,1.062174206923168e-09,-0.005509235455535195,1.062174206923168e-09,3.108710346158382
1.065480012546503e-09,5.013974823844488,1.065480012546503e-09,-0.007917387932576396,1.065480012546503e-09,3.274000627325146
1.068507559633088e-09,4.998456315370541,1.068507559633088e-09,-0.01021690497002694,1.068507559633088e-09,3.425377981654421
1.073982574269261e-09,4.966134714959334,1.073982574269261e-09,-0.01456653070176185,1.073982574269261e-09,3.699128713463028
1.076889169048905e-09,4.946366527084958,1.076889169048905e-09,-0.01704267609404098,1.076889169048905e-09,3.844458452445271
1.079878320022933e-09,4.923354671408275,1.079878320022933e-09,-0.01985653329065869,1.079878320022933e-09,3.993916001146653
1.081557771290319e-09,4.908541606480979,1.081557771290319e-09,-0.02169277087145222,1.081557771290319e-09,4.077888564515955
1.083062608116254e-09,4.894014723077165,1.083062608116254e-09,-0.02350411474076371,1.083062608116254e-09,4.153130405812695
1.08487768455546e-09,4.87514974075748,1.08487768455546e-09,-0.02583308031985672,1.08487768455546e-09,4.243884227772982
1.086721528944243e-09,4.854992959840521,1.086721528944243e-09,-0.02824182183739494,1.086721528944243e-09,4.336076447212171
1.088293454862311e-09,4.837177954770314,1.088293454862311e-09,-0.03029330785319828,1.088293454862311e-09,4.414672743115556
1.090439582956803e-09,4.811953604764273,1.090439582956803e-09,-0.03308387829335358,1.090439582956803e-09,4.521979147840137
1.094731839145786e-09,4.758368241547147,1.094731839145786e-09,-0.0386400271194757,1.094731839145786e-09,4.736591957289297
1.1e-09,4.686805501645637,1.1e-09,-0.04544692813385272,1.1e-09,5
1.10110673937889e-09,4.668733898719581,1.10110673937889e-09,-0.04731235232780429,1.10110673937889e-09,5
1.102039482284614e-09,4.653494383173156,1.102039482284614e-09,-0.04884774255566234,1.102039482284614e-09,5
1.103175089629036e-09,4.634937914159038,1.103175089629036e-09,-0.05065268196399271,1.103175089629036e-09,5
1.105252705791693e-09,4.60098990033377,1.105252705791693e-09,-0.05376558455563595,1.105252705791693e-09,5
1.109407938117007e-09,4.533132668803311,1.109407938117007e-09,-0.05932977236059576,1.109407938117007e-09,5
1.113774927906131e-09,4.462125182217727,1.113774927906131e-09,-0.0643656798015679,1.113774927906131e-09,5
1.117977905982812e-09,4.395148942001274,1.117977905982812e-09,-0.06859491679634371,1.117977905982812e-09,5
1.12213922603716e-09,4.332488065822176,1.12213922603716e-09,-0.0723572341279051,1.12213922603716e-09,5
1.126309479182535e-09,4.274404796850208,1.126309479182535e-09,-0.0756872315053745,1.126309479182535e-09,5
1.129641984414367e-09,4.230211195509125,1.129641984414367e-09,-0.07786780271831056,1.129641984414367e-09,5
1.133269637497507e-09,4.183178065137541,1.133269637497507e-09,-0.07958099694552356,1.133269637497507e-09,5
1.136986479120512e-09,4.135579684895363,1.136986479120512e-09,-0.0804961148835793,1.136986479120512e-09,5
1.14115864487357e-09,4.082590491043213,1.14115864487357e-09,-0.08041386994703574,1.14115864487357e-09,5
1.146212333934726e-09,4.018896778680527,1.146212333934726e-09,-0.07868272448182007,1.146212333934726e-09,5
1.153209142551062e-09,3.931515016847082,1.153209142551062e-09,-0.07336208435790539,1.153209142551062e-09,5
1.160488678287281e-09,3.841537636524754,1.160488678287281e-09,-0.06436365520814016,1.160488678287281e-09,5
1.168155165292889e-09,3.747757723018197,1.168155165292889e-09,-0.05127774432610999,1.168155165292889e-09,5
1.17542055039963e-09,3.659764270782963,1.17542055039963e-09,-0.03565751616414537,1.17542055039963e-09,5
1.182582421030665e-09,3.573809529422867,1.182582421030665e-09,-0.01739922010270317,1.182582421030665e-09,5
1.189580891082467e-09,3.4905361998314,1.189580891082467e-09,0.002881540329686054,1.189580891082467e-09,5
1.193569168198634e-09,3.443445957365688,1.193569168198634e-09,0.01506825779173,1.193569168198634e-09,5
1.196985925416218e-09,3.403296212883842,1.196985925416218e-09,0.02614315132516989,1.196985925416218e-09,5
1.200362104248289e-09,3.36379636540825,1.200362104248289e-09,0.03765410705089785,1.200362104248289e-09,5
1.20711446191243e-09,3.285307512279374,1.20711446191243e-09,0.06233866822105345,1.20711446191243e-09,5
1.217972404781606e-09,3.160524881412567,1.217972404781606e-09,0.1066494783618295,1.217972404781606e-09,5
1.236521919323279e-09,2.951599748971708,1.236521919323279e-09,0.1960308293833366,1.236521919323279e-09,5
1.251642508870579e-09,2.785599449830178,1.251642508870579e-09,0.2831147498425365,1.251642508870579e-09,5
1.262845532731209e-09,2.665361974073569,1.262845532731209e-09,0.3573929002632281,1.262845532731209e-09,5
1.272626748963033e-09,2.562509157675168,1.272626748963033e-09,0.4306209372225134,1.272626748963033e-09,5
1.281325621954768e-09,2.472791975468171,1.281325621954768e-09,0.5039990243750233,1.281325621954768e-09,5
1.289089499051172e-09,2.394022927238153,1.289089499051172e-09,0.5779434545501094,1.289089499051172e-09,5
1.296050721833945e-09,2.324187356711492,1.296050721833945e-09,0.6531597138859383,1.296050721833945e-09,5
1.302279291428225e-09,2.262185270555552,1.302279291428225e-09,0.7296959166396502,1.302279291428225e-09,5
1.308101420941888e-09,2.205050066528078,1.308101420941888e-09,0.8106484602494046,1.308101420941888e-09,5
1.314300889412632e-09,2.145997711439869,1.314300889412632e-09,0.9078726168488125,1.314300889412632e-09,5
1.321845013568309e-09,2.077501473074489,1.321845013568309e-09,1.04210076969048,1.321845013568309e-09,5
1.333005493966431e-09,1.983398617526959,1.333005493966431e-09,1.271417650936143,1.333005493966431e-09,5
1.345805902400765e-09,1.88550856784844,1.345805902400765e-09,1.574446247726416,1.345805902400765e-09,5
1.35609148070848e-09,1.813871019731167,1.35609148070848e-09,1.844186862228691,1.35609148070848e-09,5
1.366002592458445e-09,1.749984352067776,1.366002592458445e-09,2.121579337196723,1.366002592458445e-09,5
1.376064011109632e-09,1.689497557994117,1.376064011109632e-09,2.415903166458321,1.376064011109632e-09,5
1.386255282889721e-09,1.631878078185032,1.386255282889721e-09,2.721771893903494,1.386255282889721e-09,5
1.396587143161799e-09,1.576301079257562,1.396587143161799e-09,3.033270295384482,1.396587143161799e-09,5
1.406721783496288e-09,1.523789254552188,1.406721783496288e-09,3.330600462746809,1.406721783496288e-09,5
1.415813649349974e-09,1.479548363000545,1.415813649349974e-09,3.578070729406469,1.415813649349974e-09,5
1.423683733188257e-09,1.445574401908631,1.423683733188257e-09,3.768935705161169,1.423683733188257e-09,5
1.431640680297635e-09,1.413780906207733,1.431640680297635e-09,3.93824078457051,1.431640680297635e-09,5
1.445405173969889e-09,1.358167994545388,1.445405173969889e-09,4.180106085554986,1.445405173969889e-09,5
1.459715706506757e-09,1.295230695646429,1.459715706506757e-09,4.374360786385144,1.459715706506757e-09,5
1.472223652266253e-09,1.235432125053505,1.472223652266253e-09,4.505690803022368,1.472223652266253e-09,5
1.485056839701922e-09,1.170613270207317,1.485056839701922e-09,4.611271003254112,1.485056839701922e-09,5
1.498719304665017e-09,1.099445889401765,1.498719304665017e-09,4.698657548994495,1.498719304665017e-09,5
1.51339007989524e-09,1.022236492586555,1.51339007989524e-09,4.770540871185792,1.51339007989524e-09,5
1.529638946248415e-09,0.9367848349554126,1.529638946248415e-09,4.829880193365454,1.529638946248415e-09,5
1.548055075399801e-09,0.8388924813559974,1.548055075399801e-09,4.877659975882184,1.548055075399801e-09,5
1.568793343955219e-09,0.7300975325121909,1.568793343955219e-09,4.913536702214562,1.568793343955219e-09,5
1.591535483421424e-09,0.6208321537058223,1.591535483421424e-09,4.938236438919157,1.591535483421424e-09,5
1.615341259971595e-09,0.5204054735728815,1.615341259971595e-09,4.954172143027654,1.615341259971595e-09,5
1.642488348031712e-09,0.4230563287422178,1.642488348031712e-09,4.965607193881105,1.642488348031712e-09,5
1.662192997251797e-09,0.3630928851504611,1.662192997251797e-09,4.971222231705211,1.662192997251797e-09,5
1.699457674676669e-09,0.2705032679051773,1.699457674676669e-09,4.979005457826542,1.699457674676669e-09,5
1.727052859830458e-09,0.2169578810554635,1.727052859830458e-09,4.983198144096258,1.727052859830458e-09,5
1.752291511132718e-09,0.1772054839149302,1.752291511132718e-09,4.986248653952101,1.752291511132718e-09,5
1.781117408914907e-09,0.1404876207145981,1.781117408914907e-09,4.989070534754216,1.781117408914907e-09,5
1.812333365669882e-09,0.1090971773191794,1.812333365669882e-09,4.991500268803026,1.812333365669882e-09,5
1.845894226535063e-09,0.08298939747868291,1.845894226535063e-09,4.993533368349975,1.845894226535063e-09,5
1.883145463502832e-09,0.06111949357312879,1.883145463502832e-09,4.995241640258594,1.883145463502832e-09,5
1.925069826987599e-09,0.04316631330806131,1.925069826987599e-09,4.996644316620372,1.925069826987599e-09,5
1.972834965785322e-09,0.02887775528995657,1.972834965785322e-09,4.997758844555176,1.972834965785322e-09,5
2.028328911396286e-09,0.01791296928534029,2.028328911396286e-09,4.998611974728155,2.028328911396286e-09,5
2.094328601405501e-09,0.009930363764216757,2.094328601405501e-09,4.999231489874541,2.094328601405501e-09,5
2.175105801875868e-09,0.004562496000218984,2.175105801875868e-09,4.999647206692249,2.175105801875868e-09,5
2.277794695587878e-09,0.001384347583443573,2.277794695587878e-09,4.99989298480368,2.277794695587878e-09,5
2.415383996665796e-09,-9.881488146674814e-05,2.415383996665796e-09,5.000007587459244,2.415383996665796e-09,5
2.595669579662676e-09,-0.0004182411731609025,2.595669579662676e-09,5.000032218683447,2.595669579662676e-09,5
2.842189201555637e-09,-0.0002557041187008571,2.842189201555637e-09,5.000019552225204,2.842189201555637e-09,5
3.092189201555637e-09,-8.544594180475817e-05,3.092189201555637e-09,5.000006503668525,3.092189201555637e-09,5
3.342189201555637e-09,-1.219885705444045e-05,3.342189201555637e-09,5.000000911889751,3.342189201555637e-09,5
3.592189201555637e-09,5.217953792399432e-06,3.592189201555637e-09,4.999999581883388,3.592189201555637e-09,5
3.842189201555637e-09,4.730877646437178e-06,3.842189201555637e-09,4.999999617059884,3.842189201555637e-09,5
4.092189201555637e-09,1.968995671118794e-06,4.092189201555637e-09,4.999999829138411,4.092189201555637e-09,5
4.342189201555636e-09,4.552366877133547e-07,4.342189201555636e-09,4.999999946504357,4.342189201555636e-09,5
4.592189201555636e-09,-1.672187695260968e-08,4.592189201555636e-09,4.999999983456333,4.592189201555636e-09,5
4.842189201555636e-09,-7.014756240081115e-08,4.842189201555636e-09,4.999999987677589,4.842189201555636e-09,5
5.092189201555636e-09,-3.297697539832228e-08,5.092189201555636e-09,4.999999984826092,5.092189201555636e-09,5
5.342189201555635e-09,-4.366059196366923e-09,5.342189201555635e-09,4.999999982581788,5.342189201555635e-09,5
5.592189201555635e-09,6.578955725420416e-09,5.592189201555635e-09,4.999999981715569,5.592189201555635e-09,5
5.842189201555635e-09,8.798564888806968e-09,5.842189201555635e-09,4.999999981547052,5.842189201555635e-09,5
5.971094600777817e-09,8.47329342316354e-09,5.971094600777817e-09,4.999999981570669,5.971094600777817e-09,5
6.1e-09,8.083259646743383e-09,6.1e-09,4.999999981600266,6.1e-09,5
6.10372631783159e-09,-0.00848628360906304,6.10372631783159e-09,4.998366619473168,6.10372631783159e-09,4.813684108420523
6.107787648534094e-09,-0.01747506339963266,6.107787648534094e-09,4.996770174284384,6.107787648534094e-09,4.61061757329531
6.115910309939102e-09,-0.03632208330552975,6.115910309939102e-09,4.993894255028997,6.115910309939102e-09,4.204484503044887
6.128869592236772e-09,-0.06069254066179511,6.128869592236772e-09,4.991454343440205,6.128869592236772e-09,3.556520388161389
6.141080783626779e-09,-0.06415242932373205,6.141080783626779e-09,4.993252198700589,6.141080783626779e-09,2.945960818661052
6.152062302179054e-09,-0.04843018691812165,6.152062302179054e-09,4.997841252809899,6.152062302179054e-09,2.396884891047315
6.169923397192234e-09,0.02011764449913888,6.169923397192234e-09,5.010341687036015,6.169923397192234e-09,1.50383014038829
6.184961698596117e-09,0.128596934365456,6.184961698596117e-09,5.025677973815143,6.184961698596117e-09,0.7519150701941433
6.2e-09,0.3004943919860895,6.2e-09,5.046802602091339,6.2e-09,0
6.201660977363308e-09,0.3258270064581836,6.201660977363308e-09,5.049934925821886,6.201660977363308e-09,0
6.203196925155308e-09,0.3492392676700688,6.203196925155308e-09,5.052742656520677,6.203196925155308e-09,0
6.205355406171773e-09,0.3820863207898841,6.205355406171773e-09,5.056492025135193,6.205355406171773e-09,0
6.209672368204704e-09,0.4475702631931849,6.209672368204704e-09,5.063314308435451,6.209672368204704e-09,0
6.218306292270565e-09,0.5777611390523819,6.218306292270565e-09,5.074688915166382,6.218306292270565e-09,0
6.235574140402288e-09,0.8336623897707442,6.235574140402288e-09,5.090817556820531,6.235574140402288e-09,0
6.248572792597306e-09,1.007467240543607,6.248572792597306e-09,5.096499907321413,6.248572792597306e-09,0
6.260125509937503e-09,1.151543354825211,6.260125509937503e-09,5.093594967335504,6.260125509937503e-09,0
6.278222674374924e-09,1.368170317928188,6.278222674374924e-09,5.071087440525505,6.278222674374924e-09,0
6.29485656028267e-09,1.558439354310381,6.29485656028267e-09,5.032664404521877,6.29485656028267e-09,0
6.304680508868777e-09,1.667082926326422,6.304680508868777e-09,5.002754168562647,6.304680508868777e-09,0
6.32432840604099e-09,1.879033021982501,6.32432840604099e-09,4.93207180074524,6.32432840604099e-09,0
6.347190437066694e-09,2.112609042569321,6.347190437066694e-09,4.827056478837128,6.347190437066694e-09,0
6.37482551418982e-09,2.37528099957022,6.37482551418982e-09,4.664969277379532,6.37482551418982e-09,0
6.395678883526359e-09,2.559501920210793,6.395678883526359e-09,4.510828805424974,6.395678883526359e-09,0
6.405484925939541e-09,2.64288691867333,6.405484925939541e-09,4.425656546261054,6.405484925939541e-09,0
6.423744355901067e-09,2.796014488247045,6.423744355901067e-09,4.230604970537941,6.423744355901067e-09,0
6.439422325370163e-09,2.92398818597803,6.439422325370163e-09,4.009254113793944,6.439422325370163e-09,0
6.452718325479366e-09,3.023476060218308,6.452718325479366e-09,3.780180198379018,6.452718325479366e-09,0
6.469207442024868e-09,3.133572271162448,6.469207442024868e-09,3.444231036458767,6.469207442024868e-09,0
6.478450197476344e-09,3.189042320890983,6.478450197476344e-09,3.231820543066633,6.478450197476344e-09,0
6.496935708379298e-09,3.288071865955451,6.496935708379298e-09,2.762057894065396,6.496935708379298e-09,0
6.516568041320643e-09,3.378247912756875,6.516568041320643e-09,2.209148473550716,6.516568041320643e-09,0
6.534227783394372e-09,3.449016128494537,6.534227783394372e-09,1.681666125343932,6.534227783394372e-09,0
6.543551960099151e-09,3.483444783222839,6.543551960099151e-09,1.40607565188693,6.543551960099151e-09,0
6.553499008071823e-09,3.517111302353752,6.553499008071823e-09,1.140077570823457,6.553499008071823e-09,0
6.561417468885837e-09,3.542294388074704,6.561417468885837e-09,0.9579680590063238,6.561417468885837e-09,0
6.570147598434746e-09,3.571577112744519,6.570147598434746e-09,0.7884670763639017,6.570147598434746e-09,0
6.583204672330996e-09,3.621563328224897,6.583204672330996e-09,0.5898171487243581,6.583204672330996e-09,0
6.597286965594982e-09,3.68380806014208,6.597286965594982e-09,0.4350470294647258,6.597286965594982e-09,0
6.60934113248523e-09,3.742297925977837,6.60934113248523e-09,0.3399338323131361,6.60934113248523e-09,0
6.621300454144695e-09,3.803001589607959,6.621300454144695e-09,0.2700388152895996,6.621300454144695e-09,0
6.633878449980372e-09,3.867798803981939,6.633878449980372e-09,0.2149203610536578,6.633878449980372e-09,0
6.647567960100215e-09,3.937759016061959,6.647567960100215e-09,0.1696569122821283,6.647567960100215e-09,0
6.663095397871908e-09,4.014938937951738,6.663095397871908e-09,0.1309288344855427,6.663095397871908e-09,0
6.681182239142587e-09,4.100736826548448,6.681182239142587e-09,0.097356720230124,6.681182239142587e-09,0
6.702804017760083e-09,4.196923517153825,6.702804017760083e-09,0.06876725487661016,6.702804017760083e-09,0
6.713067170194967e-09,4.240440023007682,6.713067170194967e-09,0.05883877256805801,6.713067170194967e-09,0
6.733593475064735e-09,4.325425119215787,6.733593475064735e-09,0.04397912303861877,6.733593475064735e-09,0
