/O X,/O Y,/net8 X,/net8 Y,/net3 X,/net3 Y
0,4.999999981632027,0,2.892568355444196e-08,0,5
2.5e-11,4.999999981631999,2.5e-11,2.892568076482976e-08,2.5e-11,5
7.5e-11,4.999999981631976,7.5e-11,2.892568007132772e-08,7.5e-11,5
1.75e-10,4.999999981631961,1.75e-10,2.89256800019616e-08,1.75e-10,5
3.749999999999999e-10,4.99999998163196,3.749999999999999e-10,2.892568302516687e-08,3.749999999999999e-10,5
6.25e-10,4.999999981631961,6.25e-10,2.892568457467665e-08,6.25e-10,5
8.125e-10,4.999999981631961,8.125e-10,2.892568462283735e-08,8.125e-10,5
1e-09,4.999999981631961,1e-09,2.892568416341303e-08,1e-09,5
1.000247924128256e-09,4.999653588025192,1.000247924128256e-09,-0.001630340394604165,1.000247924128256e-09,4.987603793587226
1.000434439672984e-09,4.999393891541943,1.000434439672984e-09,-0.002857368958010882,1.000434439672984e-09,4.978278016350802
1.000807470762441e-09,4.998878039238343,1.000807470762441e-09,-0.005313380153018617,1.000807470762441e-09,4.959626461877954
1.001258548805095e-09,4.998261070054384,1.001258548805095e-09,-0.008286128614834834,1.001258548805095e-09,4.937072559745229
1.002160704890404e-09,4.997050676736099,1.002160704890404e-09,-0.0142358352263027,1.002160704890404e-09,4.891964755479779
1.003428331495286e-09,4.995405152810335,1.003428331495286e-09,-0.02258946026916299,1.003428331495286e-09,4.828583425235712
1.004706463019408e-09,4.993813500998485,1.004706463019408e-09,-0.0309853479963775,1.004706463019408e-09,4.7646768490296
1.006100809993393e-09,4.992156499786256,1.006100809993393e-09,-0.0400908958345007,1.006100809993393e-09,4.694959500330329
1.007643781937074e-09,4.99041460383914,1.007643781937074e-09,-0.05010663633920411,1.007643781937074e-09,4.617810903146298
1.009130880245715e-09,4.988825183154402,1.009130880245715e-09,-0.05969098238345237,1.009130880245715e-09,4.543455987714262
1.010926880166754e-09,4.987021105517011,1.010926880166754e-09,-0.07115698564165517,1.010926880166754e-09,4.453655991662307
1.012568672081912e-09,4.985440670835542,1.012568672081912e-09,-0.0817120524308966,1.012568672081912e-09,4.371566395904389
1.014242493913852e-09,4.983799045615078,1.014242493913852e-09,-0.09300081862836691,1.014242493913852e-09,4.287875304307406
1.015547359989333e-09,4.982508790594025,1.015547359989333e-09,-0.1021221312167847,1.015547359989333e-09,4.222632000533354
1.016805363234022e-09,4.98132449417264,1.016805363234022e-09,-0.1108577520011612,1.016805363234022e-09,4.159731838298904
1.018002149306545e-09,4.980282136314268,1.018002149306545e-09,-0.1189646105537679,1.018002149306545e-09,4.099892534672774
1.019469738074547e-09,4.979129064127816,1.019469738074547e-09,-0.1285526959458007,1.019469738074547e-09,4.026513096272666
1.021608492053528e-09,4.977699441404992,1.021608492053528e-09,-0.1417509033423368,1.021608492053528e-09,3.919575397323612
1.024690326532099e-09,4.976147040901597,1.024690326532099e-09,-0.1590554153213128,1.024690326532099e-09,3.765483673395055
1.028920123783725e-09,4.97492898835512,1.028920123783725e-09,-0.1793776114862066,1.028920123783725e-09,3.553993810813731
1.034385705365102e-09,4.974759237209256,1.034385705365102e-09,-0.1996109469989335,1.034385705365102e-09,3.280714731744893
1.041379961869573e-09,4.976511023326371,1.041379961869573e-09,-0.2154882237799242,1.041379961869573e-09,2.931001906521377
1.049982500342647e-09,4.981111574865607,1.049982500342647e-09,-0.2196111585969445,1.049982500342647e-09,2.50087498286764
1.057661976556955e-09,4.987057339743531,1.057661976556955e-09,-0.2089109802672382,1.057661976556955e-09,2.116901172152234
1.06415743988114e-09,4.993215603316737,1.06415743988114e-09,-0.1890420249943194,1.06415743988114e-09,1.792128005942999
1.068134486752143e-09,4.9973842240663,1.068134486752143e-09,-0.1721540238987741,1.068134486752143e-09,1.593275662392874
1.072002925784329e-09,5.001812555512444,1.072002925784329e-09,-0.152036343019548,1.072002925784329e-09,1.399853710783571
1.076942579766262e-09,5.008197161528499,1.076942579766262e-09,-0.1200212080107776,1.076942579766262e-09,1.152871011686891
1.080563000421069e-09,5.013401831716681,1.080563000421069e-09,-0.0912190111795356,1.080563000421069e-09,0.9718499789465627
1.083700354759547e-09,5.018567799063453,1.083700354759547e-09,-0.06101651436970372,1.083700354759547e-09,0.8149822620226637
1.085162244608951e-09,5.021392956865308,1.085162244608951e-09,-0.04425445787666239,1.085162244608951e-09,0.7418877695524548
1.086554166892395e-09,5.024427450435582,1.086554166892395e-09,-0.02618828196785975,1.086554166892395e-09,0.6722916553802509
1.088076912247244e-09,5.028052772204997,1.088076912247244e-09,-0.004349096585012701,1.088076912247244e-09,0.5961543876378093
1.089155640714122e-09,5.030808782435017,1.089155640714122e-09,0.01244237036529375,1.089155640714122e-09,0.542217964293914
1.090229483621644e-09,5.033745359485136,1.090229483621644e-09,0.03044834529478226,1.090229483621644e-09,0.4885258189177994
1.091209036410158e-09,5.036568114845161,1.091209036410158e-09,0.04791111122211567,1.091209036410158e-09,0.4395481794921032
1.092144871798082e-09,5.039333300858759,1.092144871798082e-09,0.06526367413412361,1.092144871798082e-09,0.3927564100958989
1.093051100557873e-09,5.04203729919438,1.093051100557873e-09,0.08252837375630753,1.093051100557873e-09,0.3474449721063557
1.094058340341404e-09,5.045054546808717,1.094058340341404e-09,0.1021690974029381,1.094058340341404e-09,0.297082982929803
1.095436616191122e-09,5.049192017793411,1.095436616191122e-09,0.1297634899926379,1.095436616191122e-09,0.2281691904438983
1.097576501615124e-09,5.055628526138189,1.097576501615124e-09,0.174210516587906,1.097576501615124e-09,0.121174919243809
1.1e-09,5.062936612175029,1.1e-09,0.2268866458268309,1.1e-09,0
1.100390244364894e-09,5.064501844232484,1.100390244364894e-09,0.2373908160940113,1.100390244364894e-09,0
1.10080535549433e-09,5.066154208961243,1.10080535549433e-09,0.2485695287834015,1.10080535549433e-09,0
1.10135013323686e-09,5.068295566620849,1.10135013323686e-09,0.2632445946879576,1.10135013323686e-09,0
1.10243968872192e-09,5.072480261575167,1.10243968872192e-09,0.2926046250259701,1.10243968872192e-09,0
1.10461879969204e-09,5.080469889071945,1.10461879969204e-09,0.3513481771669786,1.10461879969204e-09,0
1.108977021632281e-09,5.095064464743997,1.108977021632281e-09,0.468838791120211,1.108977021632281e-09,0
1.113216762677603e-09,5.107673034526658,1.113216762677603e-09,0.5830059080231959,1.113216762677603e-09,0
1.117446254464332e-09,5.11889100480761,1.117446254464332e-09,0.6966177356844814,1.117446254464332e-09,0
1.121695338679466e-09,5.129064330415338,1.121695338679466e-09,0.8099795479620431,1.121695338679466e-09,0
1.125926927226512e-09,5.138733776422343,1.125926927226512e-09,0.9197844917433872,1.125926927226512e-09,0
1.129898768589593e-09,5.147013585841464,1.129898768589593e-09,1.019114775073447,1.129898768589593e-09,0
1.134346252920671e-09,5.153540945152084,1.134346252920671e-09,1.128375257915292,1.134346252920671e-09,0
1.138725500891571e-09,5.156399816903697,1.138725500891571e-09,1.234604994571758,1.138725500891571e-09,0
1.143688108282697e-09,5.155158339954894,1.143688108282697e-09,1.353366462706069,1.143688108282697e-09,0
1.149050713740849e-09,5.148526945222228,1.149050713740849e-09,1.479692981084967,1.149050713740849e-09,0
1.154843056091007e-09,5.135406361247761,1.154843056091007e-09,1.613718955712441,1.154843056091007e-09,0
1.161164666525288e-09,5.114352665370167,1.161164666525288e-09,1.757017897683341,1.161164666525288e-09,0
1.168101320425988e-09,5.083574749659576,1.168101320425988e-09,1.910538565112915,1.168101320425988e-09,0
1.175794605044331e-09,5.040508151548142,1.175794605044331e-09,2.076004149030257,1.175794605044331e-09,0
1.184431854671045e-09,4.98223380682582,1.184431854671045e-09,2.255700643690568,1.184431854671045e-09,0
1.194263687143042e-09,4.904395782408837,1.194263687143042e-09,2.452228000877378,1.194263687143042e-09,0
1.205642257326487e-09,4.794258993472312,1.205642257326487e-09,2.666400714425018,1.205642257326487e-09,0
1.219080653238651e-09,4.630520152009031,1.219080653238651e-09,2.900037019578602,1.219080653238651e-09,0
1.229303035825262e-09,4.470120201634443,1.229303035825262e-09,3.065904608631338,1.229303035825262e-09,0
1.239734798225675e-09,4.254336874854439,1.239734798225675e-09,3.227597688341518,1.239734798225675e-09,0
1.248406218904518e-09,4.035870699740126,1.248406218904518e-09,3.352106062054967,1.248406218904518e-09,0
1.259170369213279e-09,3.718462369850257,1.259170369213279e-09,3.492523592603912,1.259170369213279e-09,0
1.274890322943488e-09,3.170662155286033,1.274890322943488e-09,3.671412501269108,1.274890322943488e-09,0
1.290749995292366e-09,2.531511690826202,1.290749995292366e-09,3.8238834306421,1.290749995292366e-09,0
1.304388350907902e-09,1.933366569892652,1.304388350907902e-09,3.935753761661118,1.304388350907902e-09,0
1.311155529037525e-09,1.635416225468628,1.311155529037525e-09,3.9854131075579,1.311155529037525e-09,0
1.31839798632131e-09,1.342300103927588,1.31839798632131e-09,4.033766447545997,1.31839798632131e-09,0
1.324178420420876e-09,1.13602346611027,1.324178420420876e-09,4.069337612558547,1.324178420420876e-09,0
1.330672603554799e-09,0.934540276930631,1.330672603554799e-09,4.107961482236977,1.330672603554799e-09,0
1.341445793296679e-09,0.6665446574050802,1.341445793296679e-09,4.171646458820804,1.341445793296679e-09,0
1.354380359725394e-09,0.4366918767972119,1.354380359725394e-09,4.248864029597658,1.354380359725394e-09,0
1.364498109293523e-09,0.3124370005225656,1.364498109293523e-09,4.309934015377479,1.364498109293523e-09,0
1.373986897352496e-09,0.2289470097760885,1.373986897352496e-09,4.367232162919176,1.373986897352496e-09,0
1.383719868757158e-09,0.1676136345153892,1.383719868757158e-09,4.424610172172157,1.383719868757158e-09,0
1.394055863211188e-09,0.1218708351453066,1.394055863211188e-09,4.482331883269951,1.394055863211188e-09,0
1.405453800253218e-09,0.08744438048178541,1.405453800253218e-09,4.541053174010634,1.405453800253218e-09,0
1.418113556923892e-09,0.06221121260662237,1.418113556923892e-09,4.599802019877782,1.418113556923892e-09,0
1.432409460423294e-09,0.04402111901727977,1.432409460423294e-09,4.658133553270342,1.432409460423294e-09,0
1.448940103410805e-09,0.03101984769665907,1.448940103410805e-09,4.715816690075472,1.448940103410805e-09,0
1.46853978200655e-09,0.02174816343997864,1.46853978200655e-09,4.772332130980046,1.46853978200655e-09,0
1.492455896366482e-09,0.01504356479273445,1.492455896366482e-09,4.826838242634838,1.492455896366482e-09,0
1.511896005532893e-09,0.01166358947774812,1.511896005532893e-09,4.861473868995716,1.511896005532893e-09,0
1.545813381079534e-09,0.007699847243542886,1.545813381079534e-09,4.906672790980087,1.545813381079534e-09,0
1.569954184599907e-09,0.005820027269685585,1.569954184599907e-09,4.929589722163304,1.569954184599907e-09,0
1.609149403072297e-09,0.003678792038021287,1.609149403072297e-09,4.955792673522293,1.609149403072297e-09,0
1.642075523764583e-09,0.002489082825710958,1.642075523764583e-09,4.97022218312559,1.642075523764583e-09,0
1.675031072766101e-09,0.001678549223917612,1.675031072766101e-09,4.979961987572239,1.675031072766101e-09,0
1.714926694599563e-09,0.001031904561023972,1.714926694599563e-09,4.987684347965955,1.714926694599563e-09,0
1.762603692837904e-09,0.000563776939703924,1.762603692837904e-09,4.99326259313294,1.762603692837904e-09,0
1.820621495908497e-09,0.0002549545735332807,1.820621495908497e-09,4.996946769866734,1.820621495908497e-09,0
1.894931833583119e-09,7.37136460355136e-05,1.894931833583119e-09,4.999114987142198,1.894931833583119e-09,0
1.995381761727507e-09,-9.070993223636738e-06,1.995381761727507e-09,5.000108417629848,1.995381761727507e-09,0
2.140973320212598e-09,-2.646284603556956e-05,2.140973320212598e-09,5.000317440886255,2.140973320212598e-09,0
2.345631046840687e-09,-1.434900561459913e-05,2.345631046840687e-09,5.00017134202613,2.345631046840687e-09,0
2.595631046840687e-09,-3.173762007060449e-06,2.595631046840687e-09,5.000037849347535,2.595631046840687e-09,0
2.845631046840687e-09,2.053657829612557e-07,2.845631046840687e-09,4.99999771081043,2.845631046840687e-09,0
3.095631046840687e-09,4.717397008260228e-07,3.095631046840687e-09,4.99999456416348,3.095631046840687e-09,0
3.345631046840688e-09,2.069055778039595e-07,3.345631046840688e-09,4.999997707890591,3.345631046840688e-09,0
3.595631046840688e-09,5.29165906701587e-08,3.595631046840688e-09,4.999999549779097,3.595631046840688e-09,0
3.845631046840688e-09,1.168997091375401e-08,3.845631046840688e-09,5.000000044604982,3.845631046840688e-09,0
4.095631046840688e-09,1.036047194754071e-08,4.095631046840688e-09,5.00000005992394,4.095631046840688e-09,0
4.345631046840687e-09,1.455935712943053e-08,4.345631046840687e-09,5.000000009438114,4.345631046840687e-09,0
4.595631046840687e-09,1.668260265926417e-08,4.595631046840687e-09,4.99999998461764,4.595631046840687e-09,0
4.845631046840687e-09,1.716554916161649e-08,4.845631046840687e-09,4.99999997890902,4.845631046840687e-09,0
5.095631046840687e-09,1.714457455694668e-08,5.095631046840687e-09,4.999999979120359,5.095631046840687e-09,0
5.345631046840686e-09,1.708003838180792e-08,5.345631046840686e-09,4.999999979883329,5.345631046840686e-09,0
5.595631046840686e-09,1.705243847751605e-08,5.595631046840686e-09,4.999999980213895,5.595631046840686e-09,0
5.845631046840686e-09,1.704704081326991e-08,5.845631046840686e-09,4.999999980278971,5.845631046840686e-09,0
5.972815523420343e-09,1.704774961752334e-08,5.972815523420343e-09,4.999999980270541,5.972815523420343e-09,0
6.1e-09,1.704851157393333e-08,6.1e-09,4.999999980261422,6.1e-09,0
6.103125e-09,0.002883017295608879,6.103125e-09,5.015313324453486,6.103125e-09,0.1562500000000117
6.106788383507051e-09,0.005866501860602107,6.106788383507051e-09,5.032707523884531,6.106788383507051e-09,0.3394191753525475
6.112567837360923e-09,0.009601529056196422,6.112567837360923e-09,5.058756442141019,6.112567837360923e-09,0.6283918680461419
6.113876999186718e-09,0.01032390066572153,6.113876999186718e-09,5.064597758342681,6.113876999186718e-09,0.6938499593359165
6.115563529671728e-09,0.01130240926032416,6.115563529671728e-09,5.072626486331635,6.115563529671728e-09,0.7781764835863846
6.116843670216171e-09,0.0121068241846858,6.116843670216171e-09,5.079229122910282,6.116843670216171e-09,0.8421835108085481
6.118020040271877e-09,0.01282999707902993,6.118020040271877e-09,5.085387400887424,6.118020040271877e-09,0.9010020135938281
6.119178506764848e-09,0.01347221705426116,6.119178506764848e-09,5.091268499604966,6.119178506764848e-09,0.958925338242376
6.120317362199987e-09,0.01400988467632336,6.120317362199987e-09,5.096733705453236,6.120317362199987e-09,1.015868109999368
6.12189907527248e-09,0.01458342828988768,6.12189907527248e-09,5.103671550194319,6.12189907527248e-09,1.094953763623986
6.125062501417464e-09,0.01511474078198812,6.125062501417464e-09,5.114955394159914,6.125062501417464e-09,1.253125070873222
6.128446310577077e-09,0.01481927941935723,6.128446310577077e-09,5.122984252596596,6.128446310577077e-09,1.422315528853846
6.13217071674146e-09,0.0135603979621336,6.13217071674146e-09,5.126858850024059,6.13217071674146e-09,1.608535837073016
6.137041367857027e-09,0.01065124572347073,6.137041367857027e-09,5.124023889947455,6.137041367857027e-09,1.852068392851336
6.142421587935624e-09,0.006069273428123767,6.142421587935624e-09,5.110576301112574,6.142421587935624e-09,2.121079396781187
6.147934119726662e-09,0.0001946933445346606,6.147934119726662e-09,5.085720199442427,6.147934119726662e-09,2.396705986333074
6.153253135143194e-09,-0.006676621471381771,6.153253135143194e-09,5.05121097410859,6.153253135143194e-09,2.662656757159683
6.158747100048997e-09,-0.01453501020609365,6.158747100048997e-09,5.004635194485464,6.158747100048997e-09,2.937355002449836
6.164671565268491e-09,-0.02359065055075841,6.164671565268491e-09,4.942447513940155,6.164671565268491e-09,3.233578263424572
6.171285059109922e-09,-0.03479952878148751,6.171285059109922e-09,4.855509794907992,6.171285059109922e-09,3.56425295549611
6.178856866630646e-09,-0.05079170783883648,6.178856866630646e-09,4.722204465476734,6.178856866630646e-09,3.942843331532291
6.186014563180377e-09,-0.06893086851128977,6.186014563180377e-09,4.560016527375975,6.186014563180377e-09,4.300728159018826
6.193007281590188e-09,-0.08863384075837284,6.193007281590188e-09,4.373494120901342,6.193007281590188e-09,4.650364079509415
6.2e-09,-0.112594677530799,6.2e-09,4.177097993110565,6.2e-09,5
6.201124533096754e-09,-0.117707212926694,6.201124533096754e-09,4.139678310213874,6.201124533096754e-09,5
6.202177648325361e-09,-0.1222389482628339,6.202177648325361e-09,4.10475993910457,6.202177648325361e-09,5
6.203530214628972e-09,-0.1275260712799302,6.203530214628972e-09,4.060147939627497,6.203530214628972e-09,5
6.206235347236194e-09,-0.1361339657672931,6.206235347236194e-09,3.971698899957026,6.206235347236194e-09,5
6.211645612450637e-09,-0.1456551068441955,6.211645612450637e-09,3.797439877149766,6.211645612450637e-09,5
6.216545793456632e-09,-0.1458647604142439,6.216545793456632e-09,3.642239253212565,6.216545793456632e-09,5
6.221561041299038e-09,-0.1382539107719841,6.221561041299038e-09,3.485628057066574,6.221561041299038e-09,5
6.227045844003551e-09,-0.1212937356752623,6.227045844003551e-09,3.316717896966565,6.227045844003551e-09,5
6.233131643198311e-09,-0.09223448432620289,6.233131643198311e-09,3.132380196579631,6.233131643198311e-09,5
6.240576351231521e-09,-0.04203572275369587,6.240576351231521e-09,2.913148405447842,6.240576351231521e-09,5
6.253168669314148e-09,0.07610603691536717,6.253168669314148e-09,2.569713369485601,6.253168669314148e-09,5
6.262605484259856e-09,0.1924265842423687,6.262605484259856e-09,2.338440487957869,6.262605484259856e-09,5
6.27509698669673e-09,0.391055354608798,6.27509698669673e-09,2.064149638684519,6.27509698669673e-09,5
6.284498538946767e-09,0.5939147473082648,6.284498538946767e-09,1.876699735774895,6.284498538946767e-09,5
6.292411430844666e-09,0.8130137297677822,6.292411430844666e-09,1.730962887613894,6.292411430844666e-09,5
6.300427829472365e-09,1.074460900438519,6.300427829472365e-09,1.5966144833033,6.300427829472365e-09,5
6.308648011300189e-09,1.379047585797182,6.308648011300189e-09,1.471804777047678,6.308648011300189e-09,5
6.317503101996421e-09,1.740903273607182,6.317503101996421e-09,1.350467130649257,6.317503101996421e-09,5
6.327220560183507e-09,2.166717094431506,6.327220560183507e-09,1.231031120437811,6.327220560183507e-09,5
6.336409099949617e-09,2.583879769942419,6.336409099949617e-09,1.129525133271994,6.336409099949617e-09,5
6.344996675130222e-09,2.970703988334987,6.344996675130222e-09,1.04318182570986,6.344996675130222e-09,5
6.3526838998382e-09,3.295032687479996,6.3526838998382e-09,0.9726876201877362,6.3526838998382e-09,5
6.359181974582194e-09,3.538547582965949,6.359181974582194e-09,0.9192053441426707,6.359181974582194e-09,5
6.365356375909588e-09,3.741822175811455,6.365356375909588e-09,0.8721973678256438,6.365356375909588e-09,5
6.376299186922756e-09,4.041282488617454,6.376299186922756e-09,0.7933477368589553,6.376299186922756e-09,5
6.387855759708982e-09,4.285624070463622,6.387855759708982e-09,0.7142517478560901,6.387855759708982e-09,5
6.398137831216596e-09,4.451792215604232,6.398137831216596e-09,0.6473252895854026,6.398137831216596e-09,5
6.408550936187642e-09,4.58076077753925,6.408550936187642e-09,0.5832284022950764,6.408550936187642e-09,5
6.419348490808679e-09,4.681892409257661,6.419348490808679e-09,0.5211477971405031,6.419348490808679e-09,5
6.430579477218308e-09,4.760289846806419,6.430579477218308e-09,0.4616702520493372,6.430579477218308e-09,5
6.442566238931875e-09,4.821638108198248,6.442566238931875e-09,0.4040896427374824,6.442566238931875e-09,5
6.455604076328177e-09,4.869511921511243,6.455604076328177e-09,0.3482842218395455,6.455604076328177e-09,5
6.470001891529818e-09,4.906446968285745,6.470001891529818e-09,0.2944962642661073,6.470001891529818e-09,5
6.486137751803663e-09,4.934475321674536,6.486137751803663e-09,0.2431432494678917,6.486137751803663e-09,5
