/O X,/O Y,/net8 X,/net8 Y,/net3 X,/net3 Y
0,4.999999981632027,0,1.413849256083952e-08,0,5
2.5e-11,4.999999981631999,2.5e-11,1.413848908097098e-08,2.5e-11,5
7.5e-11,4.999999981631976,7.5e-11,1.413848821687033e-08,7.5e-11,5
1.75e-10,4.999999981631961,1.75e-10,1.413848996365069e-08,1.75e-10,5
3.749999999999999e-10,4.999999981631959,3.749999999999999e-10,1.413849315848179e-08,3.749999999999999e-10,5
6.25e-10,4.999999981631961,6.25e-10,1.413849304296741e-08,6.25e-10,5
8.125e-10,4.999999981631962,8.125e-10,1.41384923608073e-08,8.125e-10,5
1e-09,4.999999981631962,1e-09,1.413849156718719e-08,1e-09,5
1.000805189980189e-09,4.999611658008869,1.000805189980189e-09,-0.001858141682671941,1.000805189980189e-09,4.95974050099057
1.001416579376246e-09,4.999322454966031,1.001416579376246e-09,-0.003259912719999068,1.001416579376246e-09,4.929171031187705
1.002639358168361e-09,4.998765850411462,1.002639358168361e-09,-0.006027838278544507,1.002639358168361e-09,4.868032091581976
1.00417719273427e-09,4.99810792518343,1.00417719273427e-09,-0.009439204512113763,1.00417719273427e-09,4.791140363286485
1.00725286186609e-09,4.9969241628245,1.00725286186609e-09,-0.01603687159504555,1.00725286186609e-09,4.637356906695501
1.012229390531222e-09,4.995337178411754,1.012229390531222e-09,-0.02612745882080185,1.012229390531222e-09,4.388530473438919
1.014313371837709e-09,4.994783674753358,1.014313371837709e-09,-0.03014990222013152,1.014313371837709e-09,4.284331408114573
1.016370175203685e-09,4.994294111173026,1.016370175203685e-09,-0.03401161736883874,1.016370175203685e-09,4.181491239815769
1.018470290447763e-09,4.993846674522801,1.018470290447763e-09,-0.0378509960143773,1.018470290447763e-09,4.076485477611845
1.02008683225799e-09,4.993535582483389,1.02008683225799e-09,-0.04073872008600697,1.02008683225799e-09,3.995658387100485
1.022007740844619e-09,4.993200300909102,1.022007740844619e-09,-0.04409834717662021,1.022007740844619e-09,3.899612957769035
1.024882210954691e-09,4.99276117947442,1.024882210954691e-09,-0.04899080530458295,1.024882210954691e-09,3.755889452265468
1.028351002173816e-09,4.99231931543449,1.028351002173816e-09,-0.05469862918614499,1.028351002173816e-09,3.582449891309206
1.032149705063471e-09,4.991930017529925,1.032149705063471e-09,-0.06073120452196648,1.032149705063471e-09,3.392514746826451
1.036203267623916e-09,4.991604855838952,1.036203267623916e-09,-0.06695432638375774,1.036203267623916e-09,3.189836618804207
1.040519059389305e-09,4.991340217118001,1.040519059389305e-09,-0.0733833345357596,1.040519059389305e-09,2.974047030534735
1.045172491107414e-09,4.991125812910376,1.045172491107414e-09,-0.0801471836828782,1.045172491107414e-09,2.74137544462929
1.050292747295023e-09,4.990947602339515,1.050292747295023e-09,-0.08746927762666447,1.050292747295023e-09,2.485362635248834
1.056118820715571e-09,4.990782828920314,1.056118820715571e-09,-0.09577415215107726,1.056118820715571e-09,2.194058964221475
1.062836475524959e-09,4.990584106969043,1.062836475524959e-09,-0.1055796666440098,1.062836475524959e-09,1.858176223752066
1.064509499656936e-09,4.99048968784628,1.064509499656936e-09,-0.1082713694899729,1.064509499656936e-09,1.774525017153179
1.066030154183349e-09,4.990275681883841,1.066030154183349e-09,-0.1113521591487294,1.066030154183349e-09,1.698492290832561
1.067545915590743e-09,4.989841246664795,1.067545915590743e-09,-0.1155282546060067,1.067545915590743e-09,1.622704220462862
1.068773100206881e-09,4.989375945786248,1.068773100206881e-09,-0.1195158098364752,1.068773100206881e-09,1.561344989655966
1.070187075380854e-09,4.988811035628427,1.070187075380854e-09,-0.1243446792321622,1.070187075380854e-09,1.490646230957308
1.071391361117505e-09,4.98834621520124,1.071391361117505e-09,-0.1284675282209012,1.071391361117505e-09,1.430431944124738
1.072804341042534e-09,4.987844198006597,1.072804341042534e-09,-0.1331989851319336,1.072804341042534e-09,1.359782947873327
1.074691239964928e-09,4.987273008580654,1.074691239964928e-09,-0.1391977318077333,1.074691239964928e-09,1.265438001753591
1.076955254205065e-09,4.986772257901515,1.076955254205065e-09,-0.1457045278388486,1.076955254205065e-09,1.152237289746744
1.079400320312903e-09,4.986501889637241,1.079400320312903e-09,-0.1516011262828915,1.079400320312903e-09,1.029983984354875
1.081887547348995e-09,4.986558976505431,1.081887547348995e-09,-0.1560857179159729,1.081887547348995e-09,0.9056226325502719
1.084428616032182e-09,4.987009871181292,1.084428616032182e-09,-0.1587425077537897,1.084428616032182e-09,0.7785691983909189
1.086118263470403e-09,4.987611891007756,1.086118263470403e-09,-0.1589744450629415,1.086118263470403e-09,0.6940868264798716
1.087811744960294e-09,4.988586735026155,1.087811744960294e-09,-0.1572847496245928,1.087811744960294e-09,0.6094127519853192
1.08922875780092e-09,4.989662479555323,1.08922875780092e-09,-0.1544535121333595,1.08922875780092e-09,0.5385621099539977
1.091859651327117e-09,4.992100925456159,1.091859651327117e-09,-0.1464760176242687,1.091859651327117e-09,0.4070174336441701
1.093730216416325e-09,4.994147458457319,1.093730216416325e-09,-0.1387391243040502,1.093730216416325e-09,0.3134891791837306
1.096758820927735e-09,4.998008457489683,1.096758820927735e-09,-0.1223660071841918,1.096758820927735e-09,0.1620589536132675
1.1e-09,5.003034487211813,1.1e-09,-0.09925851735677035,1.1e-09,0
1.100581883441645e-09,5.004080325837704,1.100581883441645e-09,-0.09427180812591245,1.100581883441645e-09,0
1.101231426623498e-09,5.005278541126852,1.101231426623498e-09,-0.08849514354604308,1.101231426623498e-09,0
1.102084109967346e-09,5.006912559433524,1.102084109967346e-09,-0.08048071518023989,1.102084109967346e-09,0
1.103312904344605e-09,5.009390841087639,1.103312904344605e-09,-0.06802602926204739,1.103312904344605e-09,0
1.105523406458546e-09,5.014190865683619,1.105523406458546e-09,-0.04294934369256034,1.105523406458546e-09,0
1.108330857575426e-09,5.020831430858432,1.108330857575426e-09,-0.006378375219188799,1.108330857575426e-09,0
1.111254322695854e-09,5.028256127705441,1.111254322695854e-09,0.0368885064379144,1.111254322695854e-09,0
1.113886435654429e-09,5.035275444068854,1.113886435654429e-09,0.07999664454519173,1.113886435654429e-09,0
1.116509986014405e-09,5.042491326379673,1.116509986014405e-09,0.1265311977502716,1.116509986014405e-09,0
1.11916271227099e-09,5.04992691806795,1.11916271227099e-09,0.1768729280237043,1.11916271227099e-09,0
1.121946270257999e-09,5.05780187069367,1.121946270257999e-09,0.2329118201065744,1.121946270257999e-09,0
1.125067345573468e-09,5.066635570934155,1.125067345573468e-09,0.299245458896822,1.125067345573468e-09,0
1.128560839706918e-09,5.076436018132477,1.128560839706918e-09,0.3773660543345095,1.128560839706918e-09,0
1.132453689658468e-09,5.087150120546809,1.132453689658468e-09,0.4685892694340641,1.132453689658468e-09,0
1.136780388164122e-09,5.098704339602361,1.136780388164122e-09,0.5743422837392498,1.136780388164122e-09,0
1.141575468565321e-09,5.11098810047407,1.141575468565321e-09,0.6959157228921623,1.141575468565321e-09,0
1.146838424702162e-09,5.123904987403899,1.146838424702162e-09,0.832829435028123,1.146838424702162e-09,0
1.15186528437019e-09,5.136269999275953,1.15186528437019e-09,0.9623453715184986,1.15186528437019e-09,0
1.155659701095832e-09,5.14461033887311,1.155659701095832e-09,1.058911847775565,1.155659701095832e-09,0
1.162953539444595e-09,5.153753309465307,1.162953539444595e-09,1.244647010426527,1.162953539444595e-09,0
1.169219627601284e-09,5.153310807605846,1.169219627601284e-09,1.403808271147359,1.169219627601284e-09,0
1.179753810548128e-09,5.134727939424321,1.179753810548128e-09,1.667374066502967,1.179753810548128e-09,0
1.189656331004514e-09,5.097257654885339,1.189656331004514e-09,1.906907695296012,1.189656331004514e-09,0
1.19946740390154e-09,5.041635588444172,1.19946740390154e-09,2.131983162767555,1.19946740390154e-09,0
1.209387397520884e-09,4.968913148055508,1.209387397520884e-09,2.343894617595126,1.209387397520884e-09,0
1.220680234401326e-09,4.867621798564939,1.220680234401326e-09,2.564881218185308,1.220680234401326e-09,0
1.239302014942014e-09,4.648153525451351,1.239302014942014e-09,2.884558411682824,1.239302014942014e-09,0
1.250131802777067e-09,4.479062438878624,1.250131802777067e-09,3.050183858649623,1.250131802777067e-09,0
1.261530122067051e-09,4.244440560520713,1.261530122067051e-09,3.213631689563648,1.261530122067051e-09,0
1.270784110330055e-09,4.012258247696844,1.270784110330055e-09,3.334776774362719,1.270784110330055e-09,0
1.283049475699909e-09,3.651620753371809,1.283049475699909e-09,3.478699459516756,1.283049475699909e-09,0
1.298573180942832e-09,3.116413066248488,1.298573180942832e-09,3.637007069338867,1.298573180942832e-09,0
1.314591154826922e-09,2.48609052240784,1.314591154826922e-09,3.776630604749518,1.314591154826922e-09,0
1.328700759231062e-09,1.886083476801232,1.328700759231062e-09,3.883069591973923,1.328700759231062e-09,0
1.335551585986143e-09,1.595211958729268,1.335551585986143e-09,3.929844557604316,1.335551585986143e-09,0
1.342885542742537e-09,1.309941748357262,1.342885542742537e-09,3.975917856050909,1.342885542742537e-09,0
1.348820929759239e-09,1.106845318787406,1.348820929759239e-09,4.010744081083399,1.348820929759239e-09,0
1.355615865373681e-09,0.9055429755744188,1.355615865373681e-09,4.049614454840975,1.355615865373681e-09,0
1.367099384678939e-09,0.6355004062100146,1.367099384678939e-09,4.115095214792205,1.367099384678939e-09,0
1.379768548334871e-09,0.4232408797990378,1.379768548334871e-09,4.18742713843181,1.379768548334871e-09,0
1.389961346131941e-09,0.3042467134786783,1.389961346131941e-09,4.245130704123181,1.389961346131941e-09,0
1.399753845624663e-09,0.2223991596838859,1.399753845624663e-09,4.299601105222439,1.399753845624663e-09,0
1.409778546250342e-09,0.1624531128823637,1.409778546250342e-09,4.353945144861088,1.409778546250342e-09,0
1.420319435049352e-09,0.1179664917847886,1.420319435049352e-09,4.408667315367643,1.420319435049352e-09,0
1.432014108026133e-09,0.0841651481959028,1.432014108026133e-09,4.465288369512927,1.432014108026133e-09,0
1.445281510994548e-09,0.05906439813407743,1.445281510994548e-09,4.523689216770783,1.445281510994548e-09,0
1.460277831484643e-09,0.04135419574527384,1.460277831484643e-09,4.58242669314306,1.460277831484643e-09,0
1.477445404356337e-09,0.02921015263683064,1.477445404356337e-09,4.641040024790342,1.477445404356337e-09,0
1.497640143477672e-09,0.02091714687703727,1.497640143477672e-09,4.699690098687975,1.497640143477672e-09,0
1.522181798024871e-09,0.01512804294225304,1.522181798024871e-09,4.758369228727818,1.522181798024871e-09,0
1.553188239970191e-09,0.01082683700227209,1.553188239970191e-09,4.816651843280625,1.553188239970191e-09,0
1.575452936933192e-09,0.008838490932531256,1.575452936933192e-09,4.849511113614397,1.575452936933192e-09,0
1.616021276574969e-09,0.006171622583340305,1.616021276574969e-09,4.895310780297369,1.616021276574969e-09,0
1.647840487497339e-09,0.004661613329998968,1.647840487497339e-09,4.921294405979692,1.647840487497339e-09,0
1.678049227510329e-09,0.003567916650923305,1.678049227510329e-09,4.939903049619163,1.678049227510329e-09,0
1.713680347051329e-09,0.002593373141671578,1.713680347051329e-09,4.956309958497992,1.713680347051329e-09,0
1.754124398035997e-09,0.001796443782819901,1.754124398035997e-09,4.969664758744463,1.754124398035997e-09,0
1.799988073012391e-09,0.001177331684587632,1.799988073012391e-09,4.980053941667334,1.799988073012391e-09,0
1.854004887561718e-09,0.0007077452298035146,1.854004887561718e-09,4.987970654705554,1.854004887561718e-09,0
1.91924126516736e-09,0.0003726356530429694,1.91924126516736e-09,4.993650144623959,1.91924126516736e-09,0
2.00023744183305e-09,0.0001552824574324007,2.00023744183305e-09,4.997349568442267,2.00023744183305e-09,0
2.105088549388685e-09,3.428569502124292e-05,2.105088549388685e-09,4.999414356089671,2.105088549388685e-09,0
2.249076486843122e-09,-1.492242577362312e-05,2.249076486843122e-09,5.000255116932497,2.249076486843122e-09,0
2.447373572072378e-09,-1.913916910572215e-05,2.447373572072378e-09,5.000323547934082,2.447373572072378e-09,0
2.697373572072378e-09,-8.735962063150164e-06,2.697373572072378e-09,5.000145506967746,2.697373572072378e-09,0
2.947373572072379e-09,-2.086941978596968e-06,2.947373572072379e-09,5.000034457301733,2.947373572072379e-09,0
3.197373572072379e-09,7.301458092892677e-08,3.197373572072379e-09,4.99999894758577,3.197373572072379e-09,0
3.447373572072379e-09,3.299713315696543e-07,3.447373572072379e-09,4.999994753683162,3.447373572072379e-09,0
3.697373572072379e-09,1.786081852668764e-07,3.697373572072379e-09,4.999997225003977,3.697373572072379e-09,0
3.947373572072379e-09,6.329866888531193e-08,3.947373572072379e-09,4.999999167736854,3.947373572072379e-09,0
4.197373572072379e-09,2.064975664179737e-08,4.197373572072379e-09,4.999999902699144,4.197373572072379e-09,0
4.447373572072378e-09,1.267136454657048e-08,4.447373572072378e-09,5.000000040836913,4.447373572072378e-09,0
4.697373572072378e-09,1.412759819069836e-08,4.697373572072378e-09,5.000000015353323,4.697373572072378e-09,0
4.947373572072378e-09,1.605786871224981e-08,4.947373572072378e-09,4.999999982819508,4.947373572072378e-09,0
5.197373572072378e-09,1.690764532382034e-08,5.197373572072378e-09,4.99999996854602,5.197373572072378e-09,0
5.447373572072377e-09,1.710580271190425e-08,5.447373572072377e-09,4.999999965152853,5.447373572072377e-09,0
5.697373572072377e-09,1.709932904593992e-08,5.697373572072377e-09,4.99999996524431,5.697373572072377e-09,0
5.898686786036189e-09,1.707127497811132e-08,5.898686786036189e-09,4.99999996571974,5.898686786036189e-09,0
6.1e-09,1.70550640280428e-08,6.1e-09,4.999999965996198,6.1e-09,0
6.104582095847796e-09,0.0008887259035312116,6.104582095847796e-09,5.004963666374516,6.104582095847796e-09,0.2291047923898178
6.109625118926199e-09,0.002069966584433645,6.109625118926199e-09,5.01211635056925,6.109625118926199e-09,0.4812559463099332
6.119711165083003e-09,0.004821580631620493,6.119711165083003e-09,5.03183119186783,6.119711165083003e-09,0.985558254150164
6.129552817277042e-09,0.006819600839290653,6.129552817277042e-09,5.051848089370612,6.129552817277042e-09,1.477640863852085
6.140633639631362e-09,0.006020597797662255,6.140633639631362e-09,5.060384429628606,6.140633639631362e-09,2.031681981568109
6.150243442506157e-09,0.003021304666813808,6.150243442506157e-09,5.053323837555232,6.150243442506157e-09,2.512172125307835
6.166108445649352e-09,-0.005058349129085375,6.166108445649352e-09,5.011540273398174,6.166108445649352e-09,3.305422282467599
6.183054222824676e-09,-0.01591285048808821,6.183054222824676e-09,4.927816421412308,6.183054222824676e-09,4.152711141233821
6.191586477244587e-09,-0.02224557753797981,6.191586477244587e-09,4.868474646571364,6.191586477244587e-09,4.579323862229353
6.195793238622294e-09,-0.0256735535507483,6.195793238622294e-09,4.834203188847421,6.195793238622294e-09,4.789661931114678
6.2e-09,-0.02931186487466907,6.2e-09,4.796325723343276,6.2e-09,5
6.200987620924572e-09,-0.03044078447653652,6.200987620924572e-09,4.785671759730905,6.200987620924572e-09,5
6.201848590100634e-09,-0.0313985040394409,6.201848590100634e-09,4.776401368496676,6.201848590100634e-09,5
6.202850904635161e-09,-0.03247048476655934,6.202850904635161e-09,4.765641905455045,6.202850904635161e-09,5
6.204855533704215e-09,-0.03447198879940157,6.204855533704215e-09,4.744233313305,6.204855533704215e-09,5
6.208864791842324e-09,-0.03796936162733687,6.208864791842324e-09,4.701792545627828,6.208864791842324e-09,5
6.216883308118542e-09,-0.04340806199741749,6.216883308118542e-09,4.617937818025363,6.216883308118542e-09,5
6.232920340670978e-09,-0.05059259132470292,6.232920340670978e-09,4.451666395730749,6.232920340670978e-09,5
6.254029199693001e-09,-0.05806301732931245,6.254029199693001e-09,4.238557639805276,6.254029199693001e-09,5
6.276653100225615e-09,-0.05596142357236799,6.276653100225615e-09,4.015023495726175,6.276653100225615e-09,5
6.300900310435412e-09,-0.03063273732048078,6.300900310435412e-09,3.769480241831458,6.300900310435412e-09,5
6.323808240249755e-09,0.01542553732609252,6.323808240249755e-09,3.532487876877113,6.323808240249755e-09,5
6.335437395759689e-09,0.04641250307903952,6.335437395759689e-09,3.410661325601635,6.335437395759689e-09,5
6.358695706779557e-09,0.1257768606671632,6.358695706779557e-09,3.164601661664111,6.358695706779557e-09,5
6.373695914610432e-09,0.1901867145826967,6.373695914610432e-09,3.004453691851118,6.373695914610432e-09,5
6.403696330272181e-09,0.3590388058815905,6.403696330272181e-09,2.681965804871887,6.403696330272181e-09,5
6.427972907466441e-09,0.5553919196490746,6.427972907466441e-09,2.420451491325155,6.427972907466441e-09,5
6.44710743935755e-09,0.7863137856836352,6.44710743935755e-09,2.214567043328651,6.44710743935755e-09,5
6.460628996375441e-09,1.015043950224905,6.460628996375441e-09,2.07163076719204,6.460628996375441e-09,5
6.472002419689446e-09,1.252872224114176,6.472002419689446e-09,1.955757178919455,6.472002419689446e-09,5
6.49009777635848e-09,1.713929430229746,6.49009777635848e-09,1.780424299406896,6.49009777635848e-09,5
6.499615741545102e-09,1.993037074998694,6.499615741545102e-09,1.692332652736119,6.499615741545102e-09,5
6.514064192375566e-09,2.453244534689899,6.514064192375566e-09,1.563510050245739,6.514064192375566e-09,5
6.527917112663564e-09,2.919078139335033,6.527917112663564e-09,1.445108947309854,6.527917112663564e-09,5
6.539452361316983e-09,3.303431391735178,6.539452361316983e-09,1.350070926727586,6.539452361316983e-09,5
6.548950186265076e-09,3.593158187208958,6.548950186265076e-09,1.276205302561841,6.548950186265076e-09,5
6.556660301383597e-09,3.799456762006689,6.556660301383597e-09,1.220346319857786,6.556660301383597e-09,5
6.564821242570049e-09,3.989796056181219,6.564821242570049e-09,1.163384589692268,6.564821242570049e-09,5
6.579541459242529e-09,4.267702382615941,6.579541459242529e-09,1.062386711753241,6.579541459242529e-09,5
6.594201221877048e-09,4.474133768007296,6.594201221877048e-09,0.9624947476183821,6.594201221877048e-09,5
6.607099778494555e-09,4.608819373074079,6.607099778494555e-09,0.8748117118199481,6.607099778494555e-09,5
6.620192725771027e-09,4.710413129974799,6.620192725771027e-09,0.7867264383675809,6.620192725771027e-09,5
6.633788813272148e-09,4.786926044237553,6.633788813272148e-09,0.6994406188424751,6.633788813272148e-09,5
6.648310379515276e-09,4.844641589516593,6.648310379515276e-09,0.6133626963984167,6.648310379515276e-09,5
6.663601864356142e-09,4.886653471604111,6.663601864356142e-09,0.531690045867842,6.663601864356142e-09,5
6.680078143190487e-09,4.917466207171253,6.680078143190487e-09,0.4541579787846012,6.680078143190487e-09,5
6.698527086993025e-09,4.940521400694117,6.698527086993025e-09,0.3796353496219426,6.698527086993025e-09,5
6.719735534299736e-09,4.95782478900379,6.719735534299736e-09,0.3084377059144175,6.719735534299736e-09,5
6.74471036602198e-09,4.97080298658727,6.74471036602198e-09,0.2415114811566042,6.74471036602198e-09,5
6.765133246423263e-09,4.97770827131374,6.765133246423263e-09,0.1982327077474666,6.765133246423263e-09,5
6.789521514205469e-09,4.983467172238901,6.789521514205469e-09,0.1572669963529273,6.789521514205469e-09,5
6.826832866930193e-09,4.989355373795411,6.826832866930193e-09,0.1112638545534642,6.826832866930193e-09,5
6.853334608021455e-09,4.992086202819633,6.853334608021455e-09,0.08806059651669133,6.853334608021455e-09,5
6.879335494198679e-09,4.994014326173663,6.879335494198679e-09,0.07085680600121244,6.879335494198679e-09,5
6.910495431649487e-09,4.995683899601344,6.910495431649487e-09,0.05540593865465112,6.910495431649487e-09,5
6.945744071262452e-09,4.996997590375083,6.945744071262452e-09,0.04274477125630354,6.945744071262452e-09,5
6.986099965389613e-09,4.997999255694775,6.986099965389613e-09,0.03255625791876291,6.986099965389613e-09,5
7.034142676830374e-09,4.998746904598135,7.034142676830374e-09,0.02434509342157421,7.034142676830374e-09,5
7.092564551725924e-09,4.999271694652023,7.092564551725924e-09,0.01789711126597318,7.092564551725924e-09,5
