/net010 X,/net010 Y,/o1 X,/o1 Y,/net1 X,/net1 Y
0,4.999999981631962,0,1.704906655848801e-08,0,0
2.5e-11,4.999999981631962,2.5e-11,1.704906651917254e-08,2.5e-11,0
7.5e-11,4.999999981631961,7.5e-11,1.704906632232197e-08,7.5e-11,0
1.75e-10,4.999999981631961,1.75e-10,1.704906589614172e-08,1.75e-10,0
3.749999999999999e-10,4.999999981631961,3.749999999999999e-10,1.70490664693739e-08,3.749999999999999e-10,0
6.25e-10,4.999999981631961,6.25e-10,1.704906668393531e-08,6.25e-10,0
8.125e-10,4.999999981631962,8.125e-10,1.704906656924185e-08,8.125e-10,0
1e-09,4.999999981631962,1e-09,1.704906658898137e-08,1e-09,0
1.000049164419211e-09,5.000207421319375,1.000049164419211e-09,4.379304278637533e-05,1.000049164419211e-09,0.002458220960538196
1.000083734786125e-09,5.000353230694543,1.000083734786125e-09,7.453384958768547e-05,1.000083734786125e-09,0.004186739306253255
1.000152875519954e-09,5.000644643906047,1.000152875519954e-09,0.00013585773729072,1.000152875519954e-09,0.007643775997683371
1.000291156987611e-09,5.001226592507289,1.000291156987611e-09,0.0002578316793724036,1.000291156987611e-09,0.0145578493805436
1.000567719922925e-09,5.002386951134612,1.000567719922925e-09,0.0004990708028025895,1.000567719922925e-09,0.02838599614626407
1.001120845793554e-09,5.004693629150593,1.001120845793554e-09,0.0009708684689866345,1.001120845793554e-09,0.05604228967770501
1.002227097534812e-09,5.009251995180104,1.002227097534812e-09,0.001873147454175506,1.002227097534812e-09,0.1113548767405869
1.004439601017327e-09,5.018157987807315,1.004439601017327e-09,0.003523220505270814,1.004439601017327e-09,0.2219800508663506
1.006975618073404e-09,5.0280395146234,1.006975618073404e-09,0.005182501659891385,1.006975618073404e-09,0.3487809036702082
1.009616493447991e-09,5.037983607208296,1.009616493447991e-09,0.006673963217297896,1.009616493447991e-09,0.4808246723995611
1.012410172579961e-09,5.048149294039366,1.012410172579961e-09,0.008020116161935126,1.012410172579961e-09,0.6205086289980666
1.015328222324597e-09,5.058444591708534,1.015328222324597e-09,0.00921064106457071,1.015328222324597e-09,0.7664111162298424
1.017281716615105e-09,5.065384697780487,1.017281716615105e-09,0.009941282976561936,1.017281716615105e-09,0.8640858307552265
1.019199627974178e-09,5.07264837857499,1.019199627974178e-09,0.01069535940982704,1.019199627974178e-09,0.9599813987088854
1.020787764969595e-09,5.078747412292168,1.020787764969595e-09,0.01129491945485353,1.020787764969595e-09,1.039388248479733
1.022353444836279e-09,5.08450712823099,1.022353444836279e-09,0.01179844907383968,1.022353444836279e-09,1.11767224181395
1.023769252591009e-09,5.089400327492665,1.023769252591009e-09,0.01216254460423869,1.023769252591009e-09,1.188462629550441
1.025809859741667e-09,5.095845789106329,1.025809859741667e-09,0.01252899010519039,1.025809859741667e-09,1.290492987083354
1.029611304861434e-09,5.105766670493472,1.029611304861434e-09,0.01272984245997664,1.029611304861434e-09,1.480565243071679
1.034218733361042e-09,5.113949035879293,1.034218733361042e-09,0.01219977310186482,1.034218733361042e-09,1.710936668052083
1.037942001577342e-09,5.11739009857116,1.037942001577342e-09,0.01121230775091196,1.037942001577342e-09,1.897100078867101
1.041461684662902e-09,5.117980895189956,1.041461684662902e-09,0.00987309151747295,1.041461684662902e-09,2.073084233145086
1.044953047136539e-09,5.115977823410499,1.044953047136539e-09,0.008202553679742196,1.044953047136539e-09,2.247652356826941
1.048455264615469e-09,5.111355927725355,1.048455264615469e-09,0.006226650263931552,1.048455264615469e-09,2.422763230773425
1.052082443468356e-09,5.103790033486841,1.052082443468356e-09,0.003902613493370437,1.052082443468356e-09,2.604122173417795
1.055895907833391e-09,5.092757659028783,1.055895907833391e-09,0.001191527850215197,1.055895907833391e-09,2.79479539166954
1.059960832082564e-09,5.077485445995137,1.059960832082564e-09,-0.002056545869441402,1.059960832082564e-09,2.998041604128197
1.063713580421116e-09,5.060101140939021,1.063713580421116e-09,-0.005329966886128631,1.063713580421116e-09,3.185679021055821
1.067344230265083e-09,5.040188547279558,1.067344230265083e-09,-0.008683138110590814,1.067344230265083e-09,3.367211513254149
1.070655188666351e-09,5.019277881086293,1.070655188666351e-09,-0.01189916546316403,1.070655188666351e-09,3.532759433317565
1.077277105468888e-09,4.96913704858927,1.077277105468888e-09,-0.01878381770183611,1.077277105468888e-09,3.863855273444397
1.079014200491848e-09,4.953645216775087,1.079014200491848e-09,-0.02078729292758573,1.079014200491848e-09,3.950710024592411
1.080982415014998e-09,4.933601124775747,1.080982415014998e-09,-0.02341945054632115,1.080982415014998e-09,4.049120750749889
1.082498978535613e-09,4.915888427708153,1.082498978535613e-09,-0.0257915954087117,1.082498978535613e-09,4.124948926780654
1.084033692784192e-09,4.896336925273622,1.084033692784192e-09,-0.02839596130573684,1.084033692784192e-09,4.201684639209589
1.085489265893455e-09,4.876779261758584,1.085489265893455e-09,-0.03093817120527668,1.085489265893455e-09,4.274463294672747
1.086806566747551e-09,4.858435069906871,1.086806566747551e-09,-0.03325151967153381,1.086806566747551e-09,4.340328337377545
1.088473203373486e-09,4.83441699953046,1.088473203373486e-09,-0.03617971021205323,1.088473203373486e-09,4.423660168674275
1.091384009545335e-09,4.790320258715014,1.091384009545335e-09,-0.04129472607171748,1.091384009545335e-09,4.569200477266762
1.095692004772668e-09,4.719976163801359,1.095692004772668e-09,-0.04888786093514827,1.095692004772668e-09,4.784600238633383
1.1e-09,4.643457217442866,1.1e-09,-0.05653940875127038,1.1e-09,5
1.10072496747588e-09,4.627881347319645,1.10072496747588e-09,-0.05825691375568387,1.10072496747588e-09,5
1.101499965494581e-09,4.611216331802108,1.101499965494581e-09,-0.06005998525713961,1.101499965494581e-09,5
1.102495514797564e-09,4.589795404651176,1.102495514797564e-09,-0.06230940421929187,1.102495514797564e-09,5
1.104435696360054e-09,4.548023035740159,1.104435696360054e-09,-0.06647386450263029,1.104435696360054e-09,5
1.108316059485035e-09,4.464585120033763,1.108316059485035e-09,-0.07403684656150357,1.108316059485035e-09,5
1.112164804649743e-09,4.383325519781635,1.112164804649743e-09,-0.08078641889033111,1.112164804649743e-09,5
1.11542671011468e-09,4.31822523120405,1.11542671011468e-09,-0.08622537030973616,1.11542671011468e-09,5
1.118363741452656e-09,4.263162469755456,1.118363741452656e-09,-0.09086958174364815,1.118363741452656e-09,5
1.120833675021843e-09,4.218399101177146,1.120833675021843e-09,-0.09436620711248271,1.120833675021843e-09,5
1.123402467759974e-09,4.172539868464161,1.123402467759974e-09,-0.09742408484097613,1.123402467759974e-09,5
1.126173299827594e-09,4.123474246804631,1.126173299827594e-09,-0.09993577521872626,1.126173299827594e-09,5
1.129478769979332e-09,4.065279344511354,1.129478769979332e-09,-0.1017640038922606,1.129478769979332e-09,5
1.133645194342643e-09,3.992348281802442,1.133645194342643e-09,-0.1021896652950076,1.133645194342643e-09,5
1.1394982709557e-09,3.890636378877162,1.1394982709557e-09,-0.09926065698469612,1.1394982709557e-09,5
1.146294804004871e-09,3.773598229762966,1.146294804004871e-09,-0.09084681348964968,1.146294804004871e-09,5
1.153529796021626e-09,3.650252539962446,1.153529796021626e-09,-0.07621824926124608,1.153529796021626e-09,5
1.160399330867161e-09,3.534302514033816,1.160399330867161e-09,-0.05713654663698844,1.160399330867161e-09,5
1.167398634993677e-09,3.417298824046589,1.167398634993677e-09,-0.0327135322293983,1.167398634993677e-09,5
1.174513815574365e-09,3.299476091444217,1.174513815574365e-09,-0.003032660792781491,1.174513815574365e-09,5
1.177791321383522e-09,3.245621315433144,1.177791321383522e-09,0.01169349426242137,1.177791321383522e-09,5
1.180687160473379e-09,3.198259844870255,1.180687160473379e-09,0.02540279101886669,1.180687160473379e-09,5
1.184585325246586e-09,3.13482410738328,1.184585325246586e-09,0.04507394797524217,1.184585325246586e-09,5
1.188595513098264e-09,3.069950417676139,1.188595513098264e-09,0.06676661556991838,1.188595513098264e-09,5
1.196615888801619e-09,2.941406361094054,1.196615888801619e-09,0.114641758513753,1.196615888801619e-09,5
1.208006164618802e-09,2.761798807725969,1.208006164618802e-09,0.19353705563395,1.208006164618802e-09,5
1.216833499624109e-09,2.625194222577124,1.216833499624109e-09,0.2644822585854655,1.216833499624109e-09,5
1.224288479199967e-09,2.511772591406746,1.224288479199967e-09,0.3322114172429966,1.224288479199967e-09,5
1.2310917435372e-09,2.409968001821404,1.2310917435372e-09,0.4015913357529462,1.2310917435372e-09,5
1.237194202603044e-09,2.320073395121782,1.237194202603044e-09,0.4714936156269445,1.237194202603044e-09,5
1.242674331977748e-09,2.240373599726905,1.242674331977748e-09,0.5422300913177041,1.242674331977748e-09,5
1.247570774361738e-09,2.169754145045302,1.247570774361738e-09,0.6137749078665646,1.247570774361738e-09,5
1.251982747888195e-09,2.106606772333622,1.251982747888195e-09,0.6866410848494495,1.251982747888195e-09,5
1.256345246365395e-09,2.045207822386055,1.256345246365395e-09,0.7674289808309857,1.256345246365395e-09,5
1.261689126706222e-09,1.972443935839592,1.261689126706222e-09,0.8787083524159185,1.261689126706222e-09,5
1.269712316155788e-09,1.86934047075601,1.269712316155788e-09,1.070832678801906,1.269712316155788e-09,5
1.27829187223691e-09,1.767374403281416,1.27829187223691e-09,1.307091473654983,1.27829187223691e-09,5
1.286692554592546e-09,1.675408443915117,1.286692554592546e-09,1.565635786844793,1.286692554592546e-09,5
1.29475149645327e-09,1.593915815580183,1.29475149645327e-09,1.834938955773208,1.29475149645327e-09,5
1.30274646685055e-09,1.518930443577485,1.30274646685055e-09,2.118380113807633,1.30274646685055e-09,5
1.310835751363249e-09,1.448287135394501,1.310835751363249e-09,2.416881781469208,1.310835751363249e-09,5
1.319029071042791e-09,1.381309517393238,1.319029071042791e-09,2.725602601706688,1.319029071042791e-09,5
1.327186795365638e-09,1.318389566813004,1.327186795365638e-09,3.032012265458254,1.327186795365638e-09,5
1.334916548570537e-09,1.262082702349776,1.334916548570537e-09,3.310964867037041,1.334916548570537e-09,5
1.341702587398763e-09,1.217255825798861,1.341702587398763e-09,3.535886893800404,1.341702587398763e-09,5
1.34786672649642e-09,1.180916558768479,1.34786672649642e-09,3.718821375068865,1.34786672649642e-09,5
1.355156554391648e-09,1.140700485152038,1.355156554391648e-09,3.909266272154478,1.355156554391648e-09,5
1.366457936934026e-09,1.078901861682953,1.366457936934026e-09,4.154677103320821,1.366457936934026e-09,5
1.378155944418918e-09,1.012373098970211,1.378155944418918e-09,4.354207691515853,1.378155944418918e-09,5
1.389156409564982e-09,0.9466040815747305,1.389156409564982e-09,4.499889802213477,1.389156409564982e-09,5
1.4005427655373e-09,0.8750463867714621,1.4005427655373e-09,4.616123286814429,1.4005427655373e-09,5
1.412469141525824e-09,0.7970354102518595,1.412469141525824e-09,4.708194300230415,1.412469141525824e-09,5
1.425004341043555e-09,0.7154892071531255,1.425004341043555e-09,4.77973015979994,1.425004341043555e-09,5
1.438522782324528e-09,0.6318126885523767,1.438522782324528e-09,4.835393584101735,1.438522782324528e-09,5
1.453064721209786e-09,0.5487889522004903,1.453064721209786e-09,4.877623540997185,1.453064721209786e-09,5
1.468904719247527e-09,0.4676334672776751,1.468904719247527e-09,4.909460781202754,1.468904719247527e-09,5
1.486650948845814e-09,0.3884085986342498,1.486650948845814e-09,4.933685676407401,1.486650948845814e-09,5
1.507004492165812e-09,0.3119333602782076,1.507004492165812e-09,4.952170900121595,1.507004492165812e-09,5
1.530878362959995e-09,0.2395652401073839,1.530878362959995e-09,4.966305001087516,1.530878362959995e-09,5
1.548817335163354e-09,0.1959211380984668,1.548817335163354e-09,4.973454378857971,1.548817335163354e-09,5
1.570269655118431e-09,0.1536744606755104,1.570269655118431e-09,4.979704088041911,1.570269655118431e-09,5
1.593250455125501e-09,0.1181765537756136,1.593250455125501e-09,4.984613552566344,1.593250455125501e-09,5
1.630409030974301e-09,0.07650711284430045,1.630409030974301e-09,4.990162142811077,1.630409030974301e-09,5
1.656764734358468e-09,0.0560798859738143,1.656764734358468e-09,4.992807211156826,1.656764734358468e-09,5
1.682308477604696e-09,0.04153738922315148,1.682308477604696e-09,4.994671278557545,1.682308477604696e-09,5
1.712866254739176e-09,0.02894878519366699,1.712866254739176e-09,4.996282818224687,1.712866254739176e-09,5
1.747489582133304e-09,0.01912643845174401,1.747489582133304e-09,4.997542386126777,1.747489582133304e-09,5
1.787282199118265e-09,0.01175734194639949,1.787282199118265e-09,4.998489126912823,1.787282199118265e-09,5
1.835025412437812e-09,0.006406151221784879,1.835025412437812e-09,4.999177212435795,1.835025412437812e-09,5
1.893931901515689e-09,0.002841263335284657,1.893931901515689e-09,4.999635448424764,1.893931901515689e-09,5
1.969298537643742e-09,0.0007776992791965168,1.969298537643742e-09,4.999900368140989,1.969298537643742e-09,5
2.071224955708074e-09,-0.0001399591103659848,2.071224955708074e-09,5.000017963861881,2.071224955708074e-09,5
2.220664149962059e-09,-0.0003114839886871248,2.220664149962059e-09,5.000039728853978,2.220664149962059e-09,5
2.4319904903677e-09,-0.0001587874700664188,2.4319904903677e-09,5.000020078278104,2.4319904903677e-09,5
2.6819904903677e-09,-3.330572737038286e-05,2.6819904903677e-09,5.000004172110284,2.6819904903677e-09,5
2.931990490367701e-09,2.936847501658977e-06,2.931990490367701e-09,4.999999607476585,2.931990490367701e-09,5
3.181990490367701e-09,5.198449229342893e-06,3.181990490367701e-09,4.99999932317894,3.181990490367701e-09,5
3.431990490367701e-09,2.085544438422786e-06,3.431990490367701e-09,4.999999716617349,3.431990490367701e-09,5
3.681990490367701e-09,3.765218644477808e-07,3.681990490367701e-09,4.999999934974362,3.681990490367701e-09,5
3.931990490367701e-09,-5.586489125202794e-08,3.931990490367701e-09,4.999999990857336,3.931990490367701e-09,5
4.181990490367701e-09,-5.79369791884805e-08,4.181990490367701e-09,4.999999991313652,4.181990490367701e-09,5
4.431990490367701e-09,-8.943259633082367e-09,4.431990490367701e-09,4.999999985033455,4.431990490367701e-09,5
4.681990490367701e-09,1.365228970610506e-08,4.681990490367701e-09,4.999999982072167,4.681990490367701e-09,5
4.9319904903677e-09,1.847120327230956e-08,4.9319904903677e-09,4.999999981444578,4.9319904903677e-09,5
5.1819904903677e-09,1.810119233269345e-08,5.1819904903677e-09,4.999999981495759,5.1819904903677e-09,5
5.4319904903677e-09,1.737154076264535e-08,5.4319904903677e-09,4.999999981590596,5.4319904903677e-09,5
5.6819904903677e-09,1.7076551202602e-08,5.6819904903677e-09,4.9999999816285,5.6819904903677e-09,5
5.931990490367699e-09,1.702446205331577e-08,5.931990490367699e-09,4.999999981635131,5.931990490367699e-09,5
6.1e-09,1.703433753300475e-08,6.1e-09,4.999999981633852,6.1e-09,5
6.103125e-09,-0.01011523544824135,6.103125e-09,4.998020808654341,6.103125e-09,4.843749999999988
6.107189096019839e-09,-0.0227936731971028,6.107189096019839e-09,4.995727558253514,6.107189096019839e-09,4.640545199008056
6.115317288059516e-09,-0.0482358415397308,6.115317288059516e-09,4.991819696553144,6.115317288059516e-09,4.23413559702419
6.128106711361396e-09,-0.08218284327796796,6.128106711361396e-09,4.988285159719809,6.128106711361396e-09,3.594664431930178
6.141260776540452e-09,-0.08598305887485254,6.141260776540452e-09,4.991122525507154,6.141260776540452e-09,2.9369611729774
6.150872915825409e-09,-0.06585969768288151,6.150872915825409e-09,4.99686906855958,6.150872915825409e-09,2.456354208729534
6.166639967533961e-09,0.01541975295298841,6.166639967533961e-09,5.012187563908307,6.166639967533961e-09,1.668001623301953
6.18404141471383e-09,0.1998507711343686,6.18404141471383e-09,5.038768287649219,6.18404141471383e-09,0.7979292643084959
6.192020707356915e-09,0.3287587450469155,6.192020707356915e-09,5.055657226521173,6.192020707356915e-09,0.398964632154267
6.2e-09,0.4797194099505394,6.2e-09,5.073625043495661,6.2e-09,0
6.201360296508835e-09,0.5117456723061307,6.201360296508835e-09,5.077606838075511,6.201360296508835e-09,0
6.202534603796952e-09,0.5393873424411403,6.202534603796952e-09,5.080966988402291,6.202534603796952e-09,0
6.203996954909324e-09,0.573773216464538,6.203996954909324e-09,5.085011068508464,6.203996954909324e-09,0
6.206921657134067e-09,0.6423874673621252,6.206921657134067e-09,5.092620880460724,6.206921657134067e-09,0
6.212771061583553e-09,0.7785923125510618,6.212771061583553e-09,5.106138519883713,6.212771061583553e-09,0
6.224469870482524e-09,1.030377522483081,6.224469870482524e-09,5.12617154791399,6.224469870482524e-09,0
6.232886822053284e-09,1.198555533577428,6.232886822053284e-09,5.130949750478076,6.232886822053284e-09,0
6.244591244804588e-09,1.424453880504056,6.244591244804588e-09,5.120724766059682,6.244591244804588e-09,0
6.256092171977817e-09,1.637563422712203,6.256092171977817e-09,5.092449175701893,6.256092171977817e-09,0
6.279094026324275e-09,2.038219165136161,6.279094026324275e-09,4.989810102338414,6.279094026324275e-09,0
6.301075496283047e-09,2.391366059690332,6.301075496283047e-09,4.843145912580162,6.301075496283047e-09,0
6.323236605412477e-09,2.7116564477428,6.323236605412477e-09,4.635262821589868,6.323236605412477e-09,0
6.337277798763377e-09,2.898284483990388,6.337277798763377e-09,4.459666967754619,6.337277798763377e-09,0
6.351993983753793e-09,3.087986924373911,6.351993983753793e-09,4.20787061945382,6.351993983753793e-09,0
6.362753016410218e-09,3.216670812448275,6.362753016410218e-09,3.972972014027838,6.362753016410218e-09,0
6.376009424854339e-09,3.358024920515794,6.376009424854339e-09,3.62727190567898,6.376009424854339e-09,0
6.392263856474046e-09,3.506938432304043,6.392263856474046e-09,3.125269497438131,6.392263856474046e-09,0
6.410044750985067e-09,3.642948931656749,6.410044750985067e-09,2.493056506413725,6.410044750985067e-09,0
6.425087543891735e-09,3.739808894725271,6.425087543891735e-09,1.909686984882776,6.425087543891735e-09,0
6.433163584234996e-09,3.78616480858396,6.433163584234996e-09,1.592815334622189,6.433163584234996e-09,0
6.441787769048158e-09,3.830560730564454,6.441787769048158e-09,1.281732000411408,6.441787769048158e-09,0
6.448301167160158e-09,3.860840479676903,6.448301167160158e-09,1.076493873227465,6.448301167160158e-09,0
6.455106248663938e-09,3.892348749389559,6.455106248663938e-09,0.8910231357090772,6.455106248663938e-09,0
6.465877771229313e-09,3.945660762210667,6.465877771229313e-09,0.6543133612240341,6.465877771229313e-09,0
6.479722759378212e-09,4.021440927040352,6.479722759378212e-09,0.4352900658285125,6.479722759378212e-09,0
6.490464435142706e-09,4.084514167538374,6.490464435142706e-09,0.3175323100878438,6.490464435142706e-09,0
6.50058700334133e-09,4.145503834339875,6.50058700334133e-09,0.2375539285200535,6.50058700334133e-09,0
6.511121364007702e-09,4.209000570170915,6.511121364007702e-09,0.1775032700055745,6.511121364007702e-09,0
6.522319367174579e-09,4.275837478368294,6.522319367174579e-09,0.1322004189502561,6.522319367174579e-09,0
6.534716507759996e-09,4.349722384541624,6.534716507759996e-09,0.09732729660905377,6.534716507759996e-09,0
6.548546800863981e-09,4.430809184058418,6.548546800863981e-09,0.07094853698350533,6.548546800863981e-09,0
6.564328039562855e-09,4.515666954502,6.564328039562855e-09,0.05138932886193785,6.564328039562855e-09,0
6.582693073694926e-09,4.600959706703001,6.582693073694926e-09,0.03716719263306217,6.582693073694926e-09,0
6.604366261165703e-09,4.68400901930769,6.604366261165703e-09,0.02683568227028156,6.604366261165703e-09,0
6.62104001107776e-09,4.736389997202689,6.62104001107776e-09,0.02167403493576242,6.62104001107776e-09,0
6.641900678226622e-09,4.790186018640581,6.641900678226622e-09,0.01696018545505259,6.641900678226622e-09,0
6.6647000489797e-09,4.836775620870326,6.6647000489797e-09,0.01311803279666298,6.6647000489797e-09,0
6.699071824878981e-09,4.888892353358883,6.699071824878981e-09,0.008902669295883205,6.699071824878981e-09,0
