/net1 X,/net1 Y,/net03 X,/net03 Y,/o X,/o Y
0,0,0,4.999999981631962,0,1.704906655848801e-08
1e-11,0,1e-11,4.999999981631962,1e-11,1.704906653539788e-08
3e-11,0,3e-11,4.999999981631962,3e-11,1.704906653870668e-08
6.999999999999999e-11,0,6.999999999999999e-11,4.999999981631961,6.999999999999999e-11,1.70490665705872e-08
1.5e-10,0,1.5e-10,4.999999981631961,1.5e-10,1.704906657626795e-08
2.5e-10,0,2.5e-10,4.999999981631961,2.5e-10,1.704906642242314e-08
3.5e-10,0,3.5e-10,4.999999981631961,3.5e-10,1.704906623392147e-08
4.5e-10,0,4.5e-10,4.999999981631961,4.5e-10,1.704906608324793e-08
5.5e-10,0,5.5e-10,4.999999981631961,5.5e-10,1.704906629329662e-08
6.499999999999999e-10,0,6.499999999999999e-10,4.999999981631962,6.499999999999999e-10,1.704906608919834e-08
7.499999999999999e-10,0,7.499999999999999e-10,4.999999981631962,7.499999999999999e-10,1.704906643441993e-08
8.499999999999999e-10,0,8.499999999999999e-10,4.999999981631962,8.499999999999999e-10,1.704906624110323e-08
9.25e-10,0,9.25e-10,4.999999981631962,9.25e-10,1.704906658034072e-08
1e-09,0,1e-09,4.999999981631962,1e-09,1.704906632469635e-08
1.000048387895121e-09,0.002419394756067303,1.000048387895121e-09,5.000296834298061,1.000048387895121e-09,6.266398624522975e-05
1.000082557713316e-09,0.00412788566580807,1.000082557713316e-09,5.000506359988783,1.000082557713316e-09,0.0001068402867137531
1.000150897349706e-09,0.007544867485289603,1.000150897349706e-09,5.000925019048237,1.000150897349706e-09,0.0001949482526579274
1.000287576622485e-09,0.01437883112425267,1.000287576622485e-09,5.001760660188269,1.000287576622485e-09,0.0003701189505221062
1.000560935168044e-09,0.02804675840217881,1.000560935168044e-09,5.003425184485208,1.000560935168044e-09,0.0007162598241275418
1.001107652259161e-09,0.05538261295803108,1.001107652259161e-09,5.006727447352346,1.001107652259161e-09,0.001391990510866179
1.002201086441395e-09,0.1100543220697356,1.002201086441395e-09,5.013227271792803,1.002201086441395e-09,0.002679518299208947
1.004262810109536e-09,0.2131405054768068,1.004262810109536e-09,5.025119890300273,1.004262810109536e-09,0.004890398916832677
1.006463281263646e-09,0.3231640631823158,1.006463281263646e-09,5.037317797185732,1.006463281263646e-09,0.006962394178772048
1.008759330265415e-09,0.4379665132707684,1.008759330265415e-09,5.049536793228529,1.008759330265415e-09,0.008838631999905472
1.011195233863807e-09,0.559761693190326,1.011195233863807e-09,5.061974652924291,1.011195233863807e-09,0.01054523933753731
1.01374145826824e-09,0.68707291341202,1.01374145826824e-09,5.074451192954832,1.01374145826824e-09,0.01205512926134601
1.016389372573813e-09,0.8194686286906435,1.016389372573813e-09,5.087055193837701,1.016389372573813e-09,0.01339543616834026
1.017903394097716e-09,0.8951697048857781,1.017903394097716e-09,5.094499405758679,1.017903394097716e-09,0.01414653325998106
1.01931757496587e-09,0.9658787482935027,1.01931757496587e-09,5.101812843782703,1.01931757496587e-09,0.01488147418981891
1.020954406618144e-09,1.047720330907182,1.020954406618144e-09,5.11022923160406,1.020954406618144e-09,0.01567232812223847
1.022245667223534e-09,1.112283361176674,1.022245667223534e-09,5.116549692541037,1.022245667223534e-09,0.01619501800891749
1.023570700021229e-09,1.178535001061426,1.023570700021229e-09,5.122637098034534,1.023570700021229e-09,0.01662150755917232
1.025569198477442e-09,1.278459923872082,1.025569198477442e-09,5.130960594732374,1.025569198477442e-09,0.01704865310037735
1.029506626346356e-09,1.475331317317819,1.029506626346356e-09,5.144120612351127,1.029506626346356e-09,0.01716508095136966
1.033407787921701e-09,1.670389396085036,1.033407787921701e-09,5.152782653718543,1.033407787921701e-09,0.0164112853439214
1.036680527681292e-09,1.834026384064599,1.036680527681292e-09,5.156632343428583,1.036680527681292e-09,0.01518062241771826
1.039859701831752e-09,1.992985091587578,1.039859701831752e-09,5.157360322706966,1.039859701831752e-09,0.01352469457070219
1.04301205945511e-09,2.15060297275552,1.04301205945511e-09,5.155143326851511,1.04301205945511e-09,0.01148936843644044
1.046204190012676e-09,2.310209500633784,1.046204190012676e-09,5.14991548835824,1.046204190012676e-09,0.009078778906510491
1.049521009981884e-09,2.476050499094216,1.049521009981884e-09,5.141302156748294,1.049521009981884e-09,0.006248052776350935
1.053008894502505e-09,2.650444725125249,1.053008894502505e-09,5.128736045122849,1.053008894502505e-09,0.002957064384828854
1.056726902750755e-09,2.836345137537767,1.056726902750755e-09,5.111349069608168,1.056726902750755e-09,-0.0009051840425617096
1.064162919247256e-09,3.208145962362801,1.064162919247256e-09,5.063845765704137,1.064162919247256e-09,-0.009757958005069931
1.067321380676864e-09,3.366069033843189,1.067321380676864e-09,5.038326921929563,1.067321380676864e-09,-0.01384899942315284
1.070097313505002e-09,3.504865675250104,1.070097313505002e-09,5.01310821468605,1.070097313505002e-09,-0.01761385357275337
1.075649179161279e-09,3.782458958063934,1.075649179161279e-09,4.954615989318238,1.075649179161279e-09,-0.02557742212685546
1.077047517054424e-09,3.852375852721204,1.077047517054424e-09,4.937642160309787,1.077047517054424e-09,-0.02778408287846082
1.078697729614088e-09,3.934886480704418,1.078697729614088e-09,4.915581429795002,1.078697729614088e-09,-0.03066372846190042
1.080259448250098e-09,4.012972412504873,1.080259448250098e-09,4.891828848852348,1.080259448250098e-09,-0.03382630725038437
1.08153564039291e-09,4.076782019645473,1.08153564039291e-09,4.870460944723805,1.08153564039291e-09,-0.03668444413587987
1.083308519410762e-09,4.165425970538102,1.083308519410762e-09,4.837964264358241,1.083308519410762e-09,-0.04101228156762033
1.085454942461042e-09,4.272747123052082,1.085454942461042e-09,4.795122170399491,1.085454942461042e-09,-0.04658600904673228
1.087066323476546e-09,4.353316173827298,1.087066323476546e-09,4.761213891261234,1.087066323476546e-09,-0.05083396821103192
1.088568439073206e-09,4.428421953660293,1.088568439073206e-09,4.728402953899526,1.088568439073206e-09,-0.05480866329406059
1.091054503738863e-09,4.552725186943139,1.091054503738863e-09,4.671570251240941,1.091054503738863e-09,-0.06141405589562918
1.096026633070177e-09,4.80133165350883,1.096026633070177e-09,4.548332938901946,1.096026633070177e-09,-0.07477903338202906
1.1e-09,5,1.1e-09,4.440915190481411,1.1e-09,-0.08574510952028037
1.100907457021534e-09,5,1.100907457021534e-09,4.411640621500619,1.100907457021534e-09,-0.08912939966476921
1.101757670741131e-09,5,1.101757670741131e-09,4.384498282929691,1.101757670741131e-09,-0.09232070591281911
1.102733790138185e-09,5,1.102733790138185e-09,4.353873801420352,1.102733790138185e-09,-0.09601540073466823
1.104686028932291e-09,5,1.104686028932291e-09,4.294777795413135,1.104686028932291e-09,-0.1035074608442032
1.106306979330968e-09,5,1.106306979330968e-09,4.247489358304311,1.106306979330968e-09,-0.1096544308146528
1.108074335536675e-09,5,1.108074335536675e-09,4.196853406314489,1.108074335536675e-09,-0.1159729988930393
1.10974817993933e-09,5,1.10974817993933e-09,4.149274348463042,1.10974817993933e-09,-0.1214029503908017
1.111651843846286e-09,5,1.111651843846286e-09,4.095360916296169,1.111651843846286e-09,-0.1268015067247974
1.114115528147583e-09,5,1.114115528147583e-09,4.025775029605574,1.114115528147583e-09,-0.1324615886353125
1.11742186658607e-09,5,1.11742186658607e-09,3.932673016196043,1.11742186658607e-09,-0.1376345318796764
1.122352367505146e-09,5,1.122352367505146e-09,3.794468308457153,1.122352367505146e-09,-0.1401992336747204
1.129075814317199e-09,5,1.129075814317199e-09,3.607343314724583,1.129075814317199e-09,-0.1339864358515681
1.135843716935127e-09,5,1.135843716935127e-09,3.420691802061647,1.135843716935127e-09,-0.1167212698625108
1.14243142952092e-09,5,1.14243142952092e-09,3.24080378442952,1.14243142952092e-09,-0.08953846752870862
1.149708579220945e-09,5,1.149708579220945e-09,3.044320938563728,1.149708579220945e-09,-0.04776228079172382
1.154904093391091e-09,5,1.154904093391091e-09,2.905578064236375,1.154904093391091e-09,-0.01038795652644905
1.157926115549586e-09,5,1.157926115549586e-09,2.825520804509579,1.157926115549586e-09,0.01353816948404645
1.160670131306922e-09,5,1.160670131306922e-09,2.753292207939623,1.160670131306922e-09,0.03658727476567113
1.163219144696848e-09,5,1.163219144696848e-09,2.686606751511871,1.163219144696848e-09,0.05953692577239271
1.165605796246884e-09,5,1.165605796246884e-09,2.624554853056412,1.165605796246884e-09,0.08239973912934982
1.170379099346956e-09,5,1.170379099346956e-09,2.50173847630092,1.170379099346956e-09,0.1323212238034816
1.175174749343667e-09,5,1.175174749343667e-09,2.380402268311856,1.175174749343667e-09,0.1885775230108679
1.179486459612815e-09,5,1.179486459612815e-09,2.273465397926089,1.179486459612815e-09,0.2450350960532665
1.183581576931898e-09,5,1.183581576931898e-09,2.174174796242613,1.183581576931898e-09,0.3046623548160948
1.1874092011741e-09,5,1.1874092011741e-09,2.083592344373883,1.1874092011741e-09,0.3667537605397168
1.190921940485792e-09,5,1.190921940485792e-09,2.002307625325177,1.190921940485792e-09,0.4304964018690653
1.194081095806988e-09,5,1.194081095806988e-09,1.930476468050227,1.194081095806988e-09,0.4949213839308545
1.19692789739119e-09,5,1.19692789739119e-09,1.866707067887387,1.19692789739119e-09,0.5599602276809211
1.199836696693776e-09,5,1.199836696693776e-09,1.80292306450116,1.199836696693776e-09,0.6335782497887432
1.204519015884111e-09,5,1.204519015884111e-09,1.704420558811746,1.204519015884111e-09,0.7666957026493961
1.210421007050525e-09,5,1.210421007050525e-09,1.588362903218936,1.210421007050525e-09,0.9582997128464086
1.215925102752169e-09,5,1.215925102752169e-09,1.488174262436369,1.215925102752169e-09,1.158795937391914
1.221615670428704e-09,5,1.221615670428704e-09,1.392353314811366,1.221615670428704e-09,1.385515746408709
1.227427752984763e-09,5,1.227427752984763e-09,1.302108578309248,1.227427752984763e-09,1.63427703413239
1.233305130610986e-09,5,1.233305130610986e-09,1.218083420606632,1.233305130610986e-09,1.899918377890629
1.239333512114075e-09,5,1.239333512114075e-09,1.138771267438804,1.239333512114075e-09,2.182947262259019
1.245489557806427e-09,5,1.245489557806427e-09,1.064172395532376,1.245489557806427e-09,2.478043219076478
1.251663043360308e-09,5,1.251663043360308e-09,0.9949265474228045,1.251663043360308e-09,2.773872013886234
1.257637304057304e-09,5,1.257637304057304e-09,0.9323707881147676,1.257637304057304e-09,3.051691081808858
1.263111438645057e-09,5,1.263111438645057e-09,0.8794032320273412,1.263111438645057e-09,3.289401707369256
1.268114670727757e-09,5,1.268114670727757e-09,0.8356273927737113,1.268114670727757e-09,3.486281145930641
1.273510521789963e-09,5,1.273510521789963e-09,0.7924083185006767,1.273510521789963e-09,3.676176102184455
1.284302223914376e-09,5,1.284302223914376e-09,0.7126215688175107,1.284302223914376e-09,3.992855289189094
1.291957206947728e-09,5,1.291957206947728e-09,0.6588075089459637,1.291957206947728e-09,4.173284381160657
1.300338278270734e-09,5,1.300338278270734e-09,0.6015531048010827,1.300338278270734e-09,4.335168078502051
1.309906244440587e-09,5,1.309906244440587e-09,0.5384725742893466,1.309906244440587e-09,4.48204256918892
1.31972467861015e-09,5,1.31972467861015e-09,0.476936078759745,1.31972467861015e-09,4.59878272715685
1.325557156313328e-09,5,1.325557156313328e-09,0.442177551225428,1.325557156313328e-09,4.65450051357216
1.332398953155433e-09,5,1.332398953155433e-09,0.4034020392629183,1.332398953155433e-09,4.709479773690441
1.338726561576157e-09,5,1.338726561576157e-09,0.3696104313458182,1.338726561576157e-09,4.751997490039511
1.345571270814887e-09,5,1.345571270814887e-09,0.3353933705486072,1.345571270814887e-09,4.790550893080113
1.352699270235165e-09,5,1.352699270235165e-09,0.3023734559200733,1.352699270235165e-09,4.823909455675856
1.360331787275314e-09,5,1.360331787275314e-09,0.2699412100387171,1.360331787275314e-09,4.85334864319596
1.368492946183664e-09,5,1.368492946183664e-09,0.2385038255425065,1.368492946183664e-09,4.879012027115937
1.377295505995823e-09,5,1.377295505995823e-09,0.2081582910293722,1.377295505995823e-09,4.90131453906444
1.386838921865759e-09,5,1.386838921865759e-09,0.1791406137642196,1.386838921865759e-09,4.92053510602998
1.397261975507776e-09,5,1.397261975507776e-09,0.1516446421151118,1.397261975507776e-09,4.93697002583906
1.406540229459238e-09,5,1.406540229459238e-09,0.1304970729860465,1.406540229459238e-09,4.948461810655137
1.419308988222977e-09,5,1.419308988222977e-09,0.1058317130768699,1.419308988222977e-09,4.960722606568193
1.430692145529125e-09,5,1.430692145529125e-09,0.08761677384038941,1.430692145529125e-09,4.968989427152989
1.442069499237655e-09,5,1.442069499237655e-09,0.0724370164444512,1.442069499237655e-09,4.975373877821616
1.4547852802591e-09,5,1.4547852802591e-09,0.05846268831048805,1.4547852802591e-09,4.980866776518559
1.468735626263366e-09,5,1.468735626263366e-09,0.04612067280632669,1.468735626263366e-09,4.985421752078018
1.484096562433632e-09,5,1.484096562433632e-09,0.0354402114327688,1.484096562433632e-09,4.989142390951717
1.501358265760205e-09,5,1.501358265760205e-09,0.02628101640556001,1.501358265760205e-09,4.992170689356134
1.520995547335454e-09,5,1.520995547335454e-09,0.01862318520044675,1.520995547335454e-09,4.994587016272534
1.543627541935241e-09,5,1.543627541935241e-09,0.01243669938750263,1.543627541935241e-09,4.99646089193798
1.570187788780408e-09,5,1.570187788780408e-09,0.007649462111470925,1.570187788780408e-09,4.997861511142879
1.602068426359765e-09,5,1.602068426359765e-09,0.004160759994822835,1.602068426359765e-09,4.998853759669688
1.641457247009179e-09,5,1.641457247009179e-09,0.001833748857878725,1.641457247009179e-09,4.999501273456094
1.692060641435372e-09,5,1.692060641435372e-09,0.0004877497865680409,1.692060641435372e-09,4.999869861907843
1.760757002844514e-09,5,1.760757002844514e-09,-0.0001038174281587959,1.760757002844514e-09,5.000029904903919
1.860757002844514e-09,5,1.860757002844514e-09,-0.0002041812579513704,1.860757002844514e-09,5.000055944882014
1.960757002844514e-09,5,1.960757002844514e-09,-0.0001093909848951691,1.960757002844514e-09,5.000029567873969
2.060757002844514e-09,5,2.060757002844514e-09,-3.576134489068793e-05,2.060757002844514e-09,5.000009551242988
2.160757002844514e-09,5,2.160757002844514e-09,-5.14021158168324e-06,2.160757002844514e-09,5.000001330875484
2.260757002844514e-09,5,2.260757002844514e-09,2.36080938435827e-06,2.260757002844514e-09,4.999999338667949
2.360757002844514e-09,5,2.360757002844514e-09,2.288990948185887e-06,2.360757002844514e-09,4.999999360687919
2.460757002844514e-09,5,2.460757002844514e-09,1.078484279144236e-06,2.460757002844514e-09,4.999999688022551
2.560757002844515e-09,5,2.560757002844515e-09,3.28043021531867e-07,2.560757002844515e-09,4.999999893848414
2.660757002844515e-09,5,2.660757002844515e-09,4.571710958781863e-08,2.660757002844515e-09,4.99999997296462
2.760757002844515e-09,5,2.760757002844515e-09,-1.358737295336499e-08,2.760757002844515e-09,4.99999998999725
2.860757002844515e-09,5,2.860757002844515e-09,-6.387865515877506e-09,2.860757002844515e-09,4.999999988221639
2.960757002844515e-09,5,2.960757002844515e-09,7.221139254285667e-09,2.960757002844515e-09,4.999999984424475
3.060757002844515e-09,5,3.060757002844515e-09,1.45433361369558e-08,3.060757002844515e-09,4.999999982338013
3.160757002844515e-09,5,3.160757002844515e-09,1.701910883772434e-08,3.160757002844515e-09,4.99999998163797
3.260757002844515e-09,5,3.260757002844515e-09,1.742220919642228e-08,3.260757002844515e-09,4.999999981526308
3.360757002844515e-09,5,3.360757002844515e-09,1.728703385943303e-08,3.360757002844515e-09,4.999999981565261
3.460757002844515e-09,5,3.460757002844515e-09,1.713948111076632e-08,3.460757002844515e-09,4.999999981606802
3.560757002844515e-09,5,3.560757002844515e-09,1.706837918199959e-08,3.560757002844515e-09,4.999999981626639
3.660757002844515e-09,5,3.660757002844515e-09,1.704700529265712e-08,3.660757002844515e-09,4.999999981632556
3.760757002844515e-09,5,3.760757002844515e-09,1.70447601441583e-08,3.760757002844515e-09,4.999999981633163
3.860757002844515e-09,5,3.860757002844515e-09,1.704669874344089e-08,3.860757002844515e-09,4.999999981632619
3.960757002844515e-09,5,3.960757002844515e-09,1.704825975643568e-08,3.960757002844515e-09,4.999999981632185
4.060757002844516e-09,5,4.060757002844516e-09,1.704893214932314e-08,4.060757002844516e-09,4.999999981632
4.160757002844516e-09,5,4.160757002844516e-09,1.70491086287068e-08,4.160757002844516e-09,4.999999981631951
4.260757002844516e-09,5,4.260757002844516e-09,1.704911395932135e-08,4.260757002844516e-09,4.999999981631949
4.360757002844516e-09,5,4.360757002844516e-09,1.704908896860033e-08,4.360757002844516e-09,4.999999981631956
4.460757002844516e-09,5,4.460757002844516e-09,1.70490730594272e-08,4.460757002844516e-09,4.99999998163196
4.560757002844516e-09,5,4.560757002844516e-09,1.704906728814852e-08,4.560757002844516e-09,4.999999981631962
4.660757002844516e-09,5,4.660757002844516e-09,1.704906590985651e-08,4.660757002844516e-09,4.999999981631962
4.760757002844516e-09,5,4.760757002844516e-09,1.704906574863697e-08,4.760757002844516e-09,4.999999981631962
4.860757002844516e-09,5,4.860757002844516e-09,1.704906625379839e-08,4.860757002844516e-09,4.999999981631962
4.960757002844516e-09,5,4.960757002844516e-09,1.704906598773974e-08,4.960757002844516e-09,4.999999981631962
5.060757002844516e-09,5,5.060757002844516e-09,1.704906557926399e-08,5.060757002844516e-09,4.999999981631962
5.160757002844516e-09,5,5.160757002844516e-09,1.704906565717413e-08,5.160757002844516e-09,4.999999981631962
5.260757002844516e-09,5,5.260757002844516e-09,1.704906611423345e-08,5.260757002844516e-09,4.999999981631962
5.360757002844516e-09,5,5.360757002844516e-09,1.704906615440393e-08,5.360757002844516e-09,4.999999981631962
5.460757002844516e-09,5,5.460757002844516e-09,1.704906591579545e-08,5.460757002844516e-09,4.999999981631962
5.560757002844517e-09,5,5.560757002844517e-09,1.704906578186441e-08,5.560757002844517e-09,4.999999981631962
5.660757002844517e-09,5,5.660757002844517e-09,1.704906589072069e-08,5.660757002844517e-09,4.999999981631962
5.760757002844517e-09,5,5.760757002844517e-09,1.70490661351276e-08,5.760757002844517e-09,4.999999981631962
5.860757002844517e-09,5,5.860757002844517e-09,1.70490661625019e-08,5.860757002844517e-09,4.999999981631962
5.960757002844517e-09,5,5.960757002844517e-09,1.70490658656069e-08,5.960757002844517e-09,4.999999981631962
6.030378501422258e-09,5,6.030378501422258e-09,1.70490659552973e-08,6.030378501422258e-09,4.999999981631962
6.1e-09,5,6.1e-09,1.704906637680969e-08,6.1e-09,4.999999981631962
6.103125e-09,4.843749999999988,6.103125e-09,-0.01521274486516069,6.103125e-09,4.997023225766617
6.106252169426302e-09,4.687391528684886,6.106252169426302e-09,-0.02978692908790403,6.106252169426302e-09,4.994350108471155
6.111998693472427e-09,4.400065326378671,6.111998693472427e-09,-0.05472401752637807,6.111998693472427e-09,4.990347778712021
6.113435324483958e-09,4.328233775802118,6.113435324483958e-09,-0.06126478942912628,6.113435324483958e-09,4.989385914640356
6.11630858650702e-09,4.184570674649009,6.11630858650702e-09,-0.07597212189955307,6.11630858650702e-09,4.987250304961716
6.122055110553144e-09,3.897244472342795,6.122055110553144e-09,-0.1019017356549151,6.122055110553144e-09,4.984162526344425
6.126958010572787e-09,3.652099471360665,6.126958010572787e-09,-0.117366677392943,6.126958010572787e-09,4.983225623205343
6.13423967019657e-09,3.288016490171499,6.13423967019657e-09,-0.1275008058009286,6.13423967019657e-09,4.984527485863863
6.137933072590711e-09,3.10334637046443,6.137933072590711e-09,-0.1265721356836098,6.137933072590711e-09,4.98632489662251
6.145319877378994e-09,2.734006131050292,6.145319877378994e-09,-0.1118557128913863,6.145319877378994e-09,4.991859712783508
6.150219210720151e-09,2.489039463992463,6.150219210720151e-09,-0.0924019305293365,6.150219210720151e-09,4.996816870230668
