/o1 X,/o1 Y,/net09 X,/net09 Y,/net1 X,/net1 Y
0,1.704906604913457e-08,0,4.999999989169326,0,0
2.5e-11,1.704906618434937e-08,2.5e-11,4.999999989169326,2.5e-11,0
7.5e-11,1.704906618051894e-08,7.5e-11,4.999999989169326,7.5e-11,0
1.75e-10,1.704906559741798e-08,1.75e-10,4.999999989169327,1.75e-10,0
3.749999999999999e-10,1.704906579446844e-08,3.749999999999999e-10,4.999999989169326,3.749999999999999e-10,0
6.25e-10,1.70490666086034e-08,6.25e-10,4.999999989169326,6.25e-10,0
8.125e-10,1.704906662540331e-08,8.125e-10,4.999999989169326,8.125e-10,0
1e-09,1.704906652844042e-08,1e-09,4.999999989169325,1e-09,0
1.000038726150484e-09,5.767895239824968e-05,1.000038726150484e-09,5.000273116361494,1.000038726150484e-09,0.001936307524204584
1.000067793867445e-09,0.0001009075209336244,1.000067793867445e-09,5.000478038289303,1.000067793867445e-09,0.003389693372268936
1.000125929301368e-09,0.0001871580442034627,1.000125929301368e-09,5.00088754258226,1.000125929301368e-09,0.00629646506839764
1.000242200169213e-09,0.0003587780078470888,1.000242200169213e-09,5.001705102859263,1.000242200169213e-09,0.01211000846065505
1.000474741904903e-09,0.0006984741486772671,1.000474741904903e-09,5.003334384662724,1.000474741904903e-09,0.02373709524516987
1.000939825376284e-09,0.001363867661707302,1.000939825376284e-09,5.006569767615466,1.000939825376284e-09,0.0469912688141995
1.001869992319045e-09,0.00264029744734052,1.001869992319045e-09,5.012949607459015,1.001869992319045e-09,0.09349961595225878
1.003730326204568e-09,0.004988408467897119,1.003730326204568e-09,5.025359828947884,1.003730326204568e-09,0.1865163102283773
1.005820836680182e-09,0.007325524457787902,1.005820836680182e-09,5.038777805894622,1.005820836680182e-09,0.2910418340090722
1.008008028951253e-09,0.009460893182455245,1.008008028951253e-09,5.052258300665319,1.008008028951253e-09,0.4004014475626309
1.010319689206204e-09,0.01141766327308875,1.010319689206204e-09,5.065971786129424,1.010319689206204e-09,0.5159844603101725
1.012588857604159e-09,0.01316204503426749,1.012588857604159e-09,5.079394917240695,1.012588857604159e-09,0.6294428802079696
1.014237597969264e-09,0.01447898077717692,1.014237597969264e-09,5.08986860090595,1.014237597969264e-09,0.7118798984631768
1.015451105391418e-09,0.01543284230758037,1.015451105391418e-09,5.097763460958032,1.015451105391418e-09,0.772555269570899
1.016914768757265e-09,0.01644468077370836,1.016914768757265e-09,5.10689903114882,1.016914768757265e-09,0.8457384378632391
1.018029878462295e-09,0.01707991473658375,1.018029878462295e-09,5.113391597641694,1.018029878462295e-09,0.9014939231147238
1.019402215366697e-09,0.01768716702045343,1.019402215366697e-09,5.120721386352804,1.019402215366697e-09,0.9701107683348718
1.021590470065529e-09,0.0182572722322515,1.021590470065529e-09,5.130771787864913,1.021590470065529e-09,1.07952350327646
1.025966979463193e-09,0.01802813512695231,1.025966979463193e-09,5.144503472125154,1.025966979463193e-09,1.298348973159636
1.029066687274384e-09,0.01685204496312458,1.029066687274384e-09,5.14900259209367,1.029066687274384e-09,1.453334363719198
1.031774029195038e-09,0.01520928771710829,1.031774029195038e-09,5.149350878206616,1.031774029195038e-09,1.588701459751891
1.03448975786512e-09,0.01304885456685082,1.03448975786512e-09,5.146333599739181,1.03448975786512e-09,1.724487893255998
1.037159521519069e-09,0.01047927137879817,1.037159521519069e-09,5.140083301580478,1.037159521519069e-09,1.857976075953452
1.039893717965094e-09,0.007440764353966707,1.039893717965094e-09,5.130315426175654,1.039893717965094e-09,1.994685898254705
1.042738130635456e-09,0.003891955237648542,1.042738130635456e-09,5.116545937941984,1.042738130635456e-09,2.136906531772811
1.045712257688261e-09,-0.0002035310335317653,1.045712257688261e-09,5.098215415035871,1.045712257688261e-09,2.285612884413027
1.048013277820964e-09,-0.003768157212682991,1.048013277820964e-09,5.081278132894683,1.048013277820964e-09,2.400663891048198
1.049889887939828e-09,-0.006816370026066862,1.049889887939828e-09,5.065667692727787,1.049889887939828e-09,2.494494396991376
1.051510390565911e-09,-0.009543529708289063,1.051510390565911e-09,5.050879247275677,1.051510390565911e-09,2.575519528295525
1.054751395818076e-09,-0.01524281805792758,1.054751395818076e-09,5.017613003935833,1.054751395818076e-09,2.73756979090382
1.057536359039782e-09,-0.02032539998321741,1.057536359039782e-09,4.98535502404892,1.057536359039782e-09,2.876817951989099
1.060071986214489e-09,-0.02508536239643983,1.060071986214489e-09,4.953044145429682,1.060071986214489e-09,3.003599310724447
1.06273928503402e-09,-0.0303384862979883,1.06273928503402e-09,4.915433630075314,1.06273928503402e-09,3.136964251700991
1.065168037710584e-09,-0.03537214571564483,1.065168037710584e-09,4.877716104112021,1.065168037710584e-09,3.258401885529197
1.068731794447367e-09,-0.04331894296175747,1.068731794447367e-09,4.815508161302351,1.068731794447367e-09,3.436589722368345
1.07188053228861e-09,-0.05124444238058172,1.07188053228861e-09,4.751736673373435,1.07188053228861e-09,3.594026614430514
1.07409821550161e-09,-0.05774065671804797,1.07409821550161e-09,4.699644773634082,1.07409821550161e-09,3.704910775080498
1.075812506913861e-09,-0.06326530945463182,1.075812506913861e-09,4.655177023049324,1.075812506913861e-09,3.790625345693054
1.077621269081038e-09,-0.06936782694340703,1.077621269081038e-09,4.605096403696757,1.077621269081038e-09,3.881063454051919
1.079337965204752e-09,-0.07534208106046264,1.079337965204752e-09,4.554881453106749,1.079337965204752e-09,3.9668982602376
1.08160765360873e-09,-0.08351368108902352,1.08160765360873e-09,4.484595491456122,1.08160765360873e-09,4.080382680436514
1.083384647413848e-09,-0.09033778883718993,1.083384647413848e-09,4.426079287002501,1.083384647413848e-09,4.169232370692418
1.08519972105605e-09,-0.09798056794130225,1.08519972105605e-09,4.363819260358642,1.08519972105605e-09,4.25998605280251
1.086910175280314e-09,-0.1058236657435271,1.086910175280314e-09,4.305396283819521,1.086910175280314e-09,4.345508764015703
1.088658509182727e-09,-0.1142357497755309,1.088658509182727e-09,4.24652612660523,1.088658509182727e-09,4.432925459136345
1.09042950357377e-09,-0.1227319059503771,1.09042950357377e-09,4.186481986739815,1.09042950357377e-09,4.521475178688492
1.091941147024522e-09,-0.1297282125613261,1.091941147024522e-09,4.134199401055683,1.091941147024522e-09,4.597057351226115
1.093613096510799e-09,-0.1370370070296325,1.093613096510799e-09,4.074994816998367,1.093613096510799e-09,4.680654825539947
1.095693144834453e-09,-0.1453464646825584,1.095693144834453e-09,3.999214360864363,1.095693144834453e-09,4.78465724172267
1.098202238434418e-09,-0.154040857077795,1.098202238434418e-09,3.904651856728835,1.098202238434418e-09,4.910111921720909
1.1e-09,-0.1593022912874606,1.1e-09,3.83479384107089,1.1e-09,5
1.100699282309291e-09,-0.1619125361055116,1.100699282309291e-09,3.803752335025042,1.100699282309291e-09,5
1.10132127084997e-09,-0.1640945190135027,1.10132127084997e-09,3.77615817221065,1.10132127084997e-09,5
1.101952920329888e-09,-0.1661245711233692,1.101952920329888e-09,3.748165968608515,1.101952920329888e-09,5
1.103178239505245e-09,-0.169474564244865,1.103178239505245e-09,3.693971092654014,1.103178239505245e-09,5
1.10521674236725e-09,-0.1733161147623418,1.10521674236725e-09,3.604140699665515,1.10521674236725e-09,5
1.10929374809126e-09,-0.1746361702508684,1.10929374809126e-09,3.425802627261976,1.10929374809126e-09,5
1.114258465582211e-09,-0.1651139530971504,1.114258465582211e-09,3.211245299189015,1.114258465582211e-09,5
1.118990780408288e-09,-0.1448985240280189,1.118990780408288e-09,3.009791296192225,1.118990780408288e-09,5
1.124461471239471e-09,-0.1080475440712686,1.124461471239471e-09,2.781594061694495,1.124461471239471e-09,5
1.129432391053535e-09,-0.06158808127429088,1.129432391053535e-09,2.580342572479,1.129432391053535e-09,5
1.134198255245888e-09,-0.004760046529574501,1.134198255245888e-09,2.39521214345883,1.134198255245888e-09,5
1.136307837749996e-09,0.02317637391156597,1.136307837749996e-09,2.316147397383263,1.136307837749996e-09,5
1.138155837913082e-09,0.04937350165359561,1.138155837913082e-09,2.24850984712026,1.138155837913082e-09,5
1.140427110895661e-09,0.08406300980321423,1.140427110895661e-09,2.167552899492528,1.140427110895661e-09,5
1.142851260158516e-09,0.1242033816709104,1.142851260158516e-09,2.083821899465518,1.142851260158516e-09,5
1.146720085834311e-09,0.1954106281602589,1.146720085834311e-09,1.955854652904051,1.146720085834311e-09,5
1.150070578074198e-09,0.2651515467846595,1.150070578074198e-09,1.850327580942532,1.150070578074198e-09,5
1.152827575837176e-09,0.3295346969058935,1.152827575837176e-09,1.766649288299589,1.152827575837176e-09,5
1.155169312165935e-09,0.3907352425408489,1.155169312165935e-09,1.697252844237942,1.155169312165935e-09,5
1.157185492848406e-09,0.4491734894446563,1.157185492848406e-09,1.6385767227602,1.157185492848406e-09,5
1.159308679444057e-09,0.516361058750523,1.159308679444057e-09,1.578331414905513,1.159308679444057e-09,5
1.16355505263536e-09,0.6661503767647018,1.16355505263536e-09,1.464274769098435,1.16355505263536e-09,5
1.166846333567328e-09,0.7950100741091568,1.166846333567328e-09,1.382114302918401,1.166846333567328e-09,5
1.170321295249492e-09,0.9419979874587567,1.170321295249492e-09,1.301117337440575,1.170321295249492e-09,5
1.174539051902101e-09,1.133683115368172,1.174539051902101e-09,1.210292688397702,1.174539051902101e-09,5
1.178926960735186e-09,1.346267733944745,1.178926960735186e-09,1.123911802339446,1.178926960735186e-09,5
1.183484507120586e-09,1.578552759200774,1.183484507120586e-09,1.042162765714419,1.183484507120586e-09,5
1.188261255499157e-09,1.831453360098771,1.188261255499157e-09,0.9640464378157719,1.188261255499157e-09,5
1.193288146553309e-09,2.104700755835857,1.193288146553309e-09,0.8882693006987964,1.193288146553309e-09,5
1.19869292321583e-09,2.402205135092449,1.19869292321583e-09,0.8125269233237608,1.19869292321583e-09,5
1.204196423357547e-09,2.702127659568624,1.204196423357547e-09,0.7422520810370992,1.204196423357547e-09,5
1.20924631827428e-09,2.966515926873586,1.20924631827428e-09,0.6846095670710687,1.20924631827428e-09,5
1.2139205277608e-09,3.193719571727817,1.2139205277608e-09,0.6383518861417881,1.2139205277608e-09,5
1.218371445109235e-09,3.389981788915633,1.218371445109235e-09,0.6009087803886837,1.218371445109235e-09,5
1.223656748402939e-09,3.59809694490217,1.223656748402939e-09,0.5622742129999734,1.223656748402939e-09,5
1.231903386277485e-09,3.874368801917599,1.231903386277485e-09,0.5085964251128562,1.231903386277485e-09,5
1.240235710846173e-09,4.101593467503723,1.240235710846173e-09,0.458300429460244,1.240235710846173e-09,5
1.248335259845421e-09,4.280017071059175,1.248335259845421e-09,0.4115599096086314,1.248335259845421e-09,5
1.256906509247624e-09,4.430978475958857,1.256906509247624e-09,0.3642504191578479,1.256906509247624e-09,5
1.265887356317548e-09,4.5552895008134,1.265887356317548e-09,0.3175477344796822,1.265887356317548e-09,5
1.275250194606179e-09,4.65569581350688,1.275250194606179e-09,0.2726340000188968,1.275250194606179e-09,5
1.285183507634734e-09,4.737058110282544,1.285183507634734e-09,0.2297367591668877,1.285183507634734e-09,5
1.295883337492284e-09,4.802831877632387,1.295883337492284e-09,0.1892614841741189,1.295883337492284e-09,5
1.307564029179848e-09,4.855574818668711,1.307564029179848e-09,0.1517212043304998,1.307564029179848e-09,5
1.320478065564401e-09,4.897301527902603,1.320478065564401e-09,0.1176549007603876,1.320478065564401e-09,5
1.334924360430881e-09,4.9296537095591,1.334924360430881e-09,0.08759262005969179,1.334924360430881e-09,5
1.351276884593171e-09,4.954061829393052,1.351276884593171e-09,0.06196924801098695,1.351276884593171e-09,5
1.370024834523715e-09,4.971826589650016,1.370024834523715e-09,0.0410530567190622,1.370024834523715e-09,5
1.39183214712267e-09,4.984154475831532,1.39183214712267e-09,0.024891710333079,1.39183214712267e-09,5
1.417633895299297e-09,4.992169782893201,1.417633895299297e-09,0.01327585443502514,1.417633895299297e-09,5
1.43637679530055e-09,4.995253929094956,1.43637679530055e-09,0.008335046404462995,1.43637679530055e-09,5
1.472292597823585e-09,4.998352863116304,1.472292597823585e-09,0.0030799436519139,1.472292597823585e-09,5
1.503597958658101e-09,4.99945077412665,1.503597958658101e-09,0.001093671525480983,1.503597958658101e-09,5
1.538239191189746e-09,4.999907571709745,1.538239191189746e-09,0.0002198830088409682,1.538239191189746e-09,5
1.587644807918548e-09,5.00008775541158,1.587644807918548e-09,-0.0001438161151224476,1.587644807918548e-09,5
1.662983635786728e-09,5.000092656002429,1.662983635786728e-09,-0.0001708866470565237,1.662983635786728e-09,5
1.792615595139993e-09,5.000034721008985,1.792615595139993e-09,-6.694317877274474e-05,1.792615595139993e-09,5
2.016901659526698e-09,4.999999150015093,2.016901659526698e-09,7.69363969996468e-07,2.016901659526698e-09,5
2.266901659526698e-09,4.999996855433808,2.266901659526698e-09,5.699919883495644e-06,2.266901659526698e-09,5
2.516901659526698e-09,4.999999122409799,2.516901659526698e-09,1.560855093841443e-06,2.516901659526698e-09,5
2.766901659526698e-09,4.999999959137949,2.766901659526698e-09,4.180504495500704e-08,2.766901659526698e-09,5
3.016901659526699e-09,5.000000037371145,3.016901659526699e-09,-9.549655739011424e-08,3.016901659526699e-09,5
3.266901659526699e-09,4.999999998903219,3.266901659526699e-09,-2.654284511396359e-08,3.266901659526699e-09,5
3.516901659526699e-09,4.999999982682375,3.516901659526699e-09,2.334177723005096e-09,3.516901659526699e-09,5
3.766901659526699e-09,4.999999980680408,3.766901659526699e-09,5.562036606336191e-09,3.766901659526699e-09,5
4.016901659526698e-09,4.99999998128613,4.016901659526698e-09,4.478827803508326e-09,4.016901659526698e-09,5
4.266901659526698e-09,4.999999981601643,4.266901659526698e-09,3.937813546030052e-09,4.266901659526698e-09,5
4.516901659526698e-09,4.999999981647367,4.516901659526698e-09,3.84084535056285e-09,4.516901659526698e-09,5
4.766901659526698e-09,4.999999981638612,4.766901659526698e-09,3.852305820592097e-09,4.766901659526698e-09,5
5.016901659526697e-09,4.999999981632807,5.016901659526697e-09,3.862436841928149e-09,5.016901659526697e-09,5
5.266901659526697e-09,4.999999981631733,5.266901659526697e-09,3.864473111777175e-09,5.266901659526697e-09,5
5.516901659526697e-09,4.999999981631835,5.516901659526697e-09,3.864326035069022e-09,5.516901659526697e-09,5
5.766901659526697e-09,4.999999981631942,5.766901659526697e-09,3.864141485962326e-09,5.766901659526697e-09,5
5.933450829763349e-09,4.999999981631962,5.933450829763349e-09,3.864105721684142e-09,5.933450829763349e-09,5
6.1e-09,4.999999981631964,6.1e-09,3.864100777329233e-09,6.1e-09,5
6.103125e-09,4.996263039271338,6.103125e-09,-0.01909676443998027,6.103125e-09,4.843749999999988
6.107189096019839e-09,4.992098912708873,6.107189096019839e-09,-0.04219383083618248,6.107189096019839e-09,4.640545199008056
6.115317288059516e-09,4.985568890585295,6.115317288059516e-09,-0.0855258555602269,6.115317288059516e-09,4.23413559702419
6.125885324047368e-09,4.981210800201404,6.125885324047368e-09,-0.1299002034102184,6.125885324047368e-09,3.705733797631626
6.13717136701516e-09,4.984410215554534,6.13717136701516e-09,-0.1402850095195566,6.13717136701516e-09,3.14143164924202
6.145663766671153e-09,4.991108598015547,6.145663766671153e-09,-0.1223019817213851,6.145663766671153e-09,2.716811666442343
6.16264856598314e-09,5.012207795436797,6.16264856598314e-09,-0.01954806984405781,6.16264856598314e-09,1.867571700842988
6.171824580753161e-09,5.02737241692133,6.171824580753161e-09,0.07503521256757979,6.171824580753161e-09,1.408770962341962
6.179554139200794e-09,5.043450048232596,6.179554139200794e-09,0.1859234005459644,6.179554139200794e-09,1.022293039960308
6.188519072101869e-09,5.070660895614025,6.188519072101869e-09,0.3797553316057865,6.188519072101869e-09,0.5740463949065679
6.194816267662594e-09,5.093702807239773,6.194816267662594e-09,0.5539347016017363,6.194816267662594e-09,0.2591866168703216
6.2e-09,5.113337698886463,6.2e-09,0.7135519399898892,6.2e-09,0
6.201067942449808e-09,5.118675325334436,6.201067942449808e-09,0.7540438464215107,6.201067942449808e-09,0
6.202040946780105e-09,5.123475374728404,6.202040946780105e-09,0.7907599973734106,6.202040946780105e-09,0
6.203180575250355e-09,5.129007218989744,6.203180575250355e-09,0.8332971956874613,6.203180575250355e-09,0
6.205459832190855e-09,5.139833597707579,6.205459832190855e-09,0.9156457436837236,6.205459832190855e-09,0
6.209509375565656e-09,5.157056688703957,6.209509375565656e-09,1.05445466354562,6.209509375565656e-09,0
6.216171856054566e-09,5.174961312732966,6.216171856054566e-09,1.275445843694827,6.216171856054566e-09,0
6.221499076423804e-09,5.179219638811421,6.221499076423804e-09,1.447322846216377,6.221499076423804e-09,0
6.231166069244552e-09,5.165052936230695,6.231166069244552e-09,1.747601914278178,6.231166069244552e-09,0
6.250500054886047e-09,5.062431143036393,6.250500054886047e-09,2.297745267705189,6.250500054886047e-09,0
6.266874707233974e-09,4.907592436307676,6.266874707233974e-09,2.706485947444274,6.266874707233974e-09,0
6.283429981420104e-09,4.680636105324275,6.283429981420104e-09,3.062208574387417,6.283429981420104e-09,0
6.291200969685977e-09,4.537144622183461,6.291200969685977e-09,3.213711626799476,6.291200969685977e-09,0
6.300069452394201e-09,4.325054434481701,6.300069452394201e-09,3.379941768055381,6.300069452394201e-09,0
6.307883001619961e-09,4.099379654237636,6.307883001619961e-09,3.513096679357298,6.307883001619961e-09,0
6.316816812303744e-09,3.800797892988577,6.316816812303744e-09,3.648328953763915,6.316816812303744e-09,0
6.329023968675259e-09,3.330148691266287,6.329023968675259e-09,3.806488145903693,6.329023968675259e-09,0
6.341850764699289e-09,2.770029813111035,6.341850764699289e-09,3.943906625241349,6.341850764699289e-09,0
6.353559273140857e-09,2.21519730799696,6.353559273140857e-09,4.047805436013526,6.353559273140857e-09,0
6.364143435474834e-09,1.708421931984226,6.364143435474834e-09,4.127801503682327,6.364143435474834e-09,0
6.371854556877095e-09,1.373934508303362,6.371854556877095e-09,4.177024715569062,6.371854556877095e-09,0
6.377370237552472e-09,1.163710286683123,6.377370237552472e-09,4.208353014670423,6.377370237552472e-09,0
6.383522533586509e-09,0.9595839855970226,6.383522533586509e-09,4.242550169176543,6.383522533586509e-09,0
6.392977719991125e-09,0.7051220889109067,6.392977719991125e-09,4.297292647313427,6.392977719991125e-09,0
6.405132372954583e-09,0.4671630610085512,6.405132372954583e-09,4.373484680429252,6.405132372954583e-09,0
6.414770579547729e-09,0.335668848633819,6.414770579547729e-09,4.436866868778408,6.414770579547729e-09,0
6.423787661004648e-09,0.2473390699084152,6.423787661004648e-09,4.495665962538068,6.423787661004648e-09,0
6.433078931262425e-09,0.1819964811005391,6.433078931262425e-09,4.553521203058457,6.433078931262425e-09,0
6.442779820115431e-09,0.1336355591294419,6.442779820115431e-09,4.609556515485391,6.442779820115431e-09,0
6.453350656181153e-09,0.09691723434578717,6.453350656181153e-09,4.664713493235523,6.453350656181153e-09,0
6.465169921828027e-09,0.06904341037093248,6.465169921828027e-09,4.718847016504141,6.465169921828027e-09,0
6.47862406743211e-09,0.04816472354175694,6.47862406743211e-09,4.771209889474556,6.47862406743211e-09,0
6.494222580611167e-09,0.03277405609899586,6.494222580611167e-09,4.820871188522105,6.494222580611167e-09,0
6.512662934583934e-09,0.02161201011903771,6.512662934583934e-09,4.866722341109853,6.512662934583934e-09,0
6.534971920371329e-09,0.01362197533441452,6.534971920371329e-09,4.90757517468082,6.534971920371329e-09,0
6.553583886315746e-09,0.009631483954982816,6.553583886315746e-09,4.932112784632579,6.553583886315746e-09,0
6.583562380093617e-09,0.005624284329535874,6.583562380093617e-09,4.959269218736849,6.583562380093617e-09,0
6.606366921623289e-09,0.00379992137537733,6.606366921623289e-09,4.972505767400614,6.606366921623289e-09,0
