/net3 X,/net3 Y,/net8 X,/net8 Y,/O X,/O Y
0,5,0,1.413849256083952e-08,0,4.999999981632027
2.5e-11,5,2.5e-11,1.413849049442359e-08,2.5e-11,4.999999981631999
7.5e-11,5,7.5e-11,1.413848950702744e-08,7.5e-11,4.999999981631976
1.75e-10,5,1.75e-10,1.413849029956597e-08,1.75e-10,4.999999981631961
3.749999999999999e-10,5,3.749999999999999e-10,1.413849155014877e-08,3.749999999999999e-10,4.99999998163196
6.25e-10,5,6.25e-10,1.413849249074236e-08,6.25e-10,4.999999981631961
8.125e-10,5,8.125e-10,1.413849241875221e-08,8.125e-10,4.999999981631962
1e-09,5,1e-09,1.413849241578644e-08,1e-09,4.999999981631962
1.000717508347387e-09,4.964124582630636,1.000717508347387e-09,-0.002041724929768814,1.000717508347387e-09,4.999572187936749
1.001248186429574e-09,4.937590678521325,1.001248186429574e-09,-0.003541651852971788,1.001248186429574e-09,4.999261421991386
1.002309542593946e-09,4.884522870302702,1.002309542593946e-09,-0.006501840541178215,1.002309542593946e-09,4.998661607031861
1.003599355036217e-09,4.820032248189158,1.003599355036217e-09,-0.01002534339489703,1.003599355036217e-09,4.99797264935081
1.006178979920759e-09,4.691051003962067,1.006178979920759e-09,-0.01683632012862206,1.006178979920759e-09,4.996719505306836
1.010577839936907e-09,4.471108003154656,1.010577839936907e-09,-0.02777959828664298,1.010577839936907e-09,4.994924131991227
1.01335429647916e-09,4.332285176042,1.01335429647916e-09,-0.03428074166558946,1.01335429647916e-09,4.993991167313797
1.015354569198952e-09,4.232271540052424,1.015354569198952e-09,-0.03878379937060426,1.015354569198952e-09,4.993405031021934
1.017145569474102e-09,4.142721526294924,1.017145569474102e-09,-0.0426961421192699,1.017145569474102e-09,4.992935236255955
1.019387132515906e-09,4.030643374204704,1.019387132515906e-09,-0.0474447313919039,1.019387132515906e-09,4.992413007318483
1.021110030318691e-09,3.944498484065437,1.021110030318691e-09,-0.05098885980426309,1.021110030318691e-09,4.992057411981898
1.023457384411327e-09,3.827130779433667,1.023457384411327e-09,-0.05568048528269116,1.023457384411327e-09,4.991630392280308
1.026689099070915e-09,3.665545046454258,1.026689099070915e-09,-0.06190425987704417,1.026689099070915e-09,4.991137899115979
1.030340355138041e-09,3.482982243097977,1.030340355138041e-09,-0.06864520189329999,1.030340355138041e-09,4.990695440885434
1.034270044714998e-09,3.286497764250088,1.034270044714998e-09,-0.07560481374969688,1.034270044714998e-09,4.990331086026718
1.038458823632774e-09,3.077058818361301,1.038458823632774e-09,-0.08274672532537478,1.038458823632774e-09,4.990044317835679
1.042942914054559e-09,2.852854297272073,1.042942914054559e-09,-0.09015037651693282,1.042942914054559e-09,4.989824937107245
1.047825042106674e-09,2.608747894666301,1.047825042106674e-09,-0.09802371615572796,1.047825042106674e-09,4.98965671366232
1.053278586639393e-09,2.336070668030359,1.053278586639393e-09,-0.1067260551629169,1.053278586639393e-09,4.98951643446062
1.05961664195393e-09,2.019167902303499,1.05961664195393e-09,-0.1169511298198494,1.05961664195393e-09,4.989361389276945
1.062929267621017e-09,1.853536618949174,1.062929267621017e-09,-0.1224742613123812,1.062929267621017e-09,4.989256910592831
1.064540654096212e-09,1.772967295189426,1.064540654096212e-09,-0.1254462402671634,1.064540654096212e-09,4.989150793053174
1.065837253101248e-09,1.708137344937581,1.065837253101248e-09,-0.1284327911184296,1.065837253101248e-09,4.988944510033575
1.067130114979623e-09,1.643494251018831,1.067130114979623e-09,-0.1323877580598966,1.067130114979623e-09,4.988541878600933
1.068282144297795e-09,1.585892785110248,1.068282144297795e-09,-0.1366311955087294,1.068282144297795e-09,4.988044551307487
1.069976407574375e-09,1.501179621281246,1.069976407574375e-09,-0.1433815456822124,1.069976407574375e-09,4.987236977903569
1.071177286203949e-09,1.441135689802543,1.071177286203949e-09,-0.1482216702622458,1.071177286203949e-09,4.986677172083006
1.072443726139863e-09,1.377813693006865,1.072443726139863e-09,-0.1532350381104316,1.072443726139863e-09,4.986127598845319
1.074187685412323e-09,1.290615729383875,1.074187685412323e-09,-0.1598404924488409,1.074187685412323e-09,4.985466893231608
1.076361162670543e-09,1.181941866472859,1.076361162670543e-09,-0.1673724573869088,1.076361162670543e-09,4.984836103879618
1.078757039447557e-09,1.06214802762213,1.078757039447557e-09,-0.1744743151867797,1.078757039447557e-09,4.984435370847333
1.081237960737619e-09,0.9381019631190339,1.081237960737619e-09,-0.1801681820825028,1.081237960737619e-09,4.98439276041507
1.083809289294795e-09,0.8095355352602649,1.083809289294795e-09,-0.183967224824928,1.083809289294795e-09,4.984785437081336
1.086545573528037e-09,0.672721323598152,1.086545573528037e-09,-0.1847793627981996,1.086545573528037e-09,4.985833791324358
1.087937867866978e-09,0.6031066066511146,1.087937867866978e-09,-0.1831304840456337,1.087937867866978e-09,4.986767569057341
1.089241421382789e-09,0.5379289308605575,1.089241421382789e-09,-0.180100404993135,1.089241421382789e-09,4.987920517757224
1.091003035086891e-09,0.4498482456554322,1.091003035086891e-09,-0.1741586584702697,1.091003035086891e-09,4.989793342973411
1.092620464862189e-09,0.3689767568905316,1.092620464862189e-09,-0.1670419413773667,1.092620464862189e-09,4.991773052389592
1.094609171396118e-09,0.2695414301940957,1.094609171396118e-09,-0.1560802922932719,1.094609171396118e-09,4.994535193374366
1.097304585698059e-09,0.1347707150970461,1.097304585698059e-09,-0.1371266747685419,1.097304585698059e-09,4.998858529837714
1.1e-09,0,1.1e-09,-0.113172439622476,1.1e-09,5.004049258955808
1.100551822334095e-09,0,1.100551822334095e-09,-0.1074022482041106,1.100551822334095e-09,5.005254187683673
1.101160410884329e-09,0,1.101160410884329e-09,-0.1008043745004552,1.101160410884329e-09,5.006618021735701
1.101927498606605e-09,0,1.101927498606605e-09,-0.09204102353454774,1.101927498606605e-09,5.008401721692617
1.103086512115775e-09,0,1.103086512115775e-09,-0.07779758120219145,1.103086512115775e-09,5.011237156550765
1.105088041171955e-09,0,1.105088041171955e-09,-0.05034179213896065,1.105088041171955e-09,5.016514180764362
1.109091099284316e-09,0,1.109091099284316e-09,0.01489520925927004,1.109091099284316e-09,5.028286371476268
1.112150131836883e-09,0,1.112150131836883e-09,0.07324414710582879,1.112150131836883e-09,5.038134233584154
1.114586604615984e-09,0,1.114586604615984e-09,0.1245038799524853,1.114586604615984e-09,5.046365111170455
1.117089629955767e-09,0,1.117089629955767e-09,0.1811615464727567,1.117089629955767e-09,5.055064042874577
1.119604001706978e-09,0,1.119604001706978e-09,0.2417826020739676,1.119604001706978e-09,5.063958888170873
1.122399267002976e-09,0,1.122399267002976e-09,0.3131054753157266,1.122399267002976e-09,5.073936292058568
1.12555358875543e-09,0,1.12555358875543e-09,0.3980169395105853,1.12555358875543e-09,5.085201996562557
1.129070945442815e-09,0,1.129070945442815e-09,0.4975497241464221,1.129070945442815e-09,5.097656522455142
1.132971911173128e-09,0,1.132971911173128e-09,0.6130527835558812,1.132971911173128e-09,5.111214806161424
1.137272883156753e-09,0,1.137272883156753e-09,0.745514127354497,1.137272883156753e-09,5.12576020749156
1.141918420133999e-09,0,1.141918420133999e-09,0.8921379991829105,1.141918420133999e-09,5.141505184793661
1.146026378400745e-09,0,1.146026378400745e-09,1.021695386768437,1.146026378400745e-09,5.155920140370357
1.149689783281723e-09,0,1.149689783281723e-09,1.137973762395996,1.149689783281723e-09,5.16678072219486
1.155119137601057e-09,0,1.155119137601057e-09,1.31154663730724,1.155119137601057e-09,5.176896450584985
1.163307667090346e-09,0,1.163307667090346e-09,1.573107589138803,1.163307667090346e-09,5.177019569267232
1.170770981150294e-09,0,1.170770981150294e-09,1.807640978576053,1.170770981150294e-09,5.160821286219719
1.178158870980447e-09,0,1.178158870980447e-09,2.031565969171647,1.178158870980447e-09,5.129287462284971
1.185414760507249e-09,0,1.185414760507249e-09,2.238697538653708,1.185414760507249e-09,5.083352797027151
1.192612647552366e-09,0,1.192612647552366e-09,2.428888779636018,1.192612647552366e-09,5.023718868274274
1.201433079404755e-09,0,1.201433079404755e-09,2.642224668037598,1.201433079404755e-09,4.935920579089883
1.212804798041253e-09,0,1.212804798041253e-09,2.887749253065402,1.212804798041253e-09,4.796004307443765
1.226845408151663e-09,0,1.226845408151663e-09,3.152151741600127,1.226845408151663e-09,4.567606038113865
1.234848835132641e-09,0,1.234848835132641e-09,3.288453248179553,1.234848835132641e-09,4.391792016904072
1.242341269381463e-09,0,1.242341269381463e-09,3.40633093570414,1.242341269381463e-09,4.194186473389723
1.254878490358054e-09,0,1.254878490358054e-09,3.582149053698015,1.254878490358054e-09,3.802578031979766
1.266322904986703e-09,0,1.266322904986703e-09,3.721881761087864,1.266322904986703e-09,3.383720560044354
1.280422516928207e-09,0,1.280422516928207e-09,3.871093868314713,1.280422516928207e-09,2.79850530191037
1.293752717854105e-09,0,1.293752717854105e-09,3.992506734397776,1.293752717854105e-09,2.190923375680522
1.30176816772327e-09,0,1.30176816772327e-09,4.057574770323571,1.30176816772327e-09,1.813735343799201
1.310191104467613e-09,0,1.310191104467613e-09,4.120025649467223,1.310191104467613e-09,1.443334651777968
1.316148038552973e-09,0,1.316148038552973e-09,4.160558608985093,1.316148038552973e-09,1.213137922138495
1.321795592887932e-09,0,1.321795592887932e-09,4.197222483470903,1.321795592887932e-09,1.021341112866696
1.331991090914635e-09,0,1.331991090914635e-09,4.260981422842166,1.331991090914635e-09,0.7379862764118023
1.3418856167567e-09,0,1.3418856167567e-09,4.320746527100653,1.3418856167567e-09,0.5308248823520522
1.351670096613581e-09,0,1.351670096613581e-09,4.377675593187058,1.351670096613581e-09,0.3798969233302963
1.361196166071545e-09,0,1.361196166071545e-09,4.430322682434724,1.361196166071545e-09,0.2735517591165807
1.370717509206398e-09,0,1.370717509206398e-09,4.479608582477292,1.370717509206398e-09,0.1975509918720078
1.38056749643577e-09,0,1.38056749643577e-09,4.526804891293427,1.38056749643577e-09,0.1421464244828113
1.391054260241486e-09,0,1.391054260241486e-09,4.572798415607639,1.391054260241486e-09,0.1014125899592499
1.402545420606251e-09,0,1.402545420606251e-09,4.618365658854067,1.402545420606251e-09,0.07141975831760743
1.415441760816596e-09,0,1.415441760816596e-09,4.663926643587768,1.415441760816596e-09,0.04959034936452511
1.430213131616899e-09,0,1.430213131616899e-09,4.709587002192382,1.430213131616899e-09,0.03405227742443089
1.447477082575866e-09,0,1.447477082575866e-09,4.755235547092828,1.447477082575866e-09,0.02328095906761653
1.468116302279568e-09,0,1.468116302279568e-09,4.80057606778368,1.468116302279568e-09,0.01596612066149004
1.493487456907021e-09,0,1.493487456907021e-09,4.845109567754257,1.493487456907021e-09,0.01098597022781471
1.514226638042802e-09,0,1.514226638042802e-09,4.873970386156271,1.514226638042802e-09,0.00861639154507089
1.553122247716143e-09,0,1.553122247716143e-09,4.914784149747207,1.553122247716143e-09,0.005702822045334587
1.583820015317012e-09,0,1.583820015317012e-09,4.937523965329959,1.583820015317012e-09,0.004202562176547618
1.61373551716067e-09,0,1.61373551716067e-09,4.953796829280668,1.61373551716067e-09,0.003137579007943607
1.649759157504827e-09,0,1.649759157504827e-09,4.967934267718843,1.649759157504827e-09,0.00219469634295683
1.691383044306748e-09,0,1.691383044306748e-09,4.97909840084084,1.691383044306748e-09,0.001435335591063122
1.739612227335089e-09,0,1.739612227335089e-09,4.987421405447147,1.739612227335089e-09,0.000863167438906194
1.797850144219107e-09,0,1.797850144219107e-09,4.993376900213096,1.797850144219107e-09,0.0004530844151650419
1.87042111396479e-09,0,1.87042111396479e-09,4.997257810501742,1.87042111396479e-09,0.0001868448218184299
1.964430233103774e-09,0,1.964430233103774e-09,4.999412247092279,1.964430233103774e-09,3.982806742288894e-05
2.093702972801335e-09,0,2.093702972801335e-09,5.000279505931898,2.093702972801335e-09,-1.906835862977848e-05
2.268168097445589e-09,0,2.268168097445589e-09,5.000337324488091,2.268168097445589e-09,-2.32092799349995e-05
2.515984526978375e-09,0,2.515984526978375e-09,5.000143083851757,2.515984526978375e-09,-9.990858833497474e-06
2.765984526978375e-09,0,2.765984526978375e-09,5.000028878012142,2.765984526978375e-09,-2.039248146844969e-06
3.015984526978375e-09,0,3.015984526978375e-09,4.999996547229414,3.015984526978375e-09,2.513239078860807e-07
3.265984526978375e-09,0,3.265984526978375e-09,4.999994577908374,3.265984526978375e-09,3.921945407152705e-07
3.515984526978376e-09,0,3.515984526978376e-09,4.999997626263078,3.515984526978376e-09,1.771145505862984e-07
3.765984526978375e-09,0,3.765984526978375e-09,4.999999451200226,3.765984526978375e-09,5.158062539025188e-08
4.015984526978375e-09,0,4.015984526978375e-09,5.00000000174794,4.015984526978375e-09,1.44748992338128e-08
4.265984526978375e-09,0,4.265984526978375e-09,5.00000005022548,4.265984526978375e-09,1.131521149739044e-08
4.515984526978375e-09,0,4.515984526978375e-09,5.000000004026391,4.515984526978375e-09,1.441620041564088e-08
4.765984526978374e-09,0,4.765984526978374e-09,4.999999974801536,4.765984526978374e-09,1.645289264515383e-08
5.015984526978374e-09,0,5.015984526978374e-09,4.999999965719096,5.015984526978374e-09,1.70783454622226e-08
5.265984526978374e-09,0,5.265984526978374e-09,4.999999964793886,5.265984526978374e-09,1.713900783024461e-08
5.515984526978374e-09,0,5.515984526978374e-09,4.999999965479415,5.515984526978374e-09,1.709129311494002e-08
5.765984526978373e-09,0,5.765984526978373e-09,4.999999965948597,5.765984526978373e-09,1.705924506465464e-08
5.932992263489187e-09,0,5.932992263489187e-09,4.999999966070488,5.932992263489187e-09,1.705097099311949e-08
6.1e-09,0,6.1e-09,4.999999966104625,6.1e-09,1.704865413155094e-08
6.104198445152008e-09,0.209922257600386,6.104198445152008e-09,5.005070732754137,6.104198445152008e-09,0.000919707394144281
6.108802677859354e-09,0.4401338929676965,6.108802677859354e-09,5.012287666033011,6.108802677859354e-09,0.002133784463414481
6.118011143274046e-09,0.9005571637023175,6.118011143274046e-09,5.031713974131289,6.118011143274046e-09,0.0049190607698365
6.128305244892972e-09,1.415262244648601,6.128305244892972e-09,5.05625747635013,6.128305244892972e-09,0.007578615183453595
6.140208993268453e-09,2.010449663422664,6.140208993268453e-09,5.067024995660338,6.140208993268453e-09,0.006753509110816285
6.149198694874491e-09,2.459934743724546,6.149198694874491e-09,5.059800985800218,6.149198694874491e-09,0.003615101396725267
6.163773317757e-09,3.188665887849983,6.163773317757e-09,5.019331406663922,6.163773317757e-09,-0.004542702547438869
6.1818866588785e-09,4.094332943924993,6.1818866588785e-09,4.923058366540735,6.1818866588785e-09,-0.01729537281459656
6.190555779272198e-09,4.527788963609883,6.190555779272198e-09,4.857320488857561,6.190555779272198e-09,-0.02431432391230008
6.195277889636099e-09,4.763894481804943,6.195277889636099e-09,4.814956940926066,6.195277889636099e-09,-0.0285433335970761
6.2e-09,5,6.2e-09,4.767529441306537,6.2e-09,-0.03307492096517222
6.20100622513377e-09,5,6.20100622513377e-09,4.755297876302071,6.20100622513377e-09,-0.03436954355039362
6.201903668956701e-09,5,6.201903668956701e-09,4.744419408184226,6.201903668956701e-09,-0.03549009589797687
6.202975083897601e-09,5,6.202975083897601e-09,4.73149093106673,6.202975083897601e-09,-0.03676993382696896
6.205117913779403e-09,5,6.205117913779403e-09,4.705830811878685,6.205117913779403e-09,-0.03913773054125737
6.209403573543007e-09,5,6.209403573543007e-09,4.655175456941004,6.209403573543007e-09,-0.0432053499701283
6.217974893070214e-09,5,6.217974893070214e-09,4.555651287279195,6.217974893070214e-09,-0.04936213757153446
6.234356927359341e-09,5,6.234356927359341e-09,4.368171369424121,6.234356927359341e-09,-0.05745094858472657
6.253509052677577e-09,5,6.253509052677577e-09,4.154496985969987,6.253509052677577e-09,-0.06560150314609024
6.274268940890103e-09,5,6.274268940890103e-09,3.920165790707774,6.274268940890103e-09,-0.05834737821582979
6.292393768117419e-09,5,6.292393768117419e-09,3.710321653545188,6.292393768117419e-09,-0.03365091104806651
6.316780094911389e-09,5,6.316780094911389e-09,3.420711769224179,6.316780094911389e-09,0.02594500865368558
6.331455984194514e-09,5,6.331455984194514e-09,3.242785916782538,6.331455984194514e-09,0.07606570421500441
6.360807762760765e-09,5,6.360807762760765e-09,2.879769679949558,6.360807762760765e-09,0.215116402340184
6.381400569014628e-09,5,6.381400569014628e-09,2.620163977169114,6.381400569014628e-09,0.3519570723550837
6.40404531892961e-09,5,6.40404531892961e-09,2.332178679698312,6.40404531892961e-09,0.5654242838425022
6.414797342442845e-09,5,6.414797342442845e-09,2.194870301258781,6.414797342442845e-09,0.7069851323531479
6.425707434734323e-09,5,6.425707434734323e-09,2.056669804061387,6.425707434734323e-09,0.8944237216603816
6.435975171148356e-09,5,6.435975171148356e-09,1.929625077215156,6.435975171148356e-09,1.114375242231786
6.451418217469722e-09,5,6.451418217469722e-09,1.74502644239283,6.451418217469722e-09,1.523465968382763
6.462221381041782e-09,5,6.462221381041782e-09,1.620485463088151,6.462221381041782e-09,1.86064710697116
6.476798139434673e-09,5,6.476798139434673e-09,1.45902139900767,6.476798139434673e-09,2.368017461751166
6.48977138949903e-09,5,6.48977138949903e-09,1.32230464791939,6.48977138949903e-09,2.850792238737368
6.500347555552043e-09,5,6.500347555552043e-09,1.216158817610461,6.500347555552043e-09,3.242224617450292
6.508943271118148e-09,5,6.508943271118148e-09,1.135077604414496,6.508943271118148e-09,3.533877109857225
6.515903297796344e-09,5,6.515903297796344e-09,1.073629619666389,6.515903297796344e-09,3.741823668545095
6.523372677409926e-09,5,6.523372677409926e-09,1.010680555495537,6.523372677409926e-09,3.937277206187904
6.538311436637091e-09,5,6.538311436637091e-09,0.8905752472285692,6.538311436637091e-09,4.250710472707921
6.552259590100704e-09,5,6.552259590100704e-09,0.7836299081949827,6.552259590100704e-09,4.465764585562321
6.563974184388335e-09,5,6.563974184388335e-09,0.699159363362218,6.563974184388335e-09,4.599092516191689
6.576292501839779e-09,5,6.576292501839779e-09,0.6170980778474019,6.576292501839779e-09,4.70296747332394
6.588895798172953e-09,5,6.588895798172953e-09,0.5409379975564297,6.588895798172953e-09,4.780271808490311
6.601832122758616e-09,5,6.601832122758616e-09,0.4711168638548106,6.601832122758616e-09,4.837388212895135
6.615814763739731e-09,5,6.615814763739731e-09,0.4048825531203864,6.615814763739731e-09,4.881219098426302
6.631288529026774e-09,5,6.631288529026774e-09,0.3419791948571837,6.631288529026774e-09,4.914848311935721
6.648730641622592e-09,5,6.648730641622592e-09,0.2827394200532304,6.648730641622592e-09,4.940358850069082
6.66873608811446e-09,5,6.66873608811446e-09,0.2277654404637959,6.66873608811446e-09,4.959374054689933
6.692070894776093e-09,5,6.692070894776093e-09,0.1778506645627135,6.692070894776093e-09,4.97323071540083
6.71982855215308e-09,5,6.71982855215308e-09,0.1337525682011707,6.71982855215308e-09,4.98308759906007
6.741294509954019e-09,5,6.741294509954019e-09,0.1085023584841094,6.741294509954019e-09,4.987687632219018
6.777131373105924e-09,5,6.777131373105924e-09,0.07796486558081729,6.777131373105924e-09,4.992508948849574
6.807619862252901e-09,5,6.807619862252901e-09,0.06022656764567474,6.807619862252901e-09,4.994925180650898
6.838591124301947e-09,5,6.838591124301947e-09,0.04745454293420157,6.838591124301947e-09,4.996478334672202
6.876418828662896e-09,5,6.876418828662896e-09,0.03649829060328058,6.876418828662896e-09,4.99768510952976
6.921808533659053e-09,5,6.921808533659053e-09,0.02761916989313593,6.921808533659053e-09,4.998559093636299
6.976830078699152e-09,5,6.976830078699152e-09,0.02061963851439901,6.976830078699152e-09,4.999154395207255
7.04607923841263e-09,5,7.04607923841263e-09,0.01511733240527181,7.04607923841263e-09,4.999537633031529
7.135889340793487e-09,5,7.135889340793487e-09,0.01085572950224853,7.135889340793487e-09,4.999763828921922
