/o1 X,/o1 Y,/net09 X,/net09 Y,/net1 X,/net1 Y
0,1.704906604913457e-08,0,4.999999989169326,0,0
2.5e-11,1.704906618885976e-08,2.5e-11,4.999999989169326,2.5e-11,0
7.5e-11,1.704906619804357e-08,7.5e-11,4.999999989169326,7.5e-11,0
1.75e-10,1.70490655815023e-08,1.75e-10,4.999999989169326,1.75e-10,0
3.749999999999999e-10,1.704906599104311e-08,3.749999999999999e-10,4.999999989169327,3.749999999999999e-10,0
6.25e-10,1.704906630222902e-08,6.25e-10,4.999999989169327,6.25e-10,0
8.125e-10,1.704906623013432e-08,8.125e-10,4.999999989169325,8.125e-10,0
1e-09,1.704906662383661e-08,1e-09,4.999999989169325,1e-09,0
1.000038726150484e-09,3.788447439659492e-05,1.000038726150484e-09,5.000179356456915,1.000038726150484e-09,0.001936307524204584
1.000067793867445e-09,6.627644093735167e-05,1.000067793867445e-09,5.000313947791939,1.000067793867445e-09,0.003389693372268936
1.000125929301368e-09,0.0001229375424470441,1.000125929301368e-09,5.000582970459228,1.000125929301368e-09,0.00629646506839764
1.000242200169213e-09,0.000235736106473859,1.000242200169213e-09,5.001120334123535,1.000242200169213e-09,0.01211000846065505
1.000474741904903e-09,0.0004592264324408484,1.000474741904903e-09,5.002192312526982,1.000474741904903e-09,0.02373709524516987
1.000939825376284e-09,0.0008978777893104256,1.000939825376284e-09,5.004325343942758,1.000939825376284e-09,0.0469912688141995
1.001869992319045e-09,0.001742781925413185,1.001869992319045e-09,5.008548455234028,1.001869992319045e-09,0.09349961595225878
1.003730326204568e-09,0.0033101205558414,1.003730326204568e-09,5.016828853327046,1.003730326204568e-09,0.1865163102283773
1.006165429499825e-09,0.005134227847161748,1.006165429499825e-09,5.027350334970476,1.006165429499825e-09,0.3082714749912541
1.008720499216712e-09,0.006798083071140891,1.008720499216712e-09,5.03803154275366,1.008720499216712e-09,0.4360249608356088
1.011387393991816e-09,0.008311217565094292,1.011387393991816e-09,5.048915552187682,1.011387393991816e-09,0.5693696995908057
1.012857372386224e-09,0.009115529915996295,1.012857372386224e-09,5.055102052123389,1.012857372386224e-09,0.6428686193111856
1.01426565166899e-09,0.009924090340847111,1.01426565166899e-09,5.061426130368061,1.01426565166899e-09,0.7132825834494777
1.015640683977055e-09,0.01069550553864414,1.015640683977055e-09,5.067718558202066,1.015640683977055e-09,0.782034198852735
1.016924610514055e-09,0.01133710952465755,1.016924610514055e-09,5.073390535931345,1.016924610514055e-09,0.8462305257027475
1.018086341966503e-09,0.01183025574109699,1.018086341966503e-09,5.078233551786858,1.018086341966503e-09,0.9043170983251561
1.019608457171216e-09,0.01234020875264044,1.019608457171216e-09,5.084079547802418,1.019608457171216e-09,0.9804228585608142
1.021983466804126e-09,0.01282580630242734,1.021983466804126e-09,5.091954715241185,1.021983466804126e-09,1.099173340206289
1.026733486069945e-09,0.01273073141377216,1.026733486069945e-09,5.10279446118031,1.026733486069945e-09,1.336674303497238
1.030294950985556e-09,0.01180065316417258,1.030294950985556e-09,5.106482121554549,1.030294950985556e-09,1.514747549277808
1.033358756024061e-09,0.01047137335269177,1.033358756024061e-09,5.106537657216077,1.033358756024061e-09,1.667937801203023
1.03639490030807e-09,0.008724357849073119,1.03639490030807e-09,5.103707786070342,1.03639490030807e-09,1.81974501540351
1.039367857708907e-09,0.006644380388003485,1.039367857708907e-09,5.098132523591599,1.039367857708907e-09,1.96839288544533
1.042396341338637e-09,0.004191564040697039,1.042396341338637e-09,5.089586323400002,1.042396341338637e-09,2.119817066931837
1.045540767702878e-09,0.001328017024962374,1.045540767702878e-09,5.077638410933084,1.045540767702878e-09,2.277038385143912
1.048828115033146e-09,-0.00206477721843449,1.048828115033146e-09,5.061791325448039,1.048828115033146e-09,2.441405751657313
1.05192351112533e-09,-0.005579483993024015,1.05192351112533e-09,5.043706480524422,1.05192351112533e-09,2.596175556266494
1.054924192119887e-09,-0.009200333012968989,1.054924192119887e-09,5.023204536588904,1.054924192119887e-09,2.746209605994371
1.057444828034013e-09,-0.01239410891265863,1.057444828034013e-09,5.003686693849162,1.057444828034013e-09,2.872241401700657
1.061797920606298e-09,-0.01811757326303408,1.061797920606298e-09,4.965407455357005,1.061797920606298e-09,3.089896030314896
1.064913626857152e-09,-0.02246251664263922,1.064913626857152e-09,4.933942744387073,1.064913626857152e-09,3.245681342857582
1.067833648950894e-09,-0.02675158681339743,1.067833648950894e-09,4.901128442282398,1.067833648950894e-09,3.391682447544698
1.072093852982124e-09,-0.03349549682837395,1.072093852982124e-09,4.84668132375367,1.072093852982124e-09,3.604692649106196
1.074383817182318e-09,-0.03750418762455362,1.074383817182318e-09,4.813386545933716,1.074383817182318e-09,3.719190859115899
1.076617543042199e-09,-0.04186732617902936,1.076617543042199e-09,4.777126098185042,1.076617543042199e-09,3.830877152109937
1.078619251631913e-09,-0.04611337984766594,1.078619251631913e-09,4.741523227712049,1.078619251631913e-09,3.930962581595631
1.08146057205127e-09,-0.05242362916720181,1.08146057205127e-09,4.686968481181199,1.08146057205127e-09,4.073028602563483
1.083565452843575e-09,-0.05740370964237949,1.083565452843575e-09,4.642989688891558,1.083565452843575e-09,4.178272642178758
1.086065286073626e-09,-0.0636883545878633,1.086065286073626e-09,4.586528292242403,1.086065286073626e-09,4.303264303681306
1.088154298415127e-09,-0.06902661534855901,1.088154298415127e-09,4.536849813215707,1.088154298415127e-09,4.407714920756328
1.090079884559296e-09,-0.07397526175652928,1.090079884559296e-09,4.489355042763225,1.090079884559296e-09,4.503994227964796
1.093299481271246e-09,-0.082375919619937,1.093299481271246e-09,4.407172011163136,1.093299481271246e-09,4.664974063562276
1.096649740635623e-09,-0.09155774754255624,1.096649740635623e-09,4.321838067070456,1.096649740635623e-09,4.832487031781145
1.098324870317811e-09,-0.09636195432441763,1.098324870317811e-09,4.280490314356173,1.098324870317811e-09,4.916243515890569
1.1e-09,-0.1011828268592808,1.1e-09,4.239525640950211,1.1e-09,5
1.100621005770195e-09,-0.1034289149050615,1.100621005770195e-09,4.22244503766313,1.100621005770195e-09,5
1.101174447775885e-09,-0.1053912081282822,1.101174447775885e-09,4.207307203478434,1.101174447775885e-09,5
1.101770662557324e-09,-0.1074414118115705,1.101770662557324e-09,4.191071170367181,1.101770662557324e-09,5
1.102963092120204e-09,-0.1113079167128979,1.102963092120204e-09,4.158765862807411,1.102963092120204e-09,5
1.104945875444176e-09,-0.1169904853250478,1.104945875444176e-09,4.105381110803435,1.104945875444176e-09,5
1.107788175767555e-09,-0.1234339165154359,1.107788175767555e-09,4.029356415517889,1.107788175767555e-09,5
1.111672632931178e-09,-0.1289645365554645,1.111672632931178e-09,3.926263520837761,1.111672632931178e-09,5
1.119015200204146e-09,-0.1293980559122646,1.119015200204146e-09,3.733854485133899,1.119015200204146e-09,5
1.125160748981348e-09,-0.1201026587282365,1.125160748981348e-09,3.575293424772837,1.125160748981348e-09,5
1.13047539556418e-09,-0.1052558738387732,1.13047539556418e-09,3.440002341807141,1.13047539556418e-09,5
1.136080038609786e-09,-0.08302192411105973,1.136080038609786e-09,3.299175429577422,1.136080038609786e-09,5
1.141872556845885e-09,-0.05314539055117883,1.141872556845885e-09,3.155648281016236,1.141872556845885e-09,5
1.148345328371613e-09,-0.01170789712394994,1.148345328371613e-09,2.997760683492167,1.148345328371613e-09,5
1.151252574308989e-09,0.0091622159711082,1.151252574308989e-09,2.927748241227766,1.151252574308989e-09,5
1.154143684825855e-09,0.03097040158359693,1.154143684825855e-09,2.858762280846637,1.154143684825855e-09,5
1.157227531170599e-09,0.05601293785061694,1.157227531170599e-09,2.785902060937645,1.157227531170599e-09,5
1.159577923371604e-09,0.07635055883803703,1.159577923371604e-09,2.730911848973985,1.159577923371604e-09,5
1.164278707773613e-09,0.1203783292484949,1.164278707773613e-09,2.622543806491518,1.164278707773613e-09,5
1.170151930051347e-09,0.1820590271292853,1.170151930051347e-09,2.490706914683861,1.170151930051347e-09,5
1.175470536047884e-09,0.2449239494077866,1.175470536047884e-09,2.375235088272583,1.175470536047884e-09,5
1.180510751282109e-09,0.3114732294895238,1.180510751282109e-09,2.269513421229626,1.180510751282109e-09,5
1.185301030841995e-09,0.3821476919643796,1.185301030841995e-09,2.172344750514846,1.185301030841995e-09,5
1.189653282292805e-09,0.4541570916534793,1.189653282292805e-09,2.086515802450637,1.189653282292805e-09,5
1.1934826566682e-09,0.5254810730598286,1.1934826566682e-09,2.012406627020037,1.1934826566682e-09,5
1.196852413302073e-09,0.5959323443185565,1.196852413302073e-09,1.948045645936777,1.196852413302073e-09,5
1.200150380731581e-09,0.6724412455202404,1.200150380731581e-09,1.886326184255624,1.200150380731581e-09,5
1.204642120249803e-09,0.7885713242378747,1.204642120249803e-09,1.805512991150474,1.204642120249803e-09,5
1.213281271907328e-09,1.047937610922674,1.213281271907328e-09,1.662214253574995,1.213281271907328e-09,5
1.220222659782187e-09,1.287117091863163,1.220222659782187e-09,1.558380149279433,1.220222659782187e-09,5
1.226460431241012e-09,1.522116598846898,1.226460431241012e-09,1.473034597562667,1.226460431241012e-09,5
1.232903998176455e-09,1.781157743109204,1.232903998176455e-09,1.392056223793758,1.232903998176455e-09,5
1.239398210213318e-09,2.055121015264616,1.239398210213318e-09,1.317062609879496,1.239398210213318e-09,5
1.246067336914763e-09,2.345534008563011,1.246067336914763e-09,1.246134833678568,1.246067336914763e-09,5
1.252912705374705e-09,2.647849447257033,1.252912705374705e-09,1.178832552866941,1.252912705374705e-09,5
1.259757356616037e-09,2.947335147712797,1.259757356616037e-09,1.116201593699059,1.259757356616037e-09,5
1.266246843278259e-09,3.219045934662446,1.266246843278259e-09,1.061056991938891,1.266246843278259e-09,5
1.272046302860939e-09,3.442132462821731,1.272046302860939e-09,1.017172324384171,1.272046302860939e-09,5
1.277450387877348e-09,3.628937909999388,1.277450387877348e-09,0.981112324439388,1.277450387877348e-09,5
1.28414011992425e-09,3.832741382088958,1.28414011992425e-09,0.9396913138402037,1.28414011992425e-09,5
1.293677082040716e-09,4.076056961348787,1.293677082040716e-09,0.8809666125288789,1.293677082040716e-09,5
1.303832933767101e-09,4.282591036633826,1.303832933767101e-09,0.8150043202443364,1.303832933767101e-09,5
1.313651322072232e-09,4.439082537626637,1.313651322072232e-09,0.7481842847119341,1.313651322072232e-09,5
1.323774038375053e-09,4.564293767776105,1.323774038375053e-09,0.6784705037369442,1.323774038375053e-09,5
1.334293519640769e-09,4.663754626668503,1.334293519640769e-09,0.6073765418929621,1.334293519640769e-09,5
1.345253477838968e-09,4.741892836809313,1.345253477838968e-09,0.5366397750077552,1.345253477838968e-09,5
1.356941480407544e-09,4.803842598022294,1.356941480407544e-09,0.4664673276865598,1.356941480407544e-09,5
1.369655742471124e-09,4.853044498930638,1.369655742471124e-09,0.39737301803943,1.369655742471124e-09,5
1.38370955053113e-09,4.89189324901595,1.38370955053113e-09,0.3302626342701605,1.38370955053113e-09,5
1.399477031808368e-09,4.922247875840576,1.399477031808368e-09,0.2662654906768306,1.399477031808368e-09,5
1.417425163564683e-09,4.945628086219272,1.417425163564683e-09,0.2066786374104665,1.417425163564683e-09,5
1.438175145471359e-09,4.963330894689293,1.438175145471359e-09,0.1528397317293697,1.438175145471359e-09,5
1.462589045294204e-09,4.976464262444119,1.462589045294204e-09,0.1060182037258671,1.462589045294204e-09,5
1.480626057252728e-09,4.982677528943759,1.480626057252728e-09,0.0806568602554828,1.480626057252728e-09,5
1.512426549481302e-09,4.989831192487207,1.512426549481302e-09,0.04911042105603138,1.512426549481302e-09,5
1.534784979649438e-09,4.992922537707739,1.534784979649438e-09,0.03451560319275383,1.534784979649438e-09,5
1.571910874511576e-09,4.996162459156675,1.571910874511576e-09,0.01880956409669068,1.571910874511576e-09,5
1.603152161756359e-09,4.997725280800998,1.603152161756359e-09,0.01111930270232128,1.603152161756359e-09,5
1.635334518682899e-09,4.99867947544486,1.635334518682899e-09,0.006416439050113699,1.635334518682899e-09,5
1.676086445347282e-09,4.99935992080069,1.676086445347282e-09,0.003084222188808354,1.676086445347282e-09,5
1.72782256705937e-09,4.99977948789044,1.72782256705937e-09,0.001049940016716357,1.72782256705937e-09,5
1.796076536589898e-09,4.999988689156548,1.796076536589898e-09,4.677095485064149e-05,1.796076536589898e-09,5
1.893653024563815e-09,5.000052324844504,1.893653024563815e-09,-0.0002537125421831739,1.893653024563815e-09,5
2.042906031892852e-09,5.000036456771195,2.042906031892852e-09,-0.0001779035197280304,2.042906031892852e-09,5
2.272125140357087e-09,5.000008607677136,2.272125140357087e-09,-4.260080573644377e-05,2.272125140357087e-09,5
2.522125140357087e-09,4.999999491747915,2.522125140357087e-09,2.307392872110715e-06,2.522125140357087e-09,5
2.772125140357087e-09,4.99999897149446,2.772125140357087e-09,4.939508446798398e-06,2.772125140357087e-09,5
3.022125140357087e-09,4.999999634853325,3.022125140357087e-09,1.680261234800614e-06,3.022125140357087e-09,5
3.272125140357087e-09,4.999999945382086,3.272125140357087e-09,1.743031733576535e-07,3.272125140357087e-09,5
3.522125140357088e-09,5.000000001213122,3.522125140357088e-09,-9.142495323455684e-08,3.522125140357088e-09,5
3.772125140357087e-09,4.999999992642943,3.772125140357087e-09,-4.850421371983631e-08,3.772125140357087e-09,5
4.022125140357087e-09,4.999999983959582,4.022125140357087e-09,-6.949104572557504e-09,4.022125140357087e-09,5
4.272125140357087e-09,4.999999981459521,4.272125140357087e-09,4.702904545977845e-09,4.272125140357087e-09,5
4.522125140357087e-09,4.999999981345693,4.522125140357087e-09,5.237939006720676e-09,4.522125140357087e-09,5
4.772125140357086e-09,4.999999981539456,4.772125140357086e-09,4.330326172045905e-09,4.772125140357086e-09,5
5.022125140357086e-09,4.99999998162316,5.022125140357086e-09,3.910778021878566e-09,5.022125140357086e-09,5
5.272125140357086e-09,4.999999981637497,5.272125140357086e-09,3.837310717852301e-09,5.272125140357086e-09,5
5.522125140357086e-09,4.999999981634976,5.522125140357086e-09,3.849370658495552e-09,5.522125140357086e-09,5
5.772125140357085e-09,4.999999981632595,5.772125140357085e-09,3.861022284972856e-09,5.772125140357085e-09,5
5.936062570178543e-09,4.999999981632032,5.936062570178543e-09,3.863772059658028e-09,5.936062570178543e-09,5
6.1e-09,4.999999981631916,6.1e-09,3.864324275717485e-09,6.1e-09,5
6.103125e-09,4.997583376520554,6.103125e-09,-0.01235053858505924,6.103125e-09,4.843749999999988
6.107189096019839e-09,4.994817485195703,6.107189096019839e-09,-0.02765779567658973,6.107189096019839e-09,4.640545199008056
6.115317288059516e-09,4.990229039957835,6.115317288059516e-09,-0.05770882508480489,6.115317288059516e-09,4.23413559702419
6.127434312129387e-09,4.986608113493379,6.127434312129387e-09,-0.09379784160338075,6.127434312129387e-09,3.628284393530639
6.139398815754035e-09,4.988936108039277,6.139398815754035e-09,-0.1017961435991761,6.139398815754035e-09,3.03005921229823
6.14915879390949e-09,4.994422301176721,6.14915879390949e-09,-0.08630344204851252,6.14915879390949e-09,2.542060304525493
6.168045213136426e-09,5.011817929474799,6.168045213136426e-09,0.00346571428311034,6.168045213136426e-09,1.597739343178697
6.184022606568213e-09,5.034043745980511,6.184022606568213e-09,0.1572864981557275,6.184022606568213e-09,0.7988696715893679
6.192011303284106e-09,5.050546654683993,6.192011303284106e-09,0.2794659145032977,6.192011303284106e-09,0.3994348357947031
6.2e-09,5.0686089379663,6.2e-09,0.4259214035298926,6.2e-09,0
6.201353354195274e-09,5.072640894669146,6.201353354195274e-09,0.457272348225003,6.201353354195274e-09,0
6.202525928040819e-09,5.076054663729225,6.202525928040819e-09,0.4844300868318489,6.202525928040819e-09,0
6.203989393100315e-09,5.080170001731215,6.203989393100315e-09,0.5182890637274177,6.203989393100315e-09,0
6.206916323219306e-09,5.087904847610091,6.206916323219306e-09,0.5858549359521809,6.206916323219306e-09,0
6.212770183457288e-09,5.10160918756799,6.212770183457288e-09,0.720251703420995,6.212770183457288e-09,0
6.224477903933252e-09,5.122596417580032,6.224477903933252e-09,0.973714192903639,6.224477903933252e-09,0
6.233743671443017e-09,5.129718565224546,6.233743671443017e-09,1.155335598367774,6.233743671443017e-09,0
6.245914487699953e-09,5.12143436073425,6.245914487699953e-09,1.384645655614402,6.245914487699953e-09,0
6.256118373769587e-09,5.099395014167015,6.256118373769587e-09,1.569315917210001,6.256118373769587e-09,0
6.276526145908856e-09,5.019427082731172,6.276526145908856e-09,1.918327515460883,6.276526145908856e-09,0
6.299168521832284e-09,4.88530079991958,6.299168521832284e-09,2.276920743268017,6.299168521832284e-09,0
6.320034058894919e-09,4.71412641203744,6.320034058894919e-09,2.576283370176467,6.320034058894919e-09,0
6.32787668077023e-09,4.635811722289168,6.32787668077023e-09,2.681057018608684,6.32787668077023e-09,0
6.343561924520852e-09,4.446239869678173,6.343561924520852e-09,2.880124824275726,6.343561924520852e-09,0
6.353686923730716e-09,4.287770327887261,6.353686923730716e-09,3.005754435789364,6.353686923730716e-09,0
6.363525846248542e-09,4.098503195440199,6.363525846248542e-09,3.123236149272734,6.363525846248542e-09,0
6.374958819639851e-09,3.836198888901021,6.374958819639851e-09,3.247696306992489,6.374958819639851e-09,0
6.388090028577295e-09,3.481437412499,6.388090028577295e-09,3.374107818539559,6.388090028577295e-09,0
6.407865502238808e-09,2.852863942671318,6.407865502238808e-09,3.534669499233605,6.407865502238808e-09,0
6.424362474707886e-09,2.257673369971205,6.424362474707886e-09,3.645041980651064,6.424362474707886e-09,0
6.438757603119697e-09,1.709021717681275,6.438757603119697e-09,3.727630170946954,6.438757603119697e-09,0
6.44579995486822e-09,1.447732662355429,6.44579995486822e-09,3.763834126303709,6.44579995486822e-09,0
6.453097927152179e-09,1.202362501532014,6.453097927152179e-09,3.797279627696913,6.453097927152179e-09,0
6.459510218282719e-09,1.013755868890415,6.459510218282719e-09,3.824851890887428,6.459510218282719e-09,0
6.467617501469132e-09,0.8115087751715734,6.467617501469132e-09,3.860828864065315,6.467617501469132e-09,0
6.478856276339256e-09,0.5914202615673263,6.478856276339256e-09,3.915799846754775,6.478856276339256e-09,0
6.490871535635078e-09,0.4199937177692281,6.490871535635078e-09,3.981155735811695,6.490871535635078e-09,0
6.501422153851515e-09,0.3120051681688008,6.501422153851515e-09,4.04253371561997,6.501422153851515e-09,0
6.511796857034203e-09,0.2346705029691398,6.511796857034203e-09,4.104552183988223,6.511796857034203e-09,0
6.52259186775737e-09,0.1762816714915492,6.52259186775737e-09,4.169107287392198,6.52259186775737e-09,0
6.534217781552106e-09,0.1314303455815924,6.534217781552106e-09,4.237534251332984,6.534217781552106e-09,0
6.547194650363432e-09,0.09672168951286475,6.547194650363432e-09,4.312910825571722,6.547194650363432e-09,0
6.561810643322183e-09,0.0703703838295917,6.561810643322183e-09,4.397705725282108,6.561810643322183e-09,0
6.578245684552724e-09,0.05109766717871568,6.578245684552724e-09,4.487603126496618,6.578245684552724e-09,0
6.597621226430225e-09,0.03692815537169886,6.597621226430225e-09,4.579737015263832,6.597621226430225e-09,0
6.619395048820365e-09,0.02710371097491582,6.619395048820365e-09,4.665323273284649,6.619395048820365e-09,0
6.637366069507602e-09,0.02176886286728349,6.637366069507602e-09,4.723215631160012,6.637366069507602e-09,0
6.669192753762023e-09,0.01513564022053616,6.669192753762023e-09,4.803292705090711,6.669192753762023e-09,0
6.691498595200837e-09,0.01188433913284506,6.691498595200837e-09,4.84535225778934,6.691498595200837e-09,0
6.726093480094512e-09,0.008163125378209554,6.726093480094512e-09,4.893977178028259,6.726093480094512e-09,0
6.755207369612155e-09,0.005939083161872681,6.755207369612155e-09,4.922980848489617,6.755207369612155e-09,0
