/net010 X,/net010 Y,/o1 X,/o1 Y,/net1 X,/net1 Y
0,4.999999990889179,0,1.704906616105221e-08,0,0
2.5e-11,4.999999990889179,2.5e-11,1.704906631200035e-08,2.5e-11,0
7.5e-11,4.999999990889179,7.5e-11,1.7049066364094e-08,7.5e-11,0
1.75e-10,4.999999990889179,1.75e-10,1.70490661160306e-08,1.75e-10,0
3.749999999999999e-10,4.999999990889179,3.749999999999999e-10,1.704906617342849e-08,3.749999999999999e-10,0
6.25e-10,4.999999990889179,6.25e-10,1.704906621510668e-08,6.25e-10,0
8.125e-10,4.999999990889179,8.125e-10,1.704906653747107e-08,8.125e-10,0
1e-09,4.999999990889179,1e-09,1.704906643206952e-08,1e-09,0
1.000038726150484e-09,5.000282713517401,1.000038726150484e-09,5.970473675779493e-05,1.000038726150484e-09,0.001936307524204584
1.000067793867445e-09,5.000494828507105,1.000067793867445e-09,0.0001044507332374206,1.000067793867445e-09,0.003389693372268936
1.000125929301368e-09,5.000918679058856,1.000125929301368e-09,0.0001937230291746509,1.000125929301368e-09,0.00629646506839764
1.000242200169213e-09,5.001764760071906,1.000242200169213e-09,0.0003713304188475487,1.000242200169213e-09,0.01211000846065505
1.000474741904903e-09,5.003450390932418,1.000474741904903e-09,0.0007227760286332718,1.000474741904903e-09,0.02373709524516987
1.000939825376284e-09,5.006795734288874,1.000939825376284e-09,0.001410782983813994,1.000939825376284e-09,0.0469912688141995
1.001869992319045e-09,5.013384852251058,1.001869992319045e-09,0.00272904043950789,1.001869992319045e-09,0.09349961595225878
1.003730326204568e-09,5.026173454540858,1.003730326204568e-09,0.005148298320350136,1.003730326204568e-09,0.1865163102283773
1.005771442087772e-09,5.039638167771776,1.005771442087772e-09,0.007494264693767269,1.005771442087772e-09,0.2885721043886049
1.007904795831955e-09,5.053118304161895,1.007904795831955e-09,0.009633119629334415,1.007904795831955e-09,0.3952397915977395
1.0101716914449e-09,5.066830120124553,1.0101716914449e-09,0.0115926373968337,1.0101716914449e-09,0.5085845722450064
1.012527564312661e-09,5.080533806352626,1.012527564312661e-09,0.0133396005521019,1.012527564312661e-09,0.6263782156330323
1.014780352607767e-09,5.09374839812506,1.014780352607767e-09,0.01488354429780902,1.014780352607767e-09,0.739017630388342
1.016366096376383e-09,5.103596058136357,1.016366096376383e-09,0.015999685917158,1.016366096376383e-09,0.8183048188191363
1.017755560973179e-09,5.112153659558567,1.017755560973179e-09,0.01690676388867446,1.017755560973179e-09,0.8877780486589315
1.019026040907207e-09,5.11959100409199,1.019026040907207e-09,0.01761325728377727,1.019026040907207e-09,0.9513020453603319
1.020285748588704e-09,5.126478882892791,1.020285748588704e-09,0.01817833304520547,1.020285748588704e-09,1.014287429435209
1.022119270809564e-09,5.135535513441075,1.022119270809564e-09,0.01875332675235434,1.022119270809564e-09,1.105963540478175
1.025663161514373e-09,5.149581663741446,1.025663161514373e-09,0.01907161312272449,1.025663161514373e-09,1.283158075718671
1.029171709731438e-09,5.158895782848369,1.029171709731438e-09,0.0184426345734474,1.029171709731438e-09,1.458585486571921
1.032113870400623e-09,5.163157727519177,1.032113870400623e-09,0.01726478234071216,1.032113870400623e-09,1.605693520031134
1.034974237790043e-09,5.164197225795295,1.034974237790043e-09,0.0156173777963897,1.034974237790043e-09,1.748711889502122
1.037811843772946e-09,5.162219392357999,1.037811843772946e-09,0.01355252067160914,1.037811843772946e-09,1.890592188647287
1.040680730360719e-09,5.157195163682966,1.040680730360719e-09,0.01108264356296908,1.040680730360719e-09,2.034036518035963
1.043650248748831e-09,5.148816029290095,1.043650248748831e-09,0.008172429411397487,1.043650248748831e-09,2.182512437441531
1.046752351160573e-09,5.136630467858598,1.046752351160573e-09,0.004797044577403858,1.046752351160573e-09,2.337617558028632
1.050023518749786e-09,5.119991210407511,1.050023518749786e-09,0.0009133832768540067,1.050023518749786e-09,2.501175937489308
1.053517311258688e-09,5.097922274844225,1.053517311258688e-09,-0.003725760585790424,1.053517311258688e-09,2.675865562934416
1.056206624370028e-09,5.077873579129116,1.056206624370028e-09,-0.007537174218511684,1.056206624370028e-09,2.810331218501392
1.058556587247035e-09,5.058136382028209,1.058556587247035e-09,-0.01100322747488919,1.058556587247035e-09,2.927829362351767
1.061531952045516e-09,5.030099182096185,1.061531952045516e-09,-0.01556771599361109,1.061531952045516e-09,3.076597602275811
1.067482681642478e-09,4.963968953208763,1.067482681642478e-09,-0.02516568791991294,1.067482681642478e-09,3.374134082123898
1.0717841369443e-09,4.906438912065583,1.0717841369443e-09,-0.03271588749630144,1.0717841369443e-09,3.589206847215003
1.074008749147005e-09,4.872361774540455,1.074008749147005e-09,-0.0370317347212406,1.074008749147005e-09,3.70043745735025
1.076127453519596e-09,4.835674538213505,1.076127453519596e-09,-0.04168382531755368,1.076127453519596e-09,3.806372675979792
1.077825203290373e-09,4.802160981848605,1.077825203290373e-09,-0.04600189403162617,1.077825203290373e-09,3.891260164518668
1.07929926224284e-09,4.770486837002317,1.07929926224284e-09,-0.05006597340051031,1.07929926224284e-09,3.964963112141999
1.080921320821383e-09,4.73344116634969,1.080921320821383e-09,-0.05473208244639694,1.080921320821383e-09,4.046066041069127
1.082492834840781e-09,4.695066270318989,1.082492834840781e-09,-0.05949477894624487,1.082492834840781e-09,4.124641742039054
1.084744624304849e-09,4.634948013042698,1.084744624304849e-09,-0.06688330768449183,1.084744624304849e-09,4.237231215242423
1.086882429682741e-09,4.57371025390231,1.086882429682741e-09,-0.07418487819667373,1.086882429682741e-09,4.344121484137058
1.088569102767089e-09,4.523241694616846,1.088569102767089e-09,-0.08000045259544908,1.088569102767089e-09,4.428455138354444
1.090525666923217e-09,4.462563010450587,1.090525666923217e-09,-0.08681627672099204,1.090525666923217e-09,4.526283346160827
1.092871295223434e-09,4.387660599497741,1.092871295223434e-09,-0.09525796307526892,1.092871295223434e-09,4.643564761171715
1.095272324254065e-09,4.311145122159868,1.095272324254065e-09,-0.1046588162743337,1.095272324254065e-09,4.76361621270325
1.097156710348816e-09,4.252023026154852,1.097156710348816e-09,-0.1125854790754115,1.097156710348816e-09,4.857835517440799
1.098787669381782e-09,4.200566634678904,1.098787669381782e-09,-0.1194955075376881,1.098787669381782e-09,4.939383469089118
1.1e-09,4.161734087506051,1.1e-09,-0.1245117250729863,1.1e-09,5
1.100527687167e-09,4.142153704540503,1.100527687167e-09,-0.1272845220085726,1.100527687167e-09,5
1.101024021950472e-09,4.12375084130406,1.101024021950472e-09,-0.1298335205086856,1.101024021950472e-09,5
1.101530138355255e-09,4.105000343066477,1.101530138355255e-09,-0.1323496199694421,1.101530138355255e-09,5
1.102542371164822e-09,4.067541687704093,1.102542371164822e-09,-0.1370961303820822,1.102542371164822e-09,5
1.104374819790745e-09,3.999856049283947,1.104374819790745e-09,-0.1446796332577589,1.104374819790745e-09,5
1.107472629839221e-09,3.88578930238535,1.107472629839221e-09,-0.1545067936109853,1.107472629839221e-09,5
1.113089652723178e-09,3.68022708843207,1.113089652723178e-09,-0.1628641278399572,1.113089652723178e-09,5
1.119788406074876e-09,3.43752857518412,1.119788406074876e-09,-0.1573757087273553,1.119788406074876e-09,5
1.125296736336884e-09,3.240246557645114,1.125296736336884e-09,-0.1405917528545688,1.125296736336884e-09,5
1.131114676704499e-09,3.034447499291945,1.131114676704499e-09,-0.1110548091905576,1.131114676704499e-09,5
1.138061617458015e-09,2.792884106262147,1.138061617458015e-09,-0.05987720602244548,1.138061617458015e-09,5
1.143902979664304e-09,2.594313967325975,1.143902979664304e-09,-0.002995787199782919,1.143902979664304e-09,5
1.146532416268967e-09,2.506666706653755,1.146532416268967e-09,0.02558833257105822,1.146532416268967e-09,5
1.148756039688044e-09,2.433620014750451,1.148756039688044e-09,0.05167961471904482,1.148756039688044e-09,5
1.151119202691124e-09,2.357275411875008,1.151119202691124e-09,0.08153548916762797,1.151119202691124e-09,5
1.153999117860091e-09,2.266304273424464,1.153999117860091e-09,0.1210307119784158,1.153999117860091e-09,5
1.157678888001409e-09,2.153735641706344,1.157678888001409e-09,0.1768183781239579,1.157678888001409e-09,5
1.161214457710618e-09,2.049615203186228,1.161214457710618e-09,0.2366051337186472,1.161214457710618e-09,5
1.164581161104412e-09,1.954059161207729,1.164581161104412e-09,0.3000378432482874,1.164581161104412e-09,5
1.167668120749755e-09,1.869192798338221,1.167668120749755e-09,0.3650474758057725,1.167668120749755e-09,5
1.170347089181e-09,1.797219941245244,1.170347089181e-09,0.4283232462001931,1.170347089181e-09,5
1.172681683343867e-09,1.735583355399474,1.172681683343867e-09,0.4897931686623788,1.172681683343867e-09,5
1.175055710880226e-09,1.674334162063873,1.175055710880226e-09,0.5584709367269958,1.175055710880226e-09,5
1.179803765952944e-09,1.557894547999429,1.179803765952944e-09,0.7129077192949804,1.179803765952944e-09,5
1.183861488171319e-09,1.465282091180353,1.183861488171319e-09,0.8612792901615105,1.183861488171319e-09,5
1.187908437513444e-09,1.37911781404011,1.187908437513444e-09,1.022926891221353,1.187908437513444e-09,5
1.192678889418579e-09,1.285090984533044,1.192678889418579e-09,1.228913783432244,1.192678889418579e-09,5
1.197599227652664e-09,1.196106803912617,1.197599227652664e-09,1.456282885272207,1.197599227652664e-09,5
1.202652333415498e-09,1.112505270612252,1.202652333415498e-09,1.702489633631803,1.202652333415498e-09,5
1.207902159291398e-09,1.033173676495862,1.207902159291398e-09,1.968334217384195,1.207902159291398e-09,5
1.213320212579694e-09,0.9581719862402845,1.213320212579694e-09,2.249333204719834,1.213320212579694e-09,5
1.218904712551101e-09,0.8863858977544586,1.218904712551101e-09,2.541252882847097,1.218904712551101e-09,5
1.224614355123243e-09,0.8175129131585687,1.224614355123243e-09,2.835294207237937,1.224614355123243e-09,5
1.22999634076646e-09,0.7580780453309193,1.22999634076646e-09,3.098870371038856,1.22999634076646e-09,5
1.234765059478668e-09,0.7120231004787786,1.234765059478668e-09,3.312987604342435,1.234765059478668e-09,5
1.23937285410995e-09,0.673194952373588,1.23937285410995e-09,3.499782657905357,1.23937285410995e-09,5
1.245863787302823e-09,0.6244685972328711,1.245863787302823e-09,3.731386998820945,1.245863787302823e-09,5
1.254658484690784e-09,0.5642271441247518,1.254658484690784e-09,3.993287251777797,1.254658484690784e-09,5
1.263136841183304e-09,0.509451749813324,1.263136841183304e-09,4.197170187508575,1.263136841183304e-09,5
1.271665504482075e-09,0.4566931069888047,1.271665504482075e-09,4.361762446295121,1.271665504482075e-09,5
1.28070032284127e-09,0.4035367898170731,1.28070032284127e-09,4.499727196775856,1.28070032284127e-09,5
1.290102526090521e-09,0.351791635974438,1.290102526090521e-09,4.611444878772572,1.290102526090521e-09,5
1.299954896916565e-09,0.3021030872600274,1.299954896916565e-09,4.701280573744099,1.299954896916565e-09,5
1.310470805944099e-09,0.2546315727122829,1.310470805944099e-09,4.773731928631653,1.310470805944099e-09,5
1.321860793119311e-09,0.2098121608908636,1.321860793119311e-09,4.831901849258411,1.321860793119311e-09,5
1.334367723457328e-09,0.1681775567442753,1.334367723457328e-09,4.878161745932079,1.334367723457328e-09,5
1.348277821452651e-09,0.1303239401456834,1.348277821452651e-09,4.914388401103664,1.348277821452651e-09,5
1.36393899973131e-09,0.09684853277683138,1.36393899973131e-09,4.942144164637986,1.36393899973131e-09,5
1.381798548931646e-09,0.06825542468128341,1.381798548931646e-09,4.962806132127447,1.381798548931646e-09,5
1.402455114888901e-09,0.04488004926982517,1.402455114888901e-09,4.977621985446463,1.402455114888901e-09,5
1.426739014915482e-09,0.02682455964469819,1.426739014915482e-09,4.987731985866731,1.426739014915482e-09,5
1.455843353359384e-09,0.01390601251200297,1.455843353359384e-09,4.994174228972492,1.455843353359384e-09,5
1.476779178601436e-09,0.008590997943420515,1.476779178601436e-09,4.99653021292712,1.476779178601436e-09,5
1.516098817956221e-09,0.003126173229542552,1.516098817956221e-09,4.998807461602227,1.516098817956221e-09,5
1.551229430830523e-09,0.001046180988767001,1.551229430830523e-09,4.999621651440812,1.551229430830523e-09,5
1.590625571095042e-09,0.0001549478801003126,1.590625571095042e-09,4.999954656033739,1.590625571095042e-09,5
1.647225058462901e-09,-0.0001863522327591415,1.647225058462901e-09,5.000077680639166,1.647225058462901e-09,5
1.734925693213445e-09,-0.0001810363039680763,1.734925693213445e-09,5.000071117180991,1.734925693213445e-09,5
1.87968539934831e-09,-6.212630751925271e-05,1.87968539934831e-09,5.000024052327297,1.87968539934831e-09,5
2.12968539934831e-09,4.18953780598289e-06,2.12968539934831e-09,4.999998220948452,2.12968539934831e-09,5
2.37968539934831e-09,5.947579775211837e-06,2.37968539934831e-09,4.999997580506038,2.37968539934831e-09,5
2.62968539934831e-09,1.504869598175109e-06,2.62968539934831e-09,4.999999363200216,2.62968539934831e-09,5
2.879685399348311e-09,1.210480081915699e-08,2.879685399348311e-09,4.999999977003732,2.879685399348311e-09,5
3.129685399348311e-09,-1.051108413060841e-07,3.129685399348311e-09,5.000000028394153,3.129685399348311e-09,5
3.379685399348311e-09,-2.652229272844225e-08,3.379685399348311e-09,4.999999996126521,3.379685399348311e-09,5
3.629685399348311e-09,5.858807217523554e-09,3.629685399348311e-09,4.999999982550409,3.629685399348311e-09,5
3.879685399348311e-09,9.730385763200778e-09,3.879685399348311e-09,4.99999998078633,3.879685399348311e-09,5
4.129685399348311e-09,8.488214056383322e-09,4.129685399348311e-09,4.999999981303624,4.129685399348311e-09,5
4.379685399348311e-09,7.7648223976979e-09,4.379685399348311e-09,4.99999998159505,4.379685399348311e-09,5
4.62968539934831e-09,7.639220283367157e-09,4.62968539934831e-09,4.999999981646081,4.62968539934831e-09,5
4.87968539934831e-09,7.656034931986784e-09,4.87968539934831e-09,4.999999981639223,4.87968539934831e-09,5
5.12968539934831e-09,7.670741173892322e-09,5.12968539934831e-09,4.999999981633112,5.12968539934831e-09,5
5.37968539934831e-09,7.673950579521742e-09,5.37968539934831e-09,4.999999981631754,5.37968539934831e-09,5
5.629685399348309e-09,7.67380961522928e-09,5.629685399348309e-09,4.999999981631809,5.629685399348309e-09,5
5.879685399348309e-09,7.673520868492481e-09,5.879685399348309e-09,4.999999981631931,5.879685399348309e-09,5
6.1e-09,7.673446997303471e-09,6.1e-09,4.999999981631963,6.1e-09,5
6.103125e-09,-0.01831911999801871,6.103125e-09,4.996415246853575,6.103125e-09,4.843749999999988
6.107189096019839e-09,-0.04065960414028131,6.107189096019839e-09,4.992384222451136,6.107189096019839e-09,4.640545199008056
6.115317288059516e-09,-0.08364291933348378,6.115317288059516e-09,4.985862239135691,6.115317288059516e-09,4.23413559702419
6.125567821171415e-09,-0.1286554637616546,6.125567821171415e-09,4.981191988949828,6.125567821171415e-09,3.721608941429256
6.136762138708014e-09,-0.1389278811651935,6.136762138708014e-09,4.984372652176081,6.136762138708014e-09,3.16189306459928
6.144614418730331e-09,-0.120418073537425,6.144614418730331e-09,4.990978319983675,6.144614418730331e-09,2.769279063483436
6.160318978774965e-09,-0.01606792752609609,6.160318978774965e-09,5.012475524951127,6.160318978774965e-09,1.984051061251749
6.16994067586435e-09,0.09517842587222873,6.16994067586435e-09,5.030508375578008,6.16994067586435e-09,1.502966206782518
6.17719670779544e-09,0.2131440841425681,6.17719670779544e-09,5.047829521435747,6.17719670779544e-09,1.140164610228014
6.185591393634583e-09,0.4092765180508554,6.185591393634583e-09,5.075444465374383,6.185591393634583e-09,0.720430318270834
6.192083501590812e-09,0.6019417260476989,6.192083501590812e-09,5.100991948752383,6.192083501590812e-09,0.3958249204594173
6.2e-09,0.8699335909748084,6.2e-09,5.133968503601285,6.2e-09,0
6.201206965137834e-09,0.918720103840086,6.201206965137834e-09,5.140893044652169,6.201206965137834e-09,0
6.202297103147025e-09,0.9617883534798467,6.202297103147025e-09,5.147111643305861,6.202297103147025e-09,0
6.203745687617734e-09,1.018082969086447,6.203745687617734e-09,5.154993590017582,6.203745687617734e-09,0
6.206642856559152e-09,1.128981726287961,6.206642856559152e-09,5.168665870149016,6.206642856559152e-09,0
6.21139405337673e-09,1.307428135735403,6.21139405337673e-09,5.184112270155051,6.21139405337673e-09,0
6.219331248078988e-09,1.596022775641797,6.219331248078988e-09,5.190617683150339,6.219331248078988e-09,0
6.235205637483504e-09,2.13318493092083,6.235205637483504e-09,5.138509995176675,6.235205637483504e-09,0
6.250403248459365e-09,2.589059086588829,6.250403248459365e-09,5.015511290502322,6.250403248459365e-09,0
6.266029199355618e-09,2.993254984991757,6.266029199355618e-09,4.823305785863707,6.266029199355618e-09,0
6.275732292210759e-09,3.211667949187327,6.275732292210759e-09,4.659109301463889,6.275732292210759e-09,0
6.286372800425943e-09,3.434519192628702,6.286372800425943e-09,4.407969703299131,6.286372800425943e-09,0
6.294092446991445e-09,3.580749012793357,6.294092446991445e-09,4.176362199849819,6.294092446991445e-09,0
6.305029075479448e-09,3.760119616370124,6.305029075479448e-09,3.788007451213208,6.305029075479448e-09,0
6.315498423287143e-09,3.904227410254883,6.315498423287143e-09,3.356869675567709,6.315498423287143e-09,0
6.327386569332422e-09,4.040001344141497,6.327386569332422e-09,2.80942422927982,6.327386569332422e-09,0
6.338407884025067e-09,4.144183788685612,6.338407884025067e-09,2.261601737836809,6.338407884025067e-09,0
6.348356499462834e-09,4.224570699216188,6.348356499462834e-09,1.76217223007848,6.348356499462834e-09,0
6.355779478626311e-09,4.275595908777517,6.355779478626311e-09,1.423472020684845,6.355779478626311e-09,0
6.361103500693439e-09,4.308050332012387,6.361103500693439e-09,1.209396790000582,6.361103500693439e-09,0
6.367036415035274e-09,4.342961894027657,6.367036415035274e-09,1.000942773683564,6.367036415035274e-09,0
6.37642274206559e-09,4.398893296727743,6.37642274206559e-09,0.732825325010093,6.37642274206559e-09,0
6.388805882931579e-09,4.474795793627679,6.388805882931579e-09,0.4770246539422789,6.388805882931579e-09,0
6.398301255927408e-09,4.533109802822452,6.398301255927408e-09,0.3414993888629495,6.398301255927408e-09,0
6.407085188685774e-09,4.585359624898715,6.407085188685774e-09,0.251458987590818,6.407085188685774e-09,0
6.416099284231155e-09,4.63585032842151,6.416099284231155e-09,0.1848664548190944,6.416099284231155e-09,0
6.425509530018197e-09,4.684223101607237,6.425509530018197e-09,0.1353311400289172,6.425509530018197e-09,0
6.435792437000444e-09,4.731491330405032,6.435792437000444e-09,0.09744136401631295,6.435792437000444e-09,0
6.447302592420915e-09,4.777438676098253,6.447302592420915e-09,0.06857021474428278,6.447302592420915e-09,0
6.460392937110662e-09,4.821319187874058,6.460392937110662e-09,0.04697137235391972,6.460392937110662e-09,0
6.475530837649567e-09,4.862281668013487,6.475530837649567e-09,0.0311680409318161,6.475530837649567e-09,0
6.493356598754385e-09,4.899392983695115,6.493356598754385e-09,0.01988788722964726,6.493356598754385e-09,0
6.514812240979567e-09,4.93173360759983,6.514812240979567e-09,0.01203277317724216,6.514812240979567e-09,0
6.532492441865263e-09,4.950589678180244,6.532492441865263e-09,0.008282555935455137,6.532492441865263e-09,0
6.562551147690023e-09,4.972042940484142,6.562551147690023e-09,0.004478024487756091,6.562551147690023e-09,0
6.58480162062005e-09,4.981785223301474,6.58480162062005e-09,0.00290581318834886,6.58480162062005e-09,0
6.621625076414066e-09,4.991403818251445,6.621625076414066e-09,0.001387810659835986,6.621625076414066e-09,0
6.655379410114621e-09,4.995899514018128,6.655379410114621e-09,0.0006756322656822516,6.655379410114621e-09,0
6.692544716835727e-09,4.998319808656908,6.692544716835727e-09,0.0002841011933218831,6.692544716835727e-09,0
6.742346220902682e-09,4.999678691656548,6.742346220902682e-09,5.801458824451116e-05,6.742346220902682e-09,0
6.811618694153127e-09,5.000211573683473,6.811618694153127e-09,-3.37230807476328e-05,6.811618694153127e-09,0
