/net03 X,/net03 Y,/o X,/o Y,/net1 X,/net1 Y
0,4.999999981631962,0,1.704906655848801e-08,0,0
2.5e-11,4.999999981631962,2.5e-11,1.704906651864507e-08,2.5e-11,0
7.5e-11,4.999999981631962,7.5e-11,1.704906638372566e-08,7.5e-11,0
1.75e-10,4.999999981631962,1.75e-10,1.704906627407894e-08,1.75e-10,0
3.749999999999999e-10,4.999999981631962,3.749999999999999e-10,1.704906660907924e-08,3.749999999999999e-10,0
6.25e-10,4.999999981631962,6.25e-10,1.704906684442001e-08,6.25e-10,0
8.125e-10,4.999999981631962,8.125e-10,1.704906650358407e-08,8.125e-10,0
1e-09,4.999999981631962,1e-09,1.704906646000565e-08,1e-09,0
1.000038726150484e-09,5.000307392777836,1.000038726150484e-09,6.491697275933462e-05,1.000038726150484e-09,0.001936307524204584
1.000067793867445e-09,5.000538021457677,1.000067793867445e-09,0.0001135685804261298,1.000067793867445e-09,0.003389693372268936
1.000125929301368e-09,5.000998822272644,1.000125929301368e-09,0.0002106238287653245,1.000125929301368e-09,0.00629646506839764
1.000242200169213e-09,5.001918471221404,1.000242200169213e-09,0.000403675833340284,1.000242200169213e-09,0.01211000846065505
1.000474741904903e-09,5.003749897165161,1.000474741904903e-09,0.0007855232908294555,1.000474741904903e-09,0.02373709524516987
1.000939825376284e-09,5.007381529491147,1.000939825376284e-09,0.00153241696669744,1.000939825376284e-09,0.0469912688141995
1.001869992319045e-09,5.014522619839692,1.001869992319045e-09,0.002961072610405492,1.001869992319045e-09,0.09349961595225878
1.003691138565883e-09,5.028052512696376,1.003691138565883e-09,0.005521942533307544,1.003691138565883e-09,0.1845569282941284
1.005646003243173e-09,5.041946419290643,1.005646003243173e-09,0.007948756319608679,1.005646003243173e-09,0.2823001621586594
1.007689216015017e-09,5.055817408317205,1.007689216015017e-09,0.01016153937371349,1.007689216015017e-09,0.3844608007508661
1.009862451356061e-09,5.069894688878367,1.009862451356061e-09,0.01218972899889667,1.009862451356061e-09,0.4931225678030622
1.012136938198471e-09,5.083941257326988,1.012136938198471e-09,0.01399370229522503,1.012136938198471e-09,0.6068469099235643
1.014525914717883e-09,5.098025709583162,1.014525914717883e-09,0.0155844983196601,1.014525914717883e-09,0.7262957358941433
1.016968229009347e-09,5.112105754936718,1.016968229009347e-09,0.01699495728797768,1.016968229009347e-09,0.8484114504673582
1.018916738680412e-09,5.123989310798751,1.018916738680412e-09,0.01815422623660816,1.018916738680412e-09,0.9458369340205861
1.020293525953173e-09,5.132582374909354,1.020293525953173e-09,0.01896038039108989,1.020293525953173e-09,1.014676297658653
1.021569573476691e-09,5.140253043281768,1.021569573476691e-09,0.01960835267002466,1.021569573476691e-09,1.078478673834524
1.022762658391941e-09,5.147012050732254,1.022762658391941e-09,0.02009917643207234,1.022762658391941e-09,1.138132919597026
1.024341954496874e-09,5.155242793803865,1.024341954496874e-09,0.02056620489337568,1.024341954496874e-09,1.217097724843704
1.026965401981537e-09,5.166976563618498,1.026965401981537e-09,0.02088978497834801,1.026965401981537e-09,1.348270099076837
1.030161301492181e-09,5.177893235825858,1.030161301492181e-09,0.02057067360101705,1.030161301492181e-09,1.508065074609056
1.033347405247787e-09,5.185033583670887,1.033347405247787e-09,0.01954461418047591,1.033347405247787e-09,1.667370262389346
1.03634469124112e-09,5.188327880533365,1.03634469124112e-09,0.01800382831325335,1.03634469124112e-09,1.817234562055995
1.039292394465651e-09,5.188339284767908,1.039292394465651e-09,0.01600890819907768,1.039292394465651e-09,1.964619723282562
1.042256350495146e-09,5.185140780453044,1.042256350495146e-09,0.01358276849822652,1.042256350495146e-09,2.112817524757283
1.045291025987133e-09,5.178551819087886,1.045291025987133e-09,0.01071754631444353,1.045291025987133e-09,2.264551299356671
1.048450021677982e-09,5.168147448598845,1.048450021677982e-09,0.007377665734247823,1.048450021677982e-09,2.422501083899102
1.051780226502185e-09,5.153266170639098,1.051780226502185e-09,0.003511639174646189,1.051780226502185e-09,2.589011325109223
1.055343230346571e-09,5.13287284415369,1.055343230346571e-09,-0.00101707569335421,1.055343230346571e-09,2.767161517328558
1.062469238035345e-09,5.077811317895085,1.062469238035345e-09,-0.01135534674022851,1.062469238035345e-09,3.123461901767226
1.065436448002014e-09,5.049031910289153,1.065436448002014e-09,-0.01602509629309585,1.065436448002014e-09,3.271822400100686
1.068075465539316e-09,5.020352722721132,1.068075465539316e-09,-0.02036987377037618,1.068075465539316e-09,3.403773276965819
1.073353500613922e-09,4.954297303438959,1.073353500613922e-09,-0.02950737856006281,1.073353500613922e-09,3.667675030696085
1.074969822607911e-09,4.931109866651025,1.074969822607911e-09,-0.0325504537308743,1.074969822607911e-09,3.748491130395522
1.076766311496631e-09,4.902735238990755,1.076766311496631e-09,-0.03625684367910456,1.076766311496631e-09,3.838315574831537
1.078441297674546e-09,4.872407675197669,1.078441297674546e-09,-0.04029368921092627,1.078441297674546e-09,3.922064883727305
1.079657522835067e-09,4.847735600784582,1.079657522835067e-09,-0.04362256484604767,1.079657522835067e-09,3.982876141753354
1.081424352603332e-09,4.808766278296327,1.081424352603332e-09,-0.04883581758073357,1.081424352603332e-09,4.071217630166612
1.082813941759657e-09,4.77528912935372,1.082813941759657e-09,-0.05327877720067376,1.082813941759657e-09,4.140697087982839
1.085149188679643e-09,4.713774691213235,1.085149188679643e-09,-0.06129614120659728,1.085149188679643e-09,4.257459433982124
1.08669870470255e-09,4.670375482954603,1.08669870470255e-09,-0.06675727630969733,1.08669870470255e-09,4.334935235127501
1.088104822468094e-09,4.629479722833036,1.088104822468094e-09,-0.07174996114241859,1.088104822468094e-09,4.405241123404692
1.090235621928425e-09,4.564816622268906,1.090235621928425e-09,-0.07937662124399936,1.090235621928425e-09,4.511781096421229
1.094497220849086e-09,4.426056222610135,1.094497220849086e-09,-0.09505076235178177,1.094497220849086e-09,4.724861042454303
1.096287099827722e-09,4.364892090147459,1.096287099827722e-09,-0.102206007888851,1.096287099827722e-09,4.814354991386081
1.097995363285242e-09,4.306153887754782,1.097995363285242e-09,-0.1098356648012845,1.097995363285242e-09,4.899768164262079
1.098997681642621e-09,4.271635627828381,1.098997681642621e-09,-0.1146742380260928,1.098997681642621e-09,4.949884082131041
1.1e-09,4.236897711428846,1.1e-09,-0.1196513952181425,1.1e-09,5
1.100482637845335e-09,4.217413363608652,1.100482637845335e-09,-0.1227452806521079,1.100482637845335e-09,5
1.100916094929065e-09,4.199947303171036,1.100916094929065e-09,-0.1255000967234538,1.100916094929065e-09,5
1.10134999696652e-09,4.182484709801297,1.10134999696652e-09,-0.1282112097298971,1.10134999696652e-09,5
1.10221780104143e-09,4.147595734603646,1.10221780104143e-09,-0.1334499323461826,1.10221780104143e-09,5
1.103649272499922e-09,4.09007832228185,1.103649272499922e-09,-0.1414774109656579,1.103649272499922e-09,5
1.105592587486281e-09,4.011982760231848,1.105592587486281e-09,-0.151048685612207,1.105592587486281e-09,5
1.108171790272286e-09,3.908295856941034,1.108171790272286e-09,-0.1613067582416288,1.108171790272286e-09,5
1.111958645301239e-09,3.756073181324917,1.111958645301239e-09,-0.1712738061911688,1.111958645301239e-09,5
1.119094488633998e-09,3.469783862608176,1.119094488633998e-09,-0.1737733366577783,1.119094488633998e-09,5
1.126819734839581e-09,3.161607183338204,1.126819734839581e-09,-0.1529578766751251,1.126819734839581e-09,5
1.133544981325251e-09,2.895771261726781,1.133544981325251e-09,-0.1149381964772045,1.133544981325251e-09,5
1.139917094123447e-09,2.647089368479644,1.139917094123447e-09,-0.06128219242971693,1.139917094123447e-09,5
1.145724132063092e-09,2.424673381848981,1.145724132063092e-09,0.003345971884306143,1.145724132063092e-09,5
1.148403096245556e-09,2.323989994315477,1.148403096245556e-09,0.03695255699335348,1.148403096245556e-09,5
1.150601824329955e-09,2.24262052592804,1.150601824329955e-09,0.06711400962365136,1.150601824329955e-09,5
1.152621426250231e-09,2.169138972380606,1.152621426250231e-09,0.09699981511603804,1.152621426250231e-09,5
1.155611390679723e-09,2.063033613978547,1.155611390679723e-09,0.1454061733169474,1.155611390679723e-09,5
1.158533102865554e-09,1.962792163526303,1.158533102865554e-09,0.1979891259474509,1.158533102865554e-09,5
1.161247414233614e-09,1.872835533131679,1.161247414233614e-09,0.2521789176511791,1.161247414233614e-09,5
1.163832517337284e-09,1.789898548744372,1.163832517337284e-09,0.3095434050366229,1.163832517337284e-09,5
1.166145960763413e-09,1.71768260508296,1.166145960763413e-09,0.3669342733080035,1.166145960763413e-09,5
1.168157409081813e-09,1.656244794928128,1.168157409081813e-09,0.4226030453632294,1.168157409081813e-09,5
1.170105695761132e-09,1.598077806745064,1.170105695761132e-09,0.4818784683838969,1.170105695761132e-09,5
1.173337363406829e-09,1.505302500592612,1.173337363406829e-09,0.5906412432677636,1.173337363406829e-09,5
1.176310293750475e-09,1.424404692031566,1.176310293750475e-09,0.7009955105140653,1.176310293750475e-09,5
1.179387662720078e-09,1.345155761748553,1.179387662720078e-09,0.8248034156237504,1.179387662720078e-09,5
1.183333872269627e-09,1.250003091375882,1.183333872269627e-09,0.9964640257719715,1.183333872269627e-09,5
1.187626747168541e-09,1.154363681999966,1.187626747168541e-09,1.197667825302742,1.187626747168541e-09,5
1.192050501044678e-09,1.063860190221164,1.192050501044678e-09,1.418280277779384,1.192050501044678e-09,5
1.196651060512909e-09,0.9776225888316242,1.196651060512909e-09,1.659119612500225,1.196651060512909e-09,5
1.201470707441818e-09,0.8944800626679181,1.201470707441818e-09,1.920975915503007,1.201470707441818e-09,5
1.206729214457287e-09,0.8106885837804082,1.206729214457287e-09,2.214023692567817,1.206729214457287e-09,5
1.212192841342958e-09,0.7317673812663822,1.212192841342958e-09,2.51994561909021,1.212192841342958e-09,5
1.217132853812795e-09,0.6677299722448791,1.217132853812795e-09,2.790710412893798,1.217132853812795e-09,5
1.221825847186384e-09,0.6133862368722534,1.221825847186384e-09,3.034916731043408,1.221825847186384e-09,5
1.226275462906132e-09,0.5682288171353711,1.226275462906132e-09,3.247561602955793,1.226275462906132e-09,5
1.230702505360098e-09,0.5288126898752655,1.230702505360098e-09,3.438811297460813,1.230702505360098e-09,5
1.237434611005272e-09,0.4762106602065864,1.237434611005272e-09,3.693731363772678,1.237434611005272e-09,5
1.245931719789828e-09,0.418037867537241,1.245931719789828e-09,3.961473255216266,1.245931719789828e-09,5
1.253831726893251e-09,0.369658871922556,1.253831726893251e-09,4.163939821532468,1.253831726893251e-09,5
1.261991710979234e-09,0.3242429661139319,1.261991710979234e-09,4.333304057580548,1.261991710979234e-09,5
1.270755585109716e-09,0.2800798550027387,1.270755585109716e-09,4.477972206108001,1.270755585109716e-09,5
1.279861165009475e-09,0.2390158056318983,1.279861165009475e-09,4.595329838833315,1.279861165009475e-09,5
1.289385374958913e-09,0.2011393340523362,1.289385374958913e-09,4.68982976069126,1.289385374958913e-09,5
1.299527513311886e-09,0.1662333190521869,1.299527513311886e-09,4.766082261145789,1.299527513311886e-09,5
1.310479382194214e-09,0.1343523648251269,1.310479382194214e-09,4.82726166489806,1.310479382194214e-09,5
1.322466607657005e-09,0.1056299799059888,1.322466607657005e-09,4.875833358948724,1.322466607657005e-09,5
1.335751062369164e-09,0.08026115879131179,1.335751062369164e-09,4.913740793625395,1.335751062369164e-09,5
1.350646284980947e-09,0.05844563384723143,1.350646284980947e-09,4.942606599207283,1.350646284980947e-09,5
1.367551397168319e-09,0.04031825160487791,1.367551397168319e-09,4.963879053644863,1.367551397168319e-09,5
1.386997346013589e-09,0.02590214147370111,1.386997346013589e-09,4.978895338270099,1.386997346013589e-09,5
1.409720196034102e-09,0.0150755827219903,1.409720196034102e-09,4.988904535173538,1.409720196034102e-09,5
1.43678361499788e-09,0.007553341483921908,1.43678361499788e-09,4.995066099954554,1.43678361499788e-09,5
1.458077160645585e-09,0.00429847485122579,1.458077160645585e-09,4.997396601871521,1.458077160645585e-09,5
1.496953736489962e-09,0.001268574131671123,1.496953736489962e-09,4.999368701125212,1.496953736489962e-09,5
1.53428309848324e-09,0.0001914004608593975,1.53428309848324e-09,4.999980600250871,1.53428309848324e-09,5
1.578858977032917e-09,-0.0001616551172444736,1.578858977032917e-09,5.000139078405486,1.578858977032917e-09,5
1.647076513116954e-09,-0.000183960615485426,1.647076513116954e-09,5.000113584423645,1.647076513116954e-09,5
1.766881782317212e-09,-7.237205052400861e-05,1.766881782317212e-09,5.000037157491129,1.766881782317212e-09,5
1.972689868707026e-09,8.357164323399141e-07,1.972689868707026e-09,4.999997238365308,1.972689868707026e-09,5
2.222689868707026e-09,6.825526375306667e-06,2.222689868707026e-09,4.999995750921361,2.222689868707026e-09,5
2.472689868707027e-09,1.851366001091311e-06,2.472689868707027e-09,4.999998939990237,2.472689868707027e-09,5
2.722689868707027e-09,5.100669555061997e-08,2.722689868707027e-09,4.999999979969342,2.722689868707027e-09,5
2.972689868707027e-09,-1.013267233974633e-07,2.972689868707027e-09,5.000000054892875,2.972689868707027e-09,5
3.222689868707027e-09,-1.753478068250252e-08,3.222689868707027e-09,5.000000002147395,3.222689868707027e-09,5
3.472689868707027e-09,1.565513737498346e-08,3.472689868707027e-09,4.999999982432351,3.472689868707027e-09,5
3.722689868707028e-09,1.915006619512777e-08,3.722689868707028e-09,4.999999980409496,3.722689868707028e-09,5
3.972689868707028e-09,1.783788226524855e-08,3.972689868707028e-09,4.99999998122864,3.972689868707028e-09,5
4.222689868707027e-09,1.71204810651756e-08,4.222689868707027e-09,4.999999981600353,4.222689868707027e-09,5
4.472689868707027e-09,1.701424273081619e-08,4.472689868707027e-09,4.999999981652027,4.472689868707027e-09,5
4.722689868707027e-09,1.703451604072327e-08,4.722689868707027e-09,4.99999998164014,4.722689868707027e-09,5
4.972689868707027e-09,1.704745032439174e-08,4.972689868707027e-09,4.999999981632882,4.972689868707027e-09,5
5.222689868707026e-09,1.70496264381166e-08,5.222689868707026e-09,4.999999981631637,5.222689868707026e-09,5
5.472689868707026e-09,1.704933443962504e-08,5.472689868707026e-09,4.999999981631802,5.472689868707026e-09,5
5.722689868707026e-09,1.704910217151597e-08,5.722689868707026e-09,4.99999998163194,5.722689868707026e-09,5
5.911344934353513e-09,1.704906226322313e-08,5.911344934353513e-09,4.999999981631964,5.911344934353513e-09,5
6.1e-09,1.704906126508539e-08,6.1e-09,4.999999981631965,6.1e-09,5
6.103125e-09,-0.02033182700010089,6.103125e-09,4.996021297642149,6.103125e-09,4.843749999999988
6.107189096019839e-09,-0.04495491733202925,6.107189096019839e-09,4.991581258928302,6.107189096019839e-09,4.640545199008056
6.115317288059516e-09,-0.09129018545367751,6.115317288059516e-09,4.984592607217246,6.115317288059516e-09,4.23413559702419
6.125664135048841e-09,-0.1407915572117975,6.125664135048841e-09,4.97946997516813,6.125664135048841e-09,3.716793247557935
6.13288081994473e-09,-0.1533858925767198,6.13288081994473e-09,4.980878618344718,6.13288081994473e-09,3.35595900276349
6.139612059783146e-09,-0.1472936197813447,6.139612059783146e-09,4.985457289079765,6.139612059783146e-09,3.019397010842719
6.153074539459976e-09,-0.08017916553838991,6.153074539459976e-09,5.002050057209132,6.153074539459976e-09,2.346273027001178
6.170630004716042e-09,0.1361232173577221,6.170630004716042e-09,5.038239350445569,6.170630004716042e-09,1.468499764197909
6.176969056341132e-09,0.270671431790127,6.176969056341132e-09,5.058380101775352,6.176969056341132e-09,1.151547182943383
6.183348190237221e-09,0.4488135366421868,6.183348190237221e-09,5.083977776093126,6.183348190237221e-09,0.8325904881389681
6.190403353694034e-09,0.6928062866381454,6.190403353694034e-09,5.116949247989421,6.190403353694034e-09,0.4798323152983111
6.195201676847017e-09,0.8787931402665585,6.195201676847017e-09,5.141045880801965,6.195201676847017e-09,0.2399161576491542
6.2e-09,1.072074228106674,6.2e-09,5.167143067095447,6.2e-09,0
6.200998212012676e-09,1.120039058953185,6.200998212012676e-09,5.173850978746246,6.200998212012676e-09,0
6.201897371216722e-09,1.163127629258536,6.201897371216722e-09,5.179607322007504,6.201897371216722e-09,0
6.202978672553825e-09,1.214743343525732,6.202978672553825e-09,5.186017569299562,6.202978672553825e-09,0
6.20514127522803e-09,1.317229703843104,6.20514127522803e-09,5.196978982817987,6.20514127522803e-09,0
6.20946648057644e-09,1.518960808319447,6.20946648057644e-09,5.211393592310808,6.20946648057644e-09,0
6.218116891273259e-09,1.907622019523951,6.218116891273259e-09,5.211599044882479,6.218116891273259e-09,0
6.231126686789622e-09,2.445370308566313,6.231126686789622e-09,5.146547549095657,6.231126686789622e-09,0
6.242896031890256e-09,2.870056540989564,6.242896031890256e-09,5.024031635234052,6.242896031890256e-09,0
6.253623400116894e-09,3.201653070543419,6.253623400116894e-09,4.864657910621178,6.253623400116894e-09,0
6.261162486997802e-09,3.405916308599382,6.261162486997802e-09,4.716191180741333,6.261162486997802e-09,0
6.269877506455855e-09,3.621614592517792,6.269877506455855e-09,4.477582143959252,6.269877506455855e-09,0
6.276168682807308e-09,3.760111356160394,6.276168682807308e-09,4.265103263822064,6.276168682807308e-09,0
6.285151332927384e-09,3.931841272632179,6.285151332927384e-09,3.913772521632057,6.285151332927384e-09,0
6.29385402166625e-09,4.072517491935063,6.29385402166625e-09,3.525722844014769,6.29385402166625e-09,0
6.304058664927759e-09,4.212227803769607,6.304058664927759e-09,3.019773350919363,6.304058664927759e-09,0
6.314620546867846e-09,4.332778502405615,6.314620546867846e-09,2.451245179212608,6.314620546867846e-09,0
6.324289323352972e-09,4.42233988064411,6.324289323352972e-09,1.919136633482663,6.324289323352972e-09,0
6.331399110016206e-09,4.476029515134442,6.331399110016206e-09,1.558619168094288,6.331399110016206e-09,0
6.336474359978052e-09,4.5087183828146,6.336474359978052e-09,1.330420434789682,6.336474359978052e-09,0
6.34181910076872e-09,4.540234958828599,6.34181910076872e-09,1.11827365379113,6.34181910076872e-09,0
6.351192513139291e-09,4.591958009749992,6.351192513139291e-09,0.8132919705368954,6.351192513139291e-09,0
6.363120653002266e-09,4.653758583205716,6.363120653002266e-09,0.5309810043227526,6.363120653002266e-09,0
6.372268511921773e-09,4.698201777484431,6.372268511921773e-09,0.3796224698872438,6.372268511921773e-09,0
6.380718886136622e-09,4.736436067569393,6.380718886136622e-09,0.2782657971577298,6.380718886136622e-09,0
6.389339197902738e-09,4.77213830112028,6.389339197902738e-09,0.2031486683990744,6.389339197902738e-09,0
6.398275018329889e-09,4.805338721311828,6.398275018329889e-09,0.1472411637118222,6.398275018329889e-09,0
6.407960251390472e-09,4.83690330074218,6.407960251390472e-09,0.1045234316098713,6.407960251390472e-09,0
6.418711360506844e-09,4.866813353177527,6.418711360506844e-09,0.07205531207870113,6.418711360506844e-09,0
6.430831734946907e-09,4.894687303188247,6.430831734946907e-09,0.04791077927397436,6.430831734946907e-09,0
6.444713258612061e-09,4.920083858760343,6.444713258612061e-09,0.03047529333400863,6.444713258612061e-09,0
6.460879213738899e-09,4.942530906397562,6.460879213738899e-09,0.01834792557068953,6.460879213738899e-09,0
6.480084266683688e-09,4.961599106307292,6.480084266683688e-09,0.01028458246455722,6.480084266683688e-09,0
6.503463671057752e-09,4.976941367641115,6.503463671057752e-09,0.005208510353920039,6.503463671057752e-09,0
6.532796135207482e-09,4.988346561372257,6.532796135207482e-09,0.002227781505749445,6.532796135207482e-09,0
6.554970136954501e-09,4.993138430107199,6.554970136954501e-09,0.001249321520694369,6.554970136954501e-09,0
6.595556987679032e-09,4.997737718170161,6.595556987679032e-09,0.0003995322461187696,6.595556987679032e-09,0
6.634665990385548e-09,4.999479338985552,6.634665990385548e-09,9.308296977848969e-05,6.634665990385548e-09,0
