/net03 X,/net03 Y,/net1 X,/net1 Y,/o X,/o Y
0,4.999999990889179,0,0,0,1.704906616105221e-08
2.5e-11,4.999999990889179,2.5e-11,0,2.5e-11,1.70490663135867e-08
7.5e-11,4.999999990889179,7.5e-11,0,7.5e-11,1.704906636439553e-08
1.75e-10,4.999999990889179,1.75e-10,0,1.75e-10,1.70490660930233e-08
3.749999999999999e-10,4.999999990889179,3.749999999999999e-10,0,3.749999999999999e-10,1.704906639114063e-08
6.25e-10,4.999999990889179,6.25e-10,0,6.25e-10,1.704906650024955e-08
8.125e-10,4.999999990889179,8.125e-10,0,8.125e-10,1.704906626377315e-08
1e-09,4.999999990889179,1e-09,0,1e-09,1.704906649193993e-08
1.000038726150484e-09,5.000369991606702,1.000038726150484e-09,0.001936307524204584,1.000038726150484e-09,7.813091627547216e-05
1.000067793867445e-09,5.000647559156892,1.000067793867445e-09,0.003389693372268936,1.000067793867445e-09,0.0001366847432538995
1.000125929301368e-09,5.001202070185633,1.000125929301368e-09,0.00629646506839764,1.000125929301368e-09,0.0002534788073374696
1.000242200169213e-09,5.002308420950827,1.000242200169213e-09,0.01211000846065505,1.000242200169213e-09,0.00048572772191871
1.000474741904903e-09,5.004510355989023,1.000474741904903e-09,0.02373709524516987,1.000474741904903e-09,0.000944841079746522
1.000939825376284e-09,5.008871560345638,1.000939825376284e-09,0.0469912688141995,1.000939825376284e-09,0.001841826331824636
1.001869992319045e-09,5.01742727046254,1.001869992319045e-09,0.09349961595225878,1.001869992319045e-09,0.003553547856540348
1.003559172879504e-09,5.032420761030769,1.003559172879504e-09,0.1779586439751779,1.003559172879504e-09,0.00639821634187059
1.005372925502453e-09,5.047781473227351,1.005372925502453e-09,0.2686462751226568,1.005372925502453e-09,0.009101491670353871
1.00727786969589e-09,5.063145237429191,1.00727786969589e-09,0.3638934847945087,1.00727786969589e-09,0.01158413338908077
1.009302617751622e-09,5.078676214529896,1.009302617751622e-09,0.4651308875810803,1.009302617751622e-09,0.0138631365389939
1.011418328253504e-09,5.094118263103335,1.011418328253504e-09,0.5709164126751813,1.011418328253504e-09,0.01589634917849422
1.013574975757033e-09,5.109365299319336,1.013574975757033e-09,0.6787487878516463,1.013574975757033e-09,0.01769804830665599
1.015375348277156e-09,5.122565462377231,1.015375348277156e-09,0.7687674138578023,1.015375348277156e-09,0.01918084876862367
1.01665473298583e-09,5.132282767305775,1.01665473298583e-09,0.8327366492915173,1.01665473298583e-09,0.0202400325049322
1.017757369318669e-09,5.140470549263045,1.017757369318669e-09,0.8878684659334359,1.017757369318669e-09,0.02107164455748435
1.018842219169936e-09,5.148132159870396,1.018842219169936e-09,0.9421109584968059,1.018842219169936e-09,0.0217727985659029
1.020110060638192e-09,5.15646486410526,1.020110060638192e-09,1.005503031909583,1.020110060638192e-09,0.02242563253449783
1.021961301463388e-09,5.16730924410896,1.021961301463388e-09,1.098065073169419,1.021961301463388e-09,0.02305052255235704
1.025663783113782e-09,5.184068674066178,1.025663783113782e-09,1.28318915568909,1.025663783113782e-09,0.02320136368271452
1.028780563890333e-09,5.193050357180777,1.028780563890333e-09,1.439028194516639,1.028780563890333e-09,0.02229412133293037
1.031442735963509e-09,5.197029469108626,1.031442735963509e-09,1.57213679817543,1.031442735963509e-09,0.02085352280473578
1.034085438192934e-09,5.197649251609314,1.034085438192934e-09,1.704271909646678,1.034085438192934e-09,0.01889089928245283
1.036710614966349e-09,5.195023454903515,1.036710614966349e-09,1.835530748317448,1.036710614966349e-09,0.01648061293020651
1.039390662527343e-09,5.189058075473478,1.039390662527343e-09,1.969533126367144,1.039390662527343e-09,0.01360626739367369
1.042179238223268e-09,5.179376804479654,1.042179238223268e-09,2.108961911163381,1.042179238223268e-09,0.01022940834980228
1.04509932686428e-09,5.165484918261286,1.04509932686428e-09,2.254966343213979,1.04509932686428e-09,0.00632667382854691
1.048184918674356e-09,5.146663391136811,1.048184918674356e-09,2.409245933717787,1.048184918674356e-09,0.001848210627751214
1.051485835538335e-09,5.121827876366636,1.051485835538335e-09,2.574291776916734,1.051485835538335e-09,-0.003453154496867909
1.054269683107638e-09,5.097071630587835,1.054269683107638e-09,2.713484155381891,1.054269683107638e-09,-0.008258147710018694
1.057041159847351e-09,5.068896539985662,1.057041159847351e-09,2.852057992367555,1.057041159847351e-09,-0.01325508840062076
1.059620051797316e-09,5.039429199544129,1.059620051797316e-09,2.981002589865773,1.059620051797316e-09,-0.01809346955770917
1.064777835697244e-09,4.971375676626611,1.064777835697244e-09,3.238891784862211,1.064777835697244e-09,-0.02818120602565668
1.068566308557053e-09,4.912848005629382,1.068566308557053e-09,3.428315427852666,1.068566308557053e-09,-0.03605946714845916
1.070669402517153e-09,4.876147673544563,1.070669402517153e-09,3.533470125857646,1.070669402517153e-09,-0.04081183655128006
1.072686468763523e-09,4.837181731233385,1.072686468763523e-09,3.634323438176132,1.072686468763523e-09,-0.04579484419096507
1.074618059313555e-09,4.794732961899922,1.074618059313555e-09,3.73090296567773,1.074618059313555e-09,-0.05127344083651528
1.076059845283613e-09,4.758615542417645,1.076059845283613e-09,3.80299226418063,1.076059845283613e-09,-0.05602611847797867
1.077396253625144e-09,4.722106922703897,1.077396253625144e-09,3.869812681257192,1.077396253625144e-09,-0.06083203676604738
1.078965573037061e-09,4.676408648535034,1.078965573037061e-09,3.948278651853026,1.078965573037061e-09,-0.06675017914597416
1.080339461743916e-09,4.634164508601297,1.080339461743916e-09,4.016973087195808,1.080339461743916e-09,-0.07210605276113483
1.082216394249013e-09,4.572681704674223,1.082216394249013e-09,4.110819712450669,1.082216394249013e-09,-0.07975629570639627
1.084682858256484e-09,4.483348814815219,1.084682858256484e-09,4.234142912824174,1.084682858256484e-09,-0.09079686328788394
1.086497944242954e-09,4.412849520197372,1.086497944242954e-09,4.324897212147704,1.086497944242954e-09,-0.09954254379556222
1.089016355307676e-09,4.312884510602114,1.089016355307676e-09,4.4508177653838,1.089016355307676e-09,-0.113039153176505
1.090967340184578e-09,4.235411756298119,1.090967340184578e-09,4.548367009228889,1.090967340184578e-09,-0.1248294425609824
1.092272845852294e-09,4.182770526935165,1.092272845852294e-09,4.613642292614674,1.092272845852294e-09,-0.132870620314995
1.093518554547087e-09,4.131520374707317,1.093518554547087e-09,4.675927727354347,1.093518554547087e-09,-0.1403801690876808
1.094894455937832e-09,4.073611134489281,1.094894455937832e-09,4.744722796891595,1.094894455937832e-09,-0.1483404984402295
1.096652160148007e-09,3.997574563038863,1.096652160148007e-09,4.83260800740037,1.096652160148007e-09,-0.1578559567506438
1.098326080074004e-09,3.923002012095302,1.098326080074004e-09,4.916304003700191,1.098326080074004e-09,-0.1661427651503182
1.1e-09,3.846328295307423,1.1e-09,5,1.1e-09,-0.1735983977480831
1.10066909252674e-09,3.810591950500847,1.10066909252674e-09,5,1.10066909252674e-09,-0.1773948707058882
1.101238632458781e-09,3.780155373571038,1.101238632458781e-09,5,1.101238632458781e-09,-0.1804835097279848
1.10183834155192e-09,3.748103800041751,1.10183834155192e-09,5,1.10183834155192e-09,-0.1835346830309908
1.102980147312862e-09,3.687091818934838,1.102980147312862e-09,5,1.102980147312862e-09,-0.188712286802996
1.104864100710169e-09,3.586490049018259,1.104864100710169e-09,5,1.104864100710169e-09,-0.1954191259193183
1.108632007504784e-09,3.385707659069598,1.108632007504784e-09,5,1.108632007504784e-09,-0.2020323706114441
1.114831442789609e-09,3.0574868754842,1.114831442789609e-09,5,1.114831442789609e-09,-0.1935937818362735
1.120266228625535e-09,2.773502129958005,1.120266228625535e-09,5,1.120266228625535e-09,-0.1665330446204535
1.124637382010749e-09,2.549647595198128,1.124637382010749e-09,5,1.124637382010749e-09,-0.1309776853094864
1.12922367978919e-09,2.322983467594087,1.12922367978919e-09,5,1.12922367978919e-09,-0.07934210700521205
1.132631293814056e-09,2.162553334784144,1.132631293814056e-09,5,1.132631293814056e-09,-0.03047414743645142
1.135384445005036e-09,2.038829456232664,1.135384445005036e-09,5,1.135384445005036e-09,0.01507171892442732
1.138303680892788e-09,1.913762992066344,1.138303680892788e-09,5,1.138303680892788e-09,0.06831764403244872
1.140569880214314e-09,1.821016278335184,1.140569880214314e-09,5,1.140569880214314e-09,0.114436289946613
1.142241600668144e-09,1.754972057748708,1.142241600668144e-09,5,1.142241600668144e-09,0.1513416306129511
1.144629303429085e-09,1.663977746177776,1.144629303429085e-09,5,1.144629303429085e-09,0.2089153079551272
1.146694617208007e-09,1.588114132522453,1.146694617208007e-09,5,1.146694617208007e-09,0.2643774808175867
1.148368368215025e-09,1.528237603953325,1.148368368215025e-09,5,1.148368368215025e-09,0.3143473172266096
1.149851842784002e-09,1.47629195607661,1.149851842784002e-09,5,1.149851842784002e-09,0.3629892724171634
1.151556361208945e-09,1.418214546931583,1.151556361208945e-09,5,1.151556361208945e-09,0.4235642104622213
1.153814162278189e-09,1.344420736069411,1.153814162278189e-09,5,1.153814162278189e-09,0.5103806323649095
1.155873792187892e-09,1.280351006394016,1.155873792187892e-09,5,1.155873792187892e-09,0.5954432632732
1.158381014620512e-09,1.206472932741018,1.158381014620512e-09,5,1.158381014620512e-09,0.7059106366873168
1.161595334534983e-09,1.118103149402604,1.161595334534983e-09,5,1.161595334534983e-09,0.8575348069429477
1.16510038409446e-09,1.029372491526095,1.16510038409446e-09,5,1.16510038409446e-09,1.034098074367316
1.168814820563971e-09,0.9430864215166739,1.168814820563971e-09,5,1.168814820563971e-09,1.232190184347926
1.172899710404205e-09,0.8555646518123126,1.172899710404205e-09,5,1.172899710404205e-09,1.461410371168969
1.177744205333801e-09,0.7611961733440359,1.177744205333801e-09,5,1.177744205333801e-09,1.744931113180499
1.182305497497533e-09,0.6826672392496154,1.182305497497533e-09,5,1.182305497497533e-09,2.018441804173404
1.186575759203624e-09,0.6177280462008276,1.186575759203624e-09,5,1.186575759203624e-09,2.276338691025137
1.191208916336128e-09,0.5555265792835995,1.191208916336128e-09,5,1.191208916336128e-09,2.553216742277105
1.195893017508304e-09,0.5004491764076767,1.195893017508304e-09,5,1.195893017508304e-09,2.823243087178938
1.200295525012654e-09,0.4558959162199449,1.200295525012654e-09,5,1.200295525012654e-09,3.0601280447279
1.20444526208571e-09,0.4202625881135193,1.20444526208571e-09,5,1.20444526208571e-09,3.263473879063979
1.209142682889556e-09,0.385699336691195,1.209142682889556e-09,5,1.209142682889556e-09,3.470401464660041
1.217682726688197e-09,0.3326141797690792,1.217682726688197e-09,5,1.217682726688197e-09,3.790218516022256
1.225516065690299e-09,0.2908950692341752,1.225516065690299e-09,5,1.225516065690299e-09,4.028520662982276
1.232893842172744e-09,0.2557590260058297,1.232893842172744e-09,5,1.232893842172744e-09,4.211958861572921
1.240949553587441e-09,0.2210932363327519,1.240949553587441e-09,5,1.240949553587441e-09,4.374118995299001
1.249488515178577e-09,0.188168635181972,1.249488515178577e-09,5,1.249488515178577e-09,4.510322562414885
1.258354084281986e-09,0.1579555890485659,1.258354084281986e-09,5,1.258354084281986e-09,4.62061835136838
1.267718962166586e-09,0.1302512413983597,1.267718962166586e-09,5,1.267718962166586e-09,4.710215526846924
1.277755490093435e-09,0.1050592905115791,1.277755490093435e-09,5,1.277755490093435e-09,4.782786600106843
1.288649510338979e-09,0.08248272439708608,1.288649510338979e-09,5,1.288649510338979e-09,4.841065901865868
1.300623195041637e-09,0.06264205942021243,1.300623195041637e-09,5,1.300623195041637e-09,4.887235506000955
1.313932733640139e-09,0.04566329410904307,1.313932733640139e-09,5,1.313932733640139e-09,4.923053696869314
1.328891867552606e-09,0.031619737978249,1.328891867552606e-09,5,1.328891867552606e-09,4.950052524846777
1.345904911692826e-09,0.02049176656207149,1.345904911692826e-09,5,1.345904911692826e-09,4.969640831625025
1.365514862431473e-09,0.01214436218377215,1.365514862431473e-09,5,1.365514862431473e-09,4.983148453536248
1.388482574989284e-09,0.006319309454494337,1.388482574989284e-09,5,1.388482574989284e-09,4.991838381879435
1.41592241017522e-09,0.002643750971106766,1.41592241017522e-09,5,1.41592241017522e-09,4.9968961574567
1.439826627811645e-09,0.001134996966148242,1.439826627811645e-09,5,1.439826627811645e-09,4.998786469563189
1.480251642932589e-09,8.341263508913335e-05,1.480251642932589e-09,5,1.480251642932589e-09,5.000004732598334
1.525559488465953e-09,-0.0001870987011931891,1.525559488465953e-09,5,1.525559488465953e-09,5.000267788739909
1.587657670673275e-09,-0.0001586265461522782,1.587657670673275e-09,5,1.587657670673275e-09,5.000190512251772
1.698086255045242e-09,-4.872540784050931e-05,1.698086255045242e-09,5,1.698086255045242e-09,5.000049655193656
1.892256377847449e-09,6.827319597332642e-06,1.892256377847449e-09,5,1.892256377847449e-09,4.99998934248895
2.142256377847449e-09,6.273367912649672e-06,2.142256377847449e-09,5,2.142256377847449e-09,4.999992513750601
2.392256377847449e-09,1.138154996079205e-06,2.392256377847449e-09,5,2.392256377847449e-09,4.999998730759351
2.642256377847449e-09,-1.04839106906047e-07,2.642256377847449e-09,5,2.642256377847449e-09,5.00000013593374
2.89225637784745e-09,-9.088132237675778e-08,2.89225637784745e-09,5,2.89225637784745e-09,5.000000098872593
3.14225637784745e-09,-9.50755782158857e-09,3.14225637784745e-09,5,3.14225637784745e-09,5.000000001086655
3.39225637784745e-09,9.529606548508103e-09,3.39225637784745e-09,5,3.39225637784745e-09,4.999999979417343
3.64225637784745e-09,9.207019831561156e-09,3.64225637784745e-09,5,3.64225637784745e-09,4.999999979663576
3.89225637784745e-09,7.956513574843247e-09,3.89225637784745e-09,5,3.89225637784745e-09,4.999999981123988
4.14225637784745e-09,7.652192565271373e-09,4.14225637784745e-09,5,4.14225637784745e-09,4.999999981632446
4.392256377847449e-09,7.649846909739537e-09,4.392256377847449e-09,5,4.392256377847449e-09,4.999999981663733
4.642256377847449e-09,7.66857574722295e-09,4.642256377847449e-09,5,4.642256377847449e-09,4.999999981639669
4.892256377847449e-09,7.673678592764009e-09,4.892256377847449e-09,5,4.892256377847449e-09,4.999999981631869
5.142256377847449e-09,7.673820951788513e-09,5.142256377847449e-09,5,5.142256377847449e-09,4.99999998163146
5.392256377847448e-09,7.673531176492416e-09,5.392256377847448e-09,5,5.392256377847448e-09,4.999999981631844
5.642256377847448e-09,7.673446458002186e-09,5.642256377847448e-09,5,5.642256377847448e-09,4.999999981631964
5.892256377847448e-09,7.673443469588871e-09,5.892256377847448e-09,5,5.892256377847448e-09,4.99999998163197
6.1e-09,7.673447476832573e-09,6.1e-09,5,6.1e-09,4.999999981631965
6.103125e-09,-0.02473519269133749,6.103125e-09,4.843749999999988,6.103125e-09,4.99515935337734
6.107189096019839e-09,-0.05422846905264547,6.107189096019839e-09,4.640545199008056,6.107189096019839e-09,4.98984887525985
6.115317288059516e-09,-0.1087187066769653,6.115317288059516e-09,4.23413559702419,6.115317288059516e-09,4.98168136639852
6.124560860837979e-09,-0.1592399882340802,6.124560860837979e-09,3.771956958101075,6.124560860837979e-09,4.976549166683307
6.131474849918136e-09,-0.1731159305107301,6.131474849918136e-09,3.426257504093201,6.131474849918136e-09,4.978103927542376
6.137857595139031e-09,-0.1667983970620954,6.137857595139031e-09,3.107120243048444,6.137857595139031e-09,4.983060977922931
6.150623085580821e-09,-0.09907556875320589,6.150623085580821e-09,2.468845720958931,6.150623085580821e-09,5.000384837888517
6.168102510949156e-09,0.1212653577532018,6.168102510949156e-09,1.594874452542187,6.168102510949156e-09,5.038095163451588
6.173795426722937e-09,0.2344122443729502,6.173795426722937e-09,1.310228663853147,6.173795426722937e-09,5.054891031929603
6.18137887905869e-09,0.4533406990340699,6.18137887905869e-09,0.9310560470655247,6.18137887905869e-09,5.086908628744439
6.186945920414971e-09,0.6572482223842835,6.186945920414971e-09,0.6527039792514557,6.186945920414971e-09,5.115246410300855
6.193826376175695e-09,0.9521176914951172,6.193826376175695e-09,0.308681191215233,6.193826376175695e-09,5.155604171006295
6.2e-09,1.23288460031771,6.2e-09,0,6.2e-09,5.191217570854659
6.201034190783797e-09,1.290288324976884,6.201034190783797e-09,0,6.201034190783797e-09,5.198270421906109
6.202034689938451e-09,1.345615670964446,6.202034689938451e-09,0,6.202034689938451e-09,5.204632056669211
6.203294550924687e-09,1.414872433559464,6.203294550924687e-09,0,6.203294550924687e-09,5.211765392245979
6.205814272897157e-09,1.551806830195892,6.205814272897157e-09,0,6.205814272897157e-09,5.222883505677311
6.210853716842099e-09,1.818638735092118,6.210853716842099e-09,0,6.210853716842099e-09,5.232747193163933
6.220932604731981e-09,2.317775389335084,6.220932604731981e-09,0,6.220932604731981e-09,5.206595594154282
6.230943725835177e-09,2.755639445793246,6.230943725835177e-09,0,6.230943725835177e-09,5.124309212163083
6.239943337681784e-09,3.091436253588018,6.239943337681784e-09,0,6.239943337681784e-09,5.004531662216147
6.249887935585839e-09,3.407493116735695,6.249887935585839e-09,0,6.249887935585839e-09,4.828087635524773
6.255781014167947e-09,3.572873118816476,6.255781014167947e-09,0,6.255781014167947e-09,4.687372538086096
6.261787820047536e-09,3.728994281096126,6.261787820047536e-09,0,6.261787820047536e-09,4.502113525673915
6.267640807376554e-09,3.864219405363166,6.267640807376554e-09,0,6.267640807376554e-09,4.291476307811021
6.273569207847432e-09,3.984920228812412,6.273569207847432e-09,0,6.273569207847432e-09,4.051505135078009
6.282048155151421e-09,4.133824721685526,6.282048155151421e-09,0,6.282048155151421e-09,3.667148977331984
6.291938210648112e-09,4.280538372145428,6.291938210648112e-09,0,6.291938210648112e-09,3.164421007511757
6.302009835937172e-09,4.3998895358859,6.302009835937172e-09,0,6.302009835937172e-09,2.608054676354446
6.310702031564483e-09,4.481051022808437,6.310702031564483e-09,0,6.310702031564483e-09,2.10997851372762
6.318248714555349e-09,4.537829295649427,6.318248714555349e-09,0,6.318248714555349e-09,1.699153007543428
6.323605043739134e-09,4.570753703755131,6.323605043739134e-09,0,6.323605043739134e-09,1.439159669308353
6.328465509696299e-09,4.597268904551587,6.328465509696299e-09,0,6.328465509696299e-09,1.229482132320643
6.33598750138045e-09,4.635268498462681,6.33598750138045e-09,0,6.33598750138045e-09,0.953786754408824
6.346299926599892e-09,4.684374301348538,6.346299926599892e-09,0,6.346299926599892e-09,0.6621506483108107
6.355831412276614e-09,4.727377389634378,6.355831412276614e-09,0,6.355831412276614e-09,0.4667890899449703
6.364324080867661e-09,4.763358720430864,6.364324080867661e-09,0,6.364324080867661e-09,0.3403880813280544
6.372730497113258e-09,4.796222197161582,6.372730497113258e-09,0,6.372730497113258e-09,0.2489477226256668
6.381330242046668e-09,4.826581405825061,6.381330242046668e-09,0,6.381330242046668e-09,0.1811291590673314
6.390448917155305e-09,4.854977256180602,6.390448917155305e-09,0,6.390448917155305e-09,0.1297582916250075
6.400420611887674e-09,4.881636744740087,6.400420611887674e-09,0,6.400420611887674e-09,0.09056890697679135
6.411534437038054e-09,4.906346606012825,6.411534437038054e-09,0,6.411534437038054e-09,0.06107748098006358
6.424123695663402e-09,4.928762818780223,6.424123695663402e-09,0,6.424123695663402e-09,0.03942696534650976
6.438614092068992e-09,4.948505506098635,6.438614092068992e-09,0,6.438614092068992e-09,0.0240717299599125
6.455591404372008e-09,4.965229136182507,6.455591404372008e-09,0,6.455591404372008e-09,0.01365722706881582
6.475907872487163e-09,4.978676765047186,6.475907872487163e-09,0,6.475907872487163e-09,0.006988488291470004
6.500856107345226e-09,4.988726934125144,6.500856107345226e-09,0,6.500856107345226e-09,0.003034513676032165
6.532491635838463e-09,4.9954540991034,6.532491635838463e-09,0,6.532491635838463e-09,0.0009376546451541324
6.558584567092034e-09,4.998020358947044,6.558584567092034e-09,0,6.558584567092034e-09,0.0003370230038565495
