/net1 X,/net1 Y,/net03 X,/net03 Y,/o X,/o Y
0,0,0,4.999999981631962,0,1.704906655848801e-08
2.5e-11,0,2.5e-11,4.999999981631962,2.5e-11,1.704906651887732e-08
7.5e-11,0,7.5e-11,4.999999981631962,7.5e-11,1.704906636238439e-08
1.75e-10,0,1.75e-10,4.999999981631962,1.75e-10,1.704906610215847e-08
3.749999999999999e-10,0,3.749999999999999e-10,4.999999981631962,3.749999999999999e-10,1.704906659847582e-08
6.25e-10,0,6.25e-10,4.999999981631962,6.25e-10,1.704906643232353e-08
8.125e-10,0,8.125e-10,4.999999981631962,8.125e-10,1.704906654150262e-08
1e-09,0,1e-09,4.999999981631962,1e-09,1.704906632248585e-08
1.000038726150484e-09,0.001936307524204584,1.000038726150484e-09,5.000237605357639,1.000038726150484e-09,5.018348716047974e-05
1.000067793867445e-09,0.003389693372268936,1.000067793867445e-09,5.00041589311364,1.000067793867445e-09,8.779340552459272e-05
1.000125929301368e-09,0.00629646506839764,1.000125929301368e-09,5.00077218389602,1.000125929301368e-09,0.0001628355231292782
1.000242200169213e-09,0.01211000846065505,1.000242200169213e-09,5.001483550103867,1.000242200169213e-09,0.0003121617493106257
1.000474741904903e-09,0.02373709524516987,1.000474741904903e-09,5.00290138219427,1.000474741904903e-09,0.0006077653026539165
1.000939825376284e-09,0.0469912688141995,1.000939825376284e-09,5.005717590747933,1.000939825376284e-09,0.001186928299714702
1.001869992319045e-09,0.09349961595225878,1.001869992319045e-09,5.011273692313102,1.001869992319045e-09,0.002298485284500801
1.003730326204568e-09,0.1865163102283773,1.003730326204568e-09,5.022092588287333,1.003730326204568e-09,0.004345416295753022
1.005897526836687e-09,0.2948763418343354,1.005897526836687e-09,5.034228485859579,1.005897526836687e-09,0.006456307601413181
1.008165134601649e-09,0.4082567300824382,1.008165134601649e-09,5.046422119025355,1.008165134601649e-09,0.008379066654477612
1.010568642993238e-09,0.5284321496618728,1.010568642993238e-09,5.058824226111585,1.010568642993238e-09,0.01013200329810939
1.013086970632821e-09,0.6543485316410413,1.013086970632821e-09,5.071290836341603,1.013086970632821e-09,0.01169120646217081
1.015718506245013e-09,0.785925312250629,1.015718506245013e-09,5.083861629146115,1.015718506245013e-09,0.01306932558718804
1.017382233005237e-09,0.8691116502618562,1.017382233005237e-09,5.09188776570088,1.017382233005237e-09,0.01388232333128932
1.018991345655642e-09,0.949567282782111,1.018991345655642e-09,5.100109722693872,1.018991345655642e-09,0.0147115403600459
1.02043653614909e-09,1.021826807454485,1.02043653614909e-09,5.107603188305045,1.02043653614909e-09,0.01543463722378666
1.021876289578994e-09,1.093814478949678,1.021876289578994e-09,5.114778187808867,1.021876289578994e-09,0.01605526337738004
1.023156377816845e-09,1.157818890842256,1.023156377816845e-09,5.120780148545546,1.023156377816845e-09,0.01649975503520121
1.024892834330869e-09,1.244641716543461,1.024892834330869e-09,5.128262994287019,1.024892834330869e-09,0.01693230698919284
1.02791858928131e-09,1.395929464065515,1.02791858928131e-09,5.139343204563282,1.02791858928131e-09,0.0172282114197975
1.032470797051099e-09,1.623539852554923,1.032470797051099e-09,5.151104359373081,1.032470797051099e-09,0.01666710803047075
1.035895796468597e-09,1.794789823429848,1.035895796468597e-09,5.155993215582284,1.035895796468597e-09,0.01552409272700707
1.039059297385991e-09,1.952964869299531,1.039059297385991e-09,5.157454588194242,1.039059297385991e-09,0.01398367297118632
1.042231605052038e-09,2.111580252601885,1.042231605052038e-09,5.155962030581554,1.042231605052038e-09,0.01202942964453031
1.045397037378513e-09,2.269851868925659,1.045397037378513e-09,5.151518053275493,1.045397037378513e-09,0.009721233743411198
1.048672893392363e-09,2.433644669618164,1.048672893392363e-09,5.143810621224279,1.048672893392363e-09,0.007003064570746431
1.052114140172526e-09,2.605707008626303,1.052114140172526e-09,5.132301099635564,1.052114140172526e-09,0.003831536348694696
1.055768804721573e-09,2.788440236078667,1.055768804721573e-09,5.116221744582172,1.055768804721573e-09,0.000150507950061325
1.058505148142339e-09,2.925257407116951,1.058505148142339e-09,5.101561457416992,1.058505148142339e-09,-0.002932395993657754
1.0607860758727e-09,3.039303793634994,1.0607860758727e-09,5.087592656512182,1.0607860758727e-09,-0.005623423452998167
1.062873494808797e-09,3.143674740439828,1.062873494808797e-09,5.073388581404768,1.062873494808797e-09,-0.008173164605589457
1.066797285050423e-09,3.339864252521124,1.066797285050423e-09,5.042880726094459,1.066797285050423e-09,-0.01318843644966032
1.074644865533674e-09,3.732243276683715,1.074644865533674e-09,4.965988677691539,1.074644865533674e-09,-0.02411462939988633
1.07628358535952e-09,3.814179267976021,1.07628358535952e-09,4.946924488328911,1.07628358535952e-09,-0.02660647565169355
1.078760178081554e-09,3.938008904077676,1.078760178081554e-09,4.914521862077335,1.078760178081554e-09,-0.03082273382950267
1.080029537896502e-09,4.001476894825092,1.080029537896502e-09,4.895329207488648,1.080029537896502e-09,-0.03337486692276707
1.081155149971828e-09,4.057757498591397,1.081155149971828e-09,4.876832319781261,1.081155149971828e-09,-0.0358488191386894
1.08340637412248e-09,4.170318706124009,1.08340637412248e-09,4.835910864574368,1.08340637412248e-09,-0.04129443864555566
1.085451802074327e-09,4.272590103716346,1.085451802074327e-09,4.7950167976312,1.085451802074327e-09,-0.0466070455834861
1.087063059434613e-09,4.353152971730641,1.087063059434613e-09,4.761113809030312,1.087063059434613e-09,-0.05085255474919546
1.088578456159938e-09,4.428922807996877,1.088578456159938e-09,4.728009938092509,1.088578456159938e-09,-0.05486077858729631
1.09108853376312e-09,4.554426688155973,1.09108853376312e-09,4.670599443742008,1.09108853376312e-09,-0.06152795001848017
1.096108688969483e-09,4.805434448474162,1.096108688969483e-09,4.546019857141518,1.096108688969483e-09,-0.07502132907067588
1.1e-09,5,1.1e-09,4.440744207126633,1.1e-09,-0.08576253743009866
1.100900708438815e-09,5,1.100900708438815e-09,4.411687666778716,1.100900708438815e-09,-0.08912209302793163
1.101747637652006e-09,5,1.101747637652006e-09,4.384648779140378,1.101747637652006e-09,-0.09230124515749695
1.102713172807639e-09,5,1.102713172807639e-09,4.354349445147687,1.102713172807639e-09,-0.09595565789779022
1.104644243118907e-09,5,1.104644243118907e-09,4.295857698975205,1.104644243118907e-09,-0.10336614019497
1.106277809917517e-09,5,1.106277809917517e-09,4.248178415452421,1.106277809917517e-09,-0.1095648314036583
1.108057356336973e-09,5,1.108057356336973e-09,4.197186612590916,1.108057356336973e-09,-0.1159319735975605
1.109730158628489e-09,5,1.109730158628489e-09,4.149635503741218,1.109730158628489e-09,-0.1213628880816316
1.111627458106447e-09,5,1.111627458106447e-09,4.095901034812082,1.111627458106447e-09,-0.126750695076301
1.11408427059404e-09,5,1.11408427059404e-09,4.026507518804725,1.11408427059404e-09,-0.1324090224946087
1.1173806964816e-09,5,1.1173806964816e-09,3.933681564207832,1.1173806964816e-09,-0.1375925608129898
1.122287922508e-09,5,1.122287922508e-09,3.796121682076437,1.122287922508e-09,-0.1402039189210524
1.129038025504383e-09,5,1.129038025504383e-09,3.608243746628219,1.129038025504383e-09,-0.1340428390387503
1.135815249638976e-09,5,1.135815249638976e-09,3.421327717783973,1.135815249638976e-09,-0.1167994849287087
1.142399808555875e-09,5,1.142399808555875e-09,3.241518898165432,1.142399808555875e-09,-0.08966791602684306
1.149675502077356e-09,5,1.149675502077356e-09,3.045066300510649,1.149675502077356e-09,-0.04794589141128298
1.154907991715727e-09,5,1.154907991715727e-09,2.905333750174876,1.154907991715727e-09,-0.01031758556898724
1.157935841377165e-09,5,1.157935841377165e-09,2.825124345679717,1.157935841377165e-09,0.01365848349792782
1.160678832675161e-09,5,1.160678832675161e-09,2.7529250963426,1.160678832675161e-09,0.03670802564350868
1.163230829908168e-09,5,1.163230829908168e-09,2.686164114386459,1.163230829908168e-09,0.05969372792046036
1.165625977061866e-09,5,1.165625977061866e-09,2.623894873546353,1.165625977061866e-09,0.082650068390122
1.170416271369263e-09,5,1.170416271369263e-09,2.50065465521398,1.170416271369263e-09,0.1327907120779029
1.175206912397094e-09,5,1.175206912397094e-09,2.379464214109447,1.175206912397094e-09,0.1890420935335257
1.179515488012517e-09,5,1.179515488012517e-09,2.272623883187258,1.179515488012517e-09,0.2455084002076364
1.183608938594672e-09,5,1.183608938594672e-09,2.173393117448146,1.183608938594672e-09,0.3051635504107126
1.187434117079099e-09,5,1.187434117079099e-09,2.082886400335914,1.187434117079099e-09,0.3672712787104066
1.190944072601863e-09,5,1.190944072601863e-09,2.001679628022384,1.190944072601863e-09,0.4310234738780747
1.19410024484222e-09,5,1.19410024484222e-09,1.929925189265544,1.19410024484222e-09,0.4954496333394509
1.196945351154372e-09,5,1.196945351154372e-09,1.866202410301464,1.196945351154372e-09,0.5605072110477178
1.199858043319656e-09,5,1.199858043319656e-09,1.802347569322595,1.199858043319656e-09,0.6342844568853211
1.20458125505214e-09,5,1.20458125505214e-09,1.703041595295151,1.20458125505214e-09,0.7687415329687279
1.21048099141518e-09,5,1.21048099141518e-09,1.587130310261419,1.21048099141518e-09,0.9605586247562949
1.215980670330738e-09,5,1.215980670330738e-09,1.487109058359432,1.215980670330738e-09,1.161121328546308
1.221674171004213e-09,5,1.221674171004213e-09,1.391322517727426,1.221674171004213e-09,1.388158084818291
1.227486797214168e-09,5,1.227486797214168e-09,1.3011510423637,1.227486797214168e-09,1.637115175851498
1.23336543333677e-09,5,1.23336543333677e-09,1.21718470409508,1.23336543333677e-09,1.902948460066612
1.239395632331873e-09,5,1.239395632331873e-09,1.137921306708511,1.239395632331873e-09,2.186155323825208
1.2455526434005e-09,5,1.2455526434005e-09,1.063377122749926,1.2455526434005e-09,2.481333625256702
1.251725390780346e-09,5,1.251725390780346e-09,0.9941952088467383,1.251725390780346e-09,2.777082565976916
1.257695590479442e-09,5,1.257695590479442e-09,0.9317287912049012,1.257695590479442e-09,3.054564478750537
1.263163603624793e-09,5,1.263163603624793e-09,0.878875591804835,1.263163603624793e-09,3.291778475049186
1.268163781779391e-09,5,1.268163781779391e-09,0.8351739981470763,1.268163781779391e-09,3.488309704119688
1.273576194754854e-09,5,1.273576194754854e-09,0.7918602618255998,1.273576194754854e-09,3.678524839245554
1.284401020705779e-09,5,1.284401020705779e-09,0.7118793099610863,1.284401020705779e-09,3.995542439614606
1.294410463535935e-09,5,1.294410463535935e-09,0.6418604278975008,1.294410463535935e-09,4.224592457233737
1.30322637739861e-09,5,1.30322637739861e-09,0.5822324970519119,1.30322637739861e-09,4.383833739756902
1.312573007987466e-09,5,1.312573007987466e-09,0.5213881315629579,1.312573007987466e-09,4.517160769218722
1.322435192241218e-09,5,1.322435192241218e-09,0.4605894329768837,1.322435192241218e-09,4.626191912548646
1.332720935248084e-09,5,1.332720935248084e-09,0.4016999389239795,1.332720935248084e-09,4.712943279831388
1.343689717001984e-09,5,1.343689717001984e-09,0.3446225212036155,1.343689717001984e-09,4.78245613261131
1.355574061320409e-09,5,1.355574061320409e-09,0.2897689146766001,1.355574061320409e-09,4.837974959438159
1.368628311570994e-09,5,1.368628311570994e-09,0.2377687929108641,1.368628311570994e-09,4.881911154100868
1.383167521308142e-09,5,1.383167521308142e-09,0.1893280297157727,1.383167521308142e-09,4.916220141465741
1.399576162711609e-09,5,1.399576162711609e-09,0.1452425383157662,1.399576162711609e-09,4.942507545108161
1.418353926724964e-09,5,1.418353926724964e-09,0.1062895968485691,1.418353926724964e-09,4.962166514446656
1.440178771318485e-09,5,1.440178771318485e-09,0.07314000658777793,1.440178771318485e-09,4.976430174285307
1.456858253200908e-09,5,1.456858253200908e-09,0.05476613841243996,1.456858253200908e-09,4.983259361564644
1.486247096256776e-09,5,1.486247096256776e-09,0.03232847493302585,1.486247096256776e-09,4.990796047228732
1.507019898260293e-09,5,1.507019898260293e-09,0.02215007215313125,1.507019898260293e-09,4.993873566341762
1.544343741863497e-09,5,1.544343741863497e-09,0.01080602182695197,1.544343741863497e-09,4.997113082192024
1.575045681287134e-09,5,1.575045681287134e-09,0.005805653032601982,1.575045681287134e-09,4.998467740342377
1.606946470232045e-09,5,1.606946470232045e-09,0.002976547838177075,1.606946470232045e-09,4.999213171450469
1.648826979330507e-09,5,1.648826979330507e-09,0.001120481003984229,1.648826979330507e-09,4.999699694725534
1.704350951960707e-09,5,1.704350951960707e-09,0.0001417736089096393,1.704350951960707e-09,4.999959188115863
1.781987764653028e-09,5,1.781987764653028e-09,-0.0001973223633653471,1.781987764653028e-09,5.000051801175958
1.903152294873828e-09,5,1.903152294873828e-09,-0.0001721736435834739,1.903152294873828e-09,5.000046237551595
2.096046884085198e-09,5,2.096046884085198e-09,-5.10374048934936e-05,2.096046884085198e-09,5.000013836421562
2.346046884085198e-09,5,2.346046884085198e-09,1.472698882229949e-06,2.346046884085198e-09,4.99999961941387
2.596046884085199e-09,5,2.596046884085199e-09,4.898110400403276e-06,2.596046884085199e-09,4.999998659925319
2.846046884085199e-09,5,2.846046884085199e-09,1.593526797253751e-06,2.846046884085199e-09,4.999999547031454
3.096046884085199e-09,5,3.096046884085199e-09,1.418186510646431e-07,3.096046884085199e-09,4.999999945652043
3.346046884085199e-09,5,3.346046884085199e-09,-7.647667599852724e-08,3.346046884085199e-09,5.000000007181754
3.596046884085199e-09,5,3.596046884085199e-09,-2.577195435854952e-08,3.596046884085199e-09,4.999999993600136
3.846046884085199e-09,5,3.846046884085199e-09,1.033823299353208e-08,3.846046884085199e-09,4.999999983571293
4.096046884085199e-09,5,4.096046884085199e-09,1.838587068411007e-08,4.096046884085199e-09,4.999999981256813
4.346046884085199e-09,5,4.346046884085199e-09,1.820170631322575e-08,4.346046884085199e-09,4.99999998133944
4.596046884085198e-09,5,4.596046884085198e-09,1.733190000334829e-08,4.596046884085198e-09,4.999999981559172
4.846046884085198e-09,5,4.846046884085198e-09,1.704728404909262e-08,4.846046884085198e-09,4.999999981632226
5.096046884085198e-09,5,5.096046884085198e-09,1.70239626750078e-08,5.096046884085198e-09,4.999999981638598
5.346046884085198e-09,5,5.346046884085198e-09,1.704050961024696e-08,5.346046884085198e-09,4.999999981634283
5.596046884085197e-09,5,5.596046884085197e-09,1.70482712021863e-08,5.596046884085197e-09,4.999999981632189
5.846046884085197e-09,5,5.846046884085197e-09,1.704953284303215e-08,5.846046884085197e-09,4.999999981631836
5.973023442042599e-09,5,5.973023442042599e-09,1.704930655400466e-08,5.973023442042599e-09,4.999999981631896
6.1e-09,5,6.1e-09,1.704913371936815e-08,6.1e-09,4.999999981631943
6.103125e-09,4.843749999999988,6.103125e-09,-0.0152127448650961,6.103125e-09,4.9970232257666
6.10693304719728e-09,4.653347640136026,6.10693304719728e-09,-0.03283126274041592,6.10693304719728e-09,4.993827898851177
6.114549141591838e-09,4.272542920408102,6.114549141591838e-09,-0.06661345353237931,6.114549141591838e-09,4.988623418079067
6.126933484656371e-09,3.653325767181465,6.126933484656371e-09,-0.1139054313341235,6.126933484656371e-09,4.983570058893911
6.13470651835677e-09,3.264674082161514,6.13470651835677e-09,-0.1236781480886082,6.13470651835677e-09,4.984941233981314
6.142040943014434e-09,2.897952849278322,6.142040943014434e-09,-0.1165824721763844,6.142040943014434e-09,4.989165627459382
6.155324089861783e-09,2.233795506910867,6.155324089861783e-09,-0.05964055033066336,6.155324089861783e-09,5.002741143001044
6.17209881419459e-09,1.395059290270483,6.17209881419459e-09,0.1060041559433048,6.17209881419459e-09,5.03030152879761
6.179867439456051e-09,1.006628027197459,6.179867439456051e-09,0.2361835122659817,6.179867439456051e-09,5.049369435778081
6.187525227932526e-09,0.6237386033737096,6.187525227932526e-09,0.4091970357864178,6.187525227932526e-09,5.073328117314493
6.193762613966263e-09,0.3118693016868743,6.193762613966263e-09,0.5765152116155057,6.193762613966263e-09,5.094767286319144
6.2e-09,0,6.2e-09,0.7647345208427635,6.2e-09,5.117241635681539
6.200858130687176e-09,0,6.200858130687176e-09,0.7962744163261304,6.200858130687176e-09,5.121323618817424
6.201781176650132e-09,0,6.201781176650132e-09,0.8299276028703135,6.201781176650132e-09,5.125690417848626
6.203046678863875e-09,0,6.203046678863875e-09,0.8752969008765006,6.203046678863875e-09,5.131630979812785
6.205577683291362e-09,0,6.205577683291362e-09,0.9628551248239389,6.205577683291362e-09,5.143197372981994
6.210639692146336e-09,0,6.210639692146336e-09,1.131529353076669,6.210639692146336e-09,5.162094078708361
6.215681266279516e-09,0,6.215681266279516e-09,1.295704365404228,6.215681266279516e-09,5.173263207694519
6.221906221827367e-09,0,6.221906221827367e-09,1.493526383410523,6.221906221827367e-09,5.176162886834078
6.234356132923068e-09,0,6.234356132923068e-09,1.871834808928466,6.234356132923068e-09,5.148282021087521
6.251892831341646e-09,0,6.251892831341646e-09,2.360546819649418,6.251892831341646e-09,5.041342951295021
6.268590175752815e-09,0,6.268590175752815e-09,2.773139511560299,6.268590175752815e-09,4.874866419753578
6.285919491343984e-09,0,6.285919491343984e-09,3.140764598039028,6.285919491343984e-09,4.617713272944325
6.293617667953012e-09,0,6.293617667953012e-09,3.290935404365067,6.293617667953012e-09,4.456846757749379
6.301345401780461e-09,0,6.301345401780461e-09,3.433385611757871,6.301345401780461e-09,4.255754103923017
6.309994377566721e-09,0,6.309994377566721e-09,3.576868491461469,6.309994377566721e-09,3.990051317386528
6.319984948969075e-09,0,6.319984948969075e-09,3.722187147625224,6.319984948969075e-09,3.633695768684754
6.333274778309256e-09,0,6.333274778309256e-09,3.88539194488325,6.333274778309256e-09,3.088157838925691
6.345630040010235e-09,0,6.345630040010235e-09,4.010584792309007,6.345630040010235e-09,2.521464417484359
6.356849041266043e-09,0,6.356849041266043e-09,4.106099505675756,6.356849041266043e-09,1.976215812141492
6.362964675285757e-09,0,6.362964675285757e-09,4.15182233765183,6.362964675285757e-09,1.682432277092902
6.369273489138265e-09,0,6.369273489138265e-09,4.193660622600709,6.369273489138265e-09,1.404196351806327
6.3745895407977e-09,0,6.3745895407977e-09,4.225717086252882,6.3745895407977e-09,1.19619643682498
6.380966511098036e-09,0,6.380966511098036e-09,4.263073034902804,6.380966511098036e-09,0.9793402931143662
6.390762194140107e-09,0,6.390762194140107e-09,4.321865146585441,6.390762194140107e-09,0.7109407213856578
6.402392843475339e-09,0,6.402392843475339e-09,4.395296658218498,6.402392843475339e-09,0.478539815033806
6.411910423048408e-09,0,6.411910423048408e-09,4.456612160783666,6.411910423048408e-09,0.3445250902054418
6.420945266915293e-09,0,6.420945266915293e-09,4.513582487421371,6.420945266915293e-09,0.2529315755848275
6.430175423781492e-09,0,6.430175423781492e-09,4.568845688668579,6.430175423781492e-09,0.1857311623619666
6.439796013646938e-09,0,6.439796013646938e-09,4.622171667565386,6.439796013646938e-09,0.1360307180240725
6.450254128048611e-09,0,6.450254128048611e-09,4.674541866113505,6.450254128048611e-09,0.09836323049770489
6.461914055589178e-09,0,6.461914055589178e-09,4.725890569352361,6.461914055589178e-09,0.06984674222493807
6.475155232360106e-09,0,6.475155232360106e-09,4.77562233214574,6.475155232360106e-09,0.04855362646351472
6.490467674741659e-09,0,6.490467674741659e-09,4.822931330857006,6.490467674741659e-09,0.03293333662239252
6.508518914958593e-09,0,6.508518914958593e-09,4.866835163943566,6.508518914958593e-09,0.02168476641251144
6.530288968886967e-09,0,6.530288968886967e-09,4.906262711511725,6.530288968886967e-09,0.01370520711400787
6.547536963025117e-09,0,6.547536963025117e-09,4.929179136332656,6.547536963025117e-09,0.009924616520125282
6.577782608218704e-09,0,6.577782608218704e-09,4.957258009865164,6.577782608218704e-09,0.00577365977773333
6.599532781233706e-09,0,6.599532781233706e-09,4.970375421891581,6.599532781233706e-09,0.003993572319775016
6.635688119254743e-09,0,6.635688119254743e-09,4.984269591756488,6.635688119254743e-09,0.002140860578372287
