/net3 X,/net3 Y,/net8 X,/net8 Y,/04 X,/04 Y
0,5,0,1.809120736435182e-08,0,4.999999981632027
1e-11,5,1e-11,1.809120410706338e-08,1e-11,4.999999981632012
3e-11,5,3e-11,1.809120088352744e-08,3e-11,4.999999981631992
6.999999999999999e-11,5,6.999999999999999e-11,1.809119916476458e-08,6.999999999999999e-11,4.99999998163197
1.5e-10,5,1.5e-10,1.809120202121766e-08,1.5e-10,4.999999981631959
2.5e-10,5,2.5e-10,1.809120595021908e-08,2.5e-10,4.99999998163196
3.5e-10,5,3.5e-10,1.809120538739834e-08,3.5e-10,4.999999981631961
4.5e-10,5,4.5e-10,1.80912060343912e-08,4.5e-10,4.999999981631961
5.5e-10,5,5.5e-10,1.809120571512003e-08,5.5e-10,4.999999981631962
6.499999999999999e-10,5,6.499999999999999e-10,1.809120634197433e-08,6.499999999999999e-10,4.999999981631962
7.499999999999999e-10,5,7.499999999999999e-10,1.809120556497802e-08,7.499999999999999e-10,4.999999981631962
8.499999999999999e-10,5,8.499999999999999e-10,1.809120618127356e-08,8.499999999999999e-10,4.999999981631962
9.25e-10,5,9.25e-10,1.809120528993274e-08,9.25e-10,4.999999981631962
1e-09,5,1e-09,1.809120548714e-08,1e-09,4.999999981631961
1.000458430167902e-09,4.977078491604921,1.000458430167902e-09,-0.001792027372212998,1.000458430167902e-09,4.999621617249356
1.000810094007167e-09,4.95949529964164,1.000810094007167e-09,-0.003162527737957705,1.000810094007167e-09,4.999334367790695
1.001513421685698e-09,4.92432891571508,1.001513421685698e-09,-0.005887236193666981,1.001513421685698e-09,4.998771563172268
1.00266162715523e-09,4.866918642238499,1.00266162715523e-09,-0.01028653344305274,1.00266162715523e-09,4.997887524648664
1.004958038094293e-09,4.752098095285338,1.004958038094293e-09,-0.01890666320734465,1.004958038094293e-09,4.996243747017492
1.00955085997242e-09,4.522457001379017,1.00955085997242e-09,-0.03548981751513821,1.00955085997242e-09,4.9934017475082
1.011126944702968e-09,4.44365276485162,1.011126944702968e-09,-0.04104237085124075,1.011126944702968e-09,4.992544225771487
1.01256800538858e-09,4.371599730571027,1.01256800538858e-09,-0.04625061667034222,1.01256800538858e-09,4.991768834636898
1.01354176751493e-09,4.32291162425349,1.01354176751493e-09,-0.05004677697013114,1.01354176751493e-09,4.991205832257812
1.014453382909754e-09,4.277330854512307,1.014453382909754e-09,-0.05392993219947224,1.014453382909754e-09,4.990624142341241
1.015438170742442e-09,4.228091462877901,1.015438170742442e-09,-0.05843488163584883,1.015438170742442e-09,4.989948029533356
1.01683765891803e-09,4.15811705409851,1.01683765891803e-09,-0.06505240841382841,1.01683765891803e-09,4.988975718682385
1.017831518022653e-09,4.108424098867373,1.017831518022653e-09,-0.06971201853444797,1.017831518022653e-09,4.988318053050769
1.018812100983222e-09,4.059394950838914,1.018812100983222e-09,-0.07418893433830702,1.018812100983222e-09,4.987713720004943
1.020098645374696e-09,3.995067731265185,1.020098645374696e-09,-0.07981292474928599,1.020098645374696e-09,4.987000079545146
1.021793121469557e-09,3.910343926522155,1.021793121469557e-09,-0.08671022055150501,1.021793121469557e-09,4.98620801766663
1.023930386219698e-09,3.803480689015122,1.023930386219698e-09,-0.09449095608472062,1.023930386219698e-09,4.985455659878072
1.02655975546952e-09,3.672012226523983,1.02655975546952e-09,-0.102541575548885,1.02655975546952e-09,4.984907461773056
1.029663793149671e-09,3.516810342516464,1.029663793149671e-09,-0.1097457011392323,1.029663793149671e-09,4.98478385314393
1.033214264869197e-09,3.339286756540165,1.033214264869197e-09,-0.114782141561475,1.033214264869197e-09,4.985306214782885
1.037266272206939e-09,3.136686389653033,1.037266272206939e-09,-0.1162078212663686,1.037266272206939e-09,4.986707978713541
1.041983853200735e-09,2.900807339963264,1.041983853200735e-09,-0.111940006273018,1.041983853200735e-09,4.98931795184155
1.047762937152483e-09,2.611853142375831,1.047762937152483e-09,-0.09793080812291446,1.047762937152483e-09,4.99376560681755
1.055536489556826e-09,2.223175522158707,1.055536489556826e-09,-0.06371468367866996,1.055536489556826e-09,5.00163512767426
1.064762894172421e-09,1.761855291378931,1.064762894172421e-09,0.0003592067440470141,1.064762894172421e-09,5.013655644018789
1.071389786044713e-09,1.430510697764347,1.071389786044713e-09,0.06193225977784467,1.071389786044713e-09,5.02351488356409
1.073885644182762e-09,1.305717790861917,1.073885644182762e-09,0.08889916917108687,1.073885644182762e-09,5.027548768737188
1.076784143765052e-09,1.1607928117474,1.076784143765052e-09,0.1234370925268715,1.076784143765052e-09,5.032554466609708
1.079236269789183e-09,1.038186510540837,1.079236269789183e-09,0.1560399639721618,1.079236269789183e-09,5.037183060464426
1.081226878094285e-09,0.9386560952857321,1.081226878094285e-09,0.1846163575474828,1.081226878094285e-09,5.041152661819284
1.084058187103244e-09,0.7970906448377946,1.084058187103244e-09,0.2286541947735255,1.084058187103244e-09,5.047130584011883
1.088185382532568e-09,0.590730873371605,1.088185382532568e-09,0.2986528845996783,1.088185382532568e-09,5.056211734323585
1.091079091707229e-09,0.4460454146385517,1.091079091707229e-09,0.3510548300838617,1.091079091707229e-09,5.062660577531844
1.094045486702495e-09,0.2977256648752284,1.094045486702495e-09,0.4075030362810317,1.094045486702495e-09,5.069318081081715
1.097022743351248e-09,0.1488628324376124,1.097022743351248e-09,0.4668608057474299,1.097022743351248e-09,5.076035967957301
1.1e-09,0,1.1e-09,0.5288409972936361,1.1e-09,5.082778888384214
1.100619932993724e-09,0,1.100619932993724e-09,0.5449312325001239,1.100619932993724e-09,5.084795606033749
1.101274265641614e-09,0,1.101274265641614e-09,0.5618644514894817,1.101274265641614e-09,5.086887996240999
1.102088493735097e-09,0,1.102088493735097e-09,0.5828336817320413,1.102088493735097e-09,5.089422649403619
1.103716949922061e-09,0,1.103716949922061e-09,0.6244111947038573,1.103716949922061e-09,5.094255049127689
1.106973862295991e-09,0,1.106973862295991e-09,0.706162525914936,1.106973862295991e-09,5.103049252642716
1.113487687043851e-09,0,1.113487687043851e-09,0.8630107958192269,1.113487687043851e-09,5.117854724307366
1.117995235221433e-09,0,1.117995235221433e-09,0.963076920089152,1.117995235221433e-09,5.126401466508343
1.121889846246855e-09,0,1.121889846246855e-09,1.04519403217763,1.121889846246855e-09,5.13198073773824
1.126984246913552e-09,0,1.126984246913552e-09,1.149224267908819,1.126984246913552e-09,5.135739052376994
1.131678892115342e-09,0,1.131678892115342e-09,1.242364807190642,1.131678892115342e-09,5.135465482550199
1.138965443059043e-09,0,1.138965443059043e-09,1.382384028359312,1.138965443059043e-09,5.128230734351287
1.143055205182913e-09,0,1.143055205182913e-09,1.458709029148454,1.143055205182913e-09,5.120718705778494
1.151234729430653e-09,0,1.151234729430653e-09,1.606988457322884,1.151234729430653e-09,5.099013958559236
1.156972327419084e-09,0,1.156972327419084e-09,1.707682257707652,1.156972327419084e-09,5.078827194559
1.168447523395946e-09,0,1.168447523395946e-09,1.901149221171327,1.168447523395946e-09,5.027576206526275
1.17654864772273e-09,0,1.17654864772273e-09,2.03169588250371,1.17654864772273e-09,4.98399972592077
1.192750896376298e-09,0,1.192750896376298e-09,2.277232979310281,1.192750896376298e-09,4.880665512908308
1.198337702420234e-09,0,1.198337702420234e-09,2.35648821797214,1.198337702420234e-09,4.838990463484939
1.209511314508106e-09,0,1.209511314508106e-09,2.507023525202948,1.209511314508106e-09,4.746210329765213
1.219077973444793e-09,0,1.219077973444793e-09,2.628066151436533,1.219077973444793e-09,4.655914147434487
1.225671474961571e-09,0,1.225671474961571e-09,2.707742213187037,1.225671474961571e-09,4.586942877766114
1.232275356548585e-09,0,1.232275356548585e-09,2.784949644004998,1.232275356548585e-09,4.511108460709124
1.238052403360212e-09,0,1.238052403360212e-09,2.850873702965723,1.238052403360212e-09,4.437749936237958
1.243324615953157e-09,0,1.243324615953157e-09,2.91021562124546,1.243324615953157e-09,4.363404455671956
1.248046290576054e-09,0,1.248046290576054e-09,2.962801731320534,1.248046290576054e-09,4.289640250954077
1.257489639821849e-09,0,1.257489639821849e-09,3.064393701787183,1.257489639821849e-09,4.12023128468994
1.26281025871465e-09,0,1.26281025871465e-09,3.118595743938434,1.26281025871465e-09,4.012421807329105
1.273451496500253e-09,0,1.273451496500253e-09,3.220021765067376,1.273451496500253e-09,3.770607055589904
1.28133148179283e-09,0,1.28133148179283e-09,3.289359134302565,1.28133148179283e-09,3.569727940461777
1.290363671436702e-09,0,1.290363671436702e-09,3.363239869680332,1.290363671436702e-09,3.317963457393463
1.29922531940267e-09,0,1.29922531940267e-09,3.430363177603609,1.29922531940267e-09,3.050185450972384
1.308322734217316e-09,0,1.308322734217316e-09,3.494217447567575,1.308322734217316e-09,2.755839945652338
1.316845304905363e-09,0,1.316845304905363e-09,3.549798590879492,1.316845304905363e-09,2.46423497497999
1.323959019315132e-09,0,1.323959019315132e-09,3.593329778442977,1.323959019315132e-09,2.210760085820576
1.329059296202694e-09,0,1.329059296202694e-09,3.623070195208789,1.329059296202694e-09,2.024431786984294
1.333029768310146e-09,0,1.333029768310146e-09,3.645439964138106,1.333029768310146e-09,1.877495758703884
1.340970712525051e-09,0,1.340970712525051e-09,3.688412692779182,1.340970712525051e-09,1.584988044574978
1.349405858183353e-09,0,1.349405858183353e-09,3.731027149555013,1.349405858183353e-09,1.296186099883392
1.355760217741236e-09,0,1.355760217741236e-09,3.760716252807375,1.355760217741236e-09,1.103748012180959
1.362579639223657e-09,0,1.362579639223657e-09,3.791998244788302,1.362579639223657e-09,0.923378359598284
1.369204215240995e-09,0,1.369204215240995e-09,3.82306600277646,1.369204215240995e-09,0.773136405904205
1.374534237899103e-09,0,1.374534237899103e-09,3.848919531685869,1.374534237899103e-09,0.6689431120720625
1.379536613340861e-09,0,1.379536613340861e-09,3.873919958876819,1.379536613340861e-09,0.583581463687212
1.38414279619488e-09,0,1.38414279619488e-09,3.89750588829476,1.38414279619488e-09,0.514652561448758
1.393355161902919e-09,0,1.393355161902919e-09,3.945778568101656,1.393355161902919e-09,0.4003763043880319
1.397648258777515e-09,0,1.397648258777515e-09,3.968649418528524,1.397648258777515e-09,0.3567140467345393
1.406234452526709e-09,0,1.406234452526709e-09,4.014545632323275,1.406234452526709e-09,0.2838744878531413
1.410973561123455e-09,0,1.410973561123455e-09,4.039822084457143,1.410973561123455e-09,0.2508846697846468
1.420451778316946e-09,0,1.420451778316946e-09,4.089758481684099,1.420451778316946e-09,0.1967525326274425
1.425848840810293e-09,0,1.425848840810293e-09,4.117702843475059,1.425848840810293e-09,0.1719678860022259
1.432456350503957e-09,0,1.432456350503957e-09,4.151295137099599,1.432456350503957e-09,0.1463854015466607
1.438746345827719e-09,0,1.438746345827719e-09,4.182573834717257,1.438746345827719e-09,0.1260817108627399
1.445574157434371e-09,0,1.445574157434371e-09,4.215730523264163,1.445574157434371e-09,0.1077222447929546
1.452751621638627e-09,0,1.452751621638627e-09,4.249731530958818,1.452751621638627e-09,0.09181857090093432
1.460563011925345e-09,0,1.460563011925345e-09,4.285869165516105,1.460563011925345e-09,0.07770143355356171
1.469395799146826e-09,0,1.469395799146826e-09,4.325840861604994,1.469395799146826e-09,0.0648758822619749
1.480377568768277e-09,0,1.480377568768277e-09,4.374208112003189,1.480377568768277e-09,0.05243683013934002
1.489953162843848e-09,0,1.489953162843848e-09,4.414704130385763,1.489953162843848e-09,0.04410809374026295
1.509104350994991e-09,0,1.509104350994991e-09,4.489341691950846,1.509104350994991e-09,0.03227974430333255
1.524632996384642e-09,0,1.524632996384642e-09,4.543201310878948,1.524632996384642e-09,0.02609095877228754
1.5390333715161e-09,0,1.5390333715161e-09,4.588101917205296,1.5390333715161e-09,0.02209393164771753
1.554487525983972e-09,0,1.554487525983972e-09,4.631398353793283,1.554487525983972e-09,0.01892754579955804
1.571611921564138e-09,0,1.571611921564138e-09,4.674085545620966,1.571611921564138e-09,0.01623999054843903
1.590722443801294e-09,0,1.590722443801294e-09,4.7159207974594,1.590722443801294e-09,0.01387256981903862
1.612009765726147e-09,0,1.612009765726147e-09,4.756239071199966,1.612009765726147e-09,0.01174487874849273
1.635597826362647e-09,0,1.635597826362647e-09,4.794278386473697,1.635597826362647e-09,0.009820520009344661
1.66161787955919e-09,0,1.66161787955919e-09,4.829409521039062,1.66161787955919e-09,0.008086377565784437
1.690275400477348e-09,0,1.690275400477348e-09,4.861227599831598,1.690275400477348e-09,0.006539015164232872
1.721893290765151e-09,0,1.721893290765151e-09,4.889532434958975,1.721893290765151e-09,0.005176977514151359
1.756947715746835e-09,0,1.756947715746835e-09,4.914273383373141,1.756947715746835e-09,0.003997098977799898
1.796110664239763e-09,0,1.796110664239763e-09,4.935496563925036,1.796110664239763e-09,0.002993498877979581
1.84031166152392e-09,0,1.84031166152392e-09,4.953307413257034,1.84031166152392e-09,0.002157958694525616
1.890838966707505e-09,0,1.890838966707505e-09,4.967851768616844,1.890838966707505e-09,0.001480570719899474
1.949513559511034e-09,0,1.949513559511034e-09,4.979312110021873,1.949513559511034e-09,0.0009500970456884856
2.018997293216785e-09,0,2.018997293216785e-09,4.987913627942514,2.018997293216785e-09,0.0005539017196305939
2.103364186606997e-09,0,2.103364186606997e-09,4.993935722928233,2.103364186606997e-09,0.000277519364172567
2.203364186606997e-09,0,2.203364186606997e-09,4.997558799074604,2.203364186606997e-09,0.0001116456895177558
2.303364186606997e-09,0,2.303364186606997e-09,4.999160268937419,2.303364186606997e-09,3.842191195238644e-05
2.403364186606997e-09,0,2.403364186606997e-09,4.999791782078491,2.403364186606997e-09,9.549116516614079e-06
2.503364186606997e-09,0,2.503364186606997e-09,5.000001561867493,2.503364186606997e-09,-5.128492488594118e-08
2.603364186606997e-09,0,2.603364186606997e-09,5.000048631043757,2.603364186606997e-09,-2.211368270062287e-06
2.703364186606997e-09,0,2.703364186606997e-09,5.000042950926146,2.703364186606997e-09,-1.997551975197193e-06
2.803364186606997e-09,0,2.803364186606997e-09,5.00002732270676,2.803364186606997e-09,-1.2904763556599e-06
2.903364186606997e-09,0,2.903364186606997e-09,5.000014893131963,2.903364186606997e-09,-6.930025944785323e-07
3.003364186606997e-09,0,3.003364186606997e-09,5.000007257783756,3.003364186606997e-09,-3.243863971274669e-07
3.103364186606998e-09,0,3.103364186606998e-09,5.000003177821351,3.103364186606998e-09,-1.31430377763691e-07
3.203364186606998e-09,0,3.203364186606998e-09,5.000001218410619,3.203364186606998e-09,-4.062099009423319e-08
3.303364186606998e-09,0,3.303364186606998e-09,5.000000371039591,3.303364186606998e-09,-1.672305397227315e-09
3.403364186606998e-09,0,3.403364186606998e-09,5.000000048827913,3.403364186606998e-09,1.318273198128626e-08
3.503364186606998e-09,0,3.503364186606998e-09,4.999999949410172,3.503364186606998e-09,1.780473031110227e-08
3.603364186606998e-09,0,3.603364186606998e-09,4.999999931495974,3.603364186606998e-09,1.85667030827081e-08
3.703364186606998e-09,0,3.703364186606998e-09,4.999999938424641,3.703364186606998e-09,1.828706067523366e-08
3.803364186606998e-09,0,3.803364186606998e-09,4.999999948831721,3.803364186606998e-09,1.783517059681978e-08
3.903364186606998e-09,0,3.903364186606998e-09,4.999999956709552,3.903364186606998e-09,1.748042369263241e-08
4.003364186606998e-09,0,4.003364186606998e-09,4.999999961495789,4.003364186606998e-09,1.726090472541069e-08
4.103364186606998e-09,0,4.103364186606998e-09,4.999999964051439,4.103364186606998e-09,1.714308715619434e-08
4.203364186606998e-09,0,4.203364186606998e-09,4.999999965284899,4.203364186606998e-09,1.708633075608047e-08
4.303364186606998e-09,0,4.303364186606998e-09,4.999999965824558,4.303364186606998e-09,1.706159075383618e-08
4.403364186606998e-09,0,4.403364186606998e-09,4.999999966034497,4.403364186606998e-09,1.705199156030145e-08
4.503364186606998e-09,0,4.503364186606998e-09,4.999999966102591,4.503364186606998e-09,1.704888121867019e-08
4.603364186606998e-09,0,4.603364186606998e-09,4.999999966116757,4.603364186606998e-09,1.704823440112513e-08
4.703364186606998e-09,0,4.703364186606998e-09,4.999999966114164,4.703364186606998e-09,1.704835256593741e-08
4.803364186606998e-09,0,4.803364186606998e-09,4.999999966108596,4.803364186606998e-09,1.704860723349035e-08
4.903364186606998e-09,0,4.903364186606998e-09,4.999999966104132,4.903364186606998e-09,1.704881191496631e-08
5.003364186606998e-09,0,5.003364186606998e-09,4.999999966101342,5.003364186606998e-09,1.704893969232954e-08
5.103364186606998e-09,0,5.103364186606998e-09,4.999999966099824,5.103364186606998e-09,1.704900873958807e-08
5.203364186606999e-09,0,5.203364186606999e-09,4.99999996609908,5.203364186606999e-09,1.704904315306735e-08
5.303364186606999e-09,0,5.303364186606999e-09,4.999999966098747,5.303364186606999e-09,1.70490582671239e-08
5.403364186606999e-09,0,5.403364186606999e-09,4.999999966098614,5.403364186606999e-09,1.70490639401407e-08
5.503364186606999e-09,0,5.503364186606999e-09,4.99999996609857,5.503364186606999e-09,1.704906647616388e-08
5.603364186606999e-09,0,5.603364186606999e-09,4.99999996609856,5.603364186606999e-09,1.704906691887558e-08
5.703364186606999e-09,0,5.703364186606999e-09,4.999999966098561,5.703364186606999e-09,1.704906671187507e-08
5.803364186606999e-09,0,5.803364186606999e-09,4.999999966098565,5.803364186606999e-09,1.704906702600995e-08
5.903364186606999e-09,0,5.903364186606999e-09,4.999999966098566,5.903364186606999e-09,1.704906670788844e-08
6.003364186606999e-09,0,6.003364186606999e-09,4.999999966098566,6.003364186606999e-09,1.70490666350136e-08
6.1e-09,0,6.1e-09,4.999999966098567,6.1e-09,1.704906687015753e-08
6.1015625e-09,0.07812500000000587,6.1015625e-09,5.009740568212564,6.1015625e-09,0.001940363027024173
6.104122720062094e-09,0.2061360031047139,6.104122720062094e-09,5.025676639888658,6.104122720062094e-09,0.004930134165425266
6.109243160186283e-09,0.46215800931413,6.109243160186283e-09,5.057312896402612,6.109243160186283e-09,0.01009690072090863
6.111719228272803e-09,0.5859614136401375,6.111719228272803e-09,5.072453105658645,6.111719228272803e-09,0.01221889566340201
6.116671364445843e-09,0.8335682222921525,6.116671364445843e-09,5.102493520284697,6.116671364445843e-09,0.0158479248432215
6.126575636791924e-09,1.328781839596183,6.126575636791924e-09,5.160975224132248,6.126575636791924e-09,0.02106579838441332
6.128515537894678e-09,1.425776894733874,6.128515537894678e-09,5.171347871787726,6.128515537894678e-09,0.02162787042539665
6.132395340100185e-09,1.619767005009258,6.132395340100185e-09,5.190428368959211,6.132395340100185e-09,0.02228822328503243
6.140154944511201e-09,2.007747225560024,6.140154944511201e-09,5.221355653392715,6.140154944511201e-09,0.02202209225497187
6.146695151042256e-09,2.33475755211279,6.146695151042256e-09,5.239823180156806,6.146695151042256e-09,0.02044218814968842
6.154858923806675e-09,2.742946190333747,6.154858923806675e-09,5.253090354387518,6.154858923806675e-09,0.01717283826381744
6.163121978570109e-09,3.156098928505446,6.163121978570109e-09,5.255421600042888,6.163121978570109e-09,0.01277440182311934
6.170770746958891e-09,3.538537347944557,6.170770746958891e-09,5.247708960959706,6.170770746958891e-09,0.008003977611370375
6.176396769040553e-09,3.819838452027647,6.176396769040553e-09,5.235772859070954,6.176396769040553e-09,0.00413309849473346
6.179301392090212e-09,3.965069604510616,6.179301392090212e-09,5.227280205033265,6.179301392090212e-09,0.001986879163641427
6.185110638189531e-09,4.255531909476553,6.185110638189531e-09,5.203964084772549,6.185110638189531e-09,-0.002954907862811093
6.192555319094766e-09,4.627765954738278,6.192555319094766e-09,5.144087174167512,6.192555319094766e-09,-0.01348402845237749
6.196277659547383e-09,4.813882977369141,6.196277659547383e-09,5.10363734950926,6.196277659547383e-09,-0.01978914693833986
6.2e-09,5,6.2e-09,5.0597354217919,6.2e-09,-0.02593490510776456
6.200933190477737e-09,5,6.200933190477737e-09,5.04510752841075,6.200933190477737e-09,-0.02807611061029652
