/net1 X,/net1 Y,/net09 X,/net09 Y,/o1 X,/o1 Y
0,0,0,4.999999981631962,0,1.704906655848801e-08
1e-11,0,1e-11,4.999999981631962,1e-11,1.704906653581845e-08
3e-11,0,3e-11,4.999999981631962,3e-11,1.70490665739322e-08
6.999999999999999e-11,0,6.999999999999999e-11,4.999999981631961,6.999999999999999e-11,1.704906662474243e-08
1.5e-10,0,1.5e-10,4.99999998163196,1.5e-10,1.704906690349881e-08
2.5e-10,0,2.5e-10,4.99999998163196,2.5e-10,1.704906693859297e-08
3.5e-10,0,3.5e-10,4.999999981631962,3.5e-10,1.704906638367401e-08
4.5e-10,0,4.5e-10,4.999999981631962,4.5e-10,1.704906622569668e-08
5.5e-10,0,5.5e-10,4.999999981631962,5.5e-10,1.704906636952588e-08
6.499999999999999e-10,0,6.499999999999999e-10,4.999999981631962,6.499999999999999e-10,1.704906636292887e-08
7.499999999999999e-10,0,7.499999999999999e-10,4.999999981631962,7.499999999999999e-10,1.704906621328082e-08
8.499999999999999e-10,0,8.499999999999999e-10,4.999999981631962,8.499999999999999e-10,1.704906638756483e-08
9.25e-10,0,9.25e-10,4.999999981631962,9.25e-10,1.704906659249625e-08
1e-09,0,1e-09,4.999999981631962,1e-09,1.704906614385209e-08
1.000042608538347e-09,0.002130426917340556,1.000042608538347e-09,5.00011064286593,1.000042608538347e-09,2.337584153154096e-05
1.000073754935942e-09,0.00368774679708731,1.000073754935942e-09,5.000191524024935,1.000073754935942e-09,4.04339002912882e-05
1.000136047731132e-09,0.006802386556580818,1.000136047731132e-09,5.000353217258071,1.000136047731132e-09,7.447795562150832e-05
1.000260633321511e-09,0.01303166607556783,1.000260633321511e-09,5.000676295497948,1.000260633321511e-09,0.0001422556853904391
1.000509804502271e-09,0.02549022511354186,1.000509804502271e-09,5.001321198871963,1.000509804502271e-09,0.0002765603004524387
1.00100814686379e-09,0.05040734318948992,1.00100814686379e-09,5.002606019231915,1.00100814686379e-09,0.0005402250452285793
1.002004831586828e-09,0.100241579341386,1.002004831586828e-09,5.005156066939948,1.002004831586828e-09,0.001048340348118825
1.003998201032904e-09,0.1999100516451783,1.003998201032904e-09,5.0101806351725,1.003998201032904e-09,0.001992078827707925
1.006965476383814e-09,0.3482738191906821,1.006965476383814e-09,5.017484204184959,1.006965476383814e-09,0.003233657881785472
1.010078562733493e-09,0.5039281366746714,1.010078562733493e-09,5.024936267427871,1.010078562733493e-09,0.004348649093892557
1.013333902144037e-09,0.6666951072018317,1.013333902144037e-09,5.032519467239752,1.013333902144037e-09,0.005335368942378617
1.01674408263345e-09,0.8372041316724846,1.01674408263345e-09,5.040352347755737,1.01674408263345e-09,0.006218636623991794
1.018661899587756e-09,0.9330949793877759,1.018661899587756e-09,5.045029245955596,1.018661899587756e-09,0.006718126011943433
1.020388338160781e-09,1.019416908039065,1.020388338160781e-09,5.049409050738482,1.020388338160781e-09,0.00717058319419141
1.021851704785784e-09,1.092585239289217,1.021851704785784e-09,5.053031219339233,1.021851704785784e-09,0.007512204099799393
1.023292004026727e-09,1.164600201336332,1.023292004026727e-09,5.056428429650614,1.023292004026727e-09,0.007795125786424615
1.025243303017462e-09,1.262165150873092,1.025243303017462e-09,5.060705861497477,1.025243303017462e-09,0.008087474523322232
1.028509435449743e-09,1.425471772487153,1.028509435449743e-09,5.066926756724526,1.028509435449743e-09,0.008343993953414178
1.033006878982099e-09,1.650343949104943,1.033006878982099e-09,5.073406914802471,1.033006878982099e-09,0.008247016821170251
1.037523247373021e-09,1.876162368651065,1.037523247373021e-09,5.077343697404079,1.037523247373021e-09,0.007670270578664051
1.041629030885416e-09,2.08145154427081,1.041629030885416e-09,5.078601023177026,1.041629030885416e-09,0.006773337572975132
1.04560654138048e-09,2.280327069023988,1.04560654138048e-09,5.077653959314442,1.04560654138048e-09,0.005606518026750396
1.049562779140726e-09,2.478138957036278,1.049562779140726e-09,5.074558484984059,1.049562779140726e-09,0.004191323191404666
1.053593269735851e-09,2.679663486792537,1.053593269735851e-09,5.069163152476774,1.053593269735851e-09,0.002521420570839101
1.057794622689352e-09,2.889731134467606,1.057794622689352e-09,5.061095325807056,1.057794622689352e-09,0.0005663345662471858
1.062244489078267e-09,3.112224453913329,1.062244489078267e-09,5.049795078126234,1.062244489078267e-09,-0.001791913686058882
1.066258082005203e-09,3.312904100260156,1.066258082005203e-09,5.037117281002616,1.066258082005203e-09,-0.004107589594196762
1.069662511619197e-09,3.483125580959835,1.069662511619197e-09,5.024468347986639,1.069662511619197e-09,-0.006183246786868955
1.073579715940693e-09,3.678985797034665,1.073579715940693e-09,5.007689432471793,1.073579715940693e-09,-0.008692712523678529
1.078130172009993e-09,3.90650860049966,1.078130172009993e-09,4.985120009559625,1.078130172009993e-09,-0.01176355062604317
1.079754592191549e-09,3.987729609577444,1.079754592191549e-09,4.976058371427205,1.079754592191549e-09,-0.01293997768439627
1.081272386270646e-09,4.063619313532312,1.081272386270646e-09,4.966646917406785,1.081272386270646e-09,-0.01417277133759318
1.082727130323128e-09,4.136356516156379,1.082727130323128e-09,4.956373874267212,1.082727130323128e-09,-0.01555260568839056
1.084029887331598e-09,4.201494366579908,1.084029887331598e-09,4.946368389336386,1.084029887331598e-09,-0.01689416259398979
1.085345321165109e-09,4.267266058255423,1.085345321165109e-09,4.935789804083157,1.085345321165109e-09,-0.01828108817045457
1.086600168139054e-09,4.330008406952718,1.086600168139054e-09,4.925364556823023,1.086600168139054e-09,-0.01960856873430148
1.088286588052387e-09,4.414329402619368,1.088286588052387e-09,4.910887328022314,1.088286588052387e-09,-0.0213887197119388
1.09118525270689e-09,4.559262635344476,1.09118525270689e-09,4.88477291592546,1.09118525270689e-09,-0.02443537272017324
1.095592626353445e-09,4.77963131767224,1.095592626353445e-09,4.84205375571052,1.095592626353445e-09,-0.02904917035497452
1.1e-09,5,1.1e-09,4.795639031542375,1.1e-09,-0.03366063638606347
1.100732525189409e-09,5,1.100732525189409e-09,4.786310748067645,1.100732525189409e-09,-0.03468413898455652
1.101515890927122e-09,5,1.101515890927122e-09,4.776332159483565,1.101515890927122e-09,-0.03575703070713366
1.102542333649267e-09,5,1.102542333649267e-09,4.763257136593386,1.102542333649267e-09,-0.0371178326042531
1.10452294303505e-09,5,1.10452294303505e-09,4.738030398633446,1.10452294303505e-09,-0.03959652898745421
1.108484161806616e-09,5,1.108484161806616e-09,4.687580507808807,1.108484161806616e-09,-0.04402739126996065
1.11268284054223e-09,5,1.11268284054223e-09,4.634101762905628,1.11268284054223e-09,-0.04805512172108568
1.116859946829538e-09,5,1.116859946829538e-09,4.580891901229917,1.116859946829538e-09,-0.05148363617887904
1.12129054682483e-09,5,1.12129054682483e-09,4.524479695223269,1.12129054682483e-09,-0.05459881291093531
1.125962877513701e-09,5,1.125962877513701e-09,4.46520225950549,1.125962877513701e-09,-0.05741477747782482
1.130886782774407e-09,5,1.130886782774407e-09,4.403709745038355,1.130886782774407e-09,-0.05998963400379371
1.135914180046541e-09,5,1.135914180046541e-09,4.343771303540032,1.135914180046541e-09,-0.06233859177917798
1.141044870168136e-09,5,1.141044870168136e-09,4.286914571269773,1.141044870168136e-09,-0.06444156442944561
1.144774833441015e-09,5,1.144774833441015e-09,4.247665222761897,1.144774833441015e-09,-0.06565306968703465
1.149023575597662e-09,5,1.149023575597662e-09,4.204098729111448,1.149023575597662e-09,-0.06653266839630698
1.153164997056504e-09,5,1.153164997056504e-09,4.162252600881162,1.153164997056504e-09,-0.06675042301845972
1.157585516176748e-09,5,1.157585516176748e-09,4.117982204146474,1.157585516176748e-09,-0.06618871131920624
1.162718947364351e-09,5,1.162718947364351e-09,4.066943554050516,1.162718947364351e-09,-0.06443517189817077
1.16912818032235e-09,5,1.16912818032235e-09,4.003696211808775,1.16912818032235e-09,-0.06055559975439773
1.172099212645859e-09,5,1.172099212645859e-09,3.974545813973938,1.172099212645859e-09,-0.05812486805211826
1.178041277292876e-09,5,1.178041277292876e-09,3.916548249372016,1.178041277292876e-09,-0.05210666125742331
1.186630932566568e-09,5,1.186630932566568e-09,3.833384456606869,1.186630932566568e-09,-0.04082738694429608
1.19437001975609e-09,5,1.19437001975609e-09,3.759100708930767,1.19437001975609e-09,-0.02820729001885701
1.202070575974996e-09,5,1.202070575974996e-09,3.685752637232889,1.202070575974996e-09,-0.01349652249537439
1.209858499754015e-09,5,1.209858499754015e-09,3.612127253238834,1.209858499754015e-09,0.003280268324954108
1.216237880350552e-09,5,1.216237880350552e-09,3.552286722831278,1.216237880350552e-09,0.01798726031187944
1.220913349084786e-09,5,1.220913349084786e-09,3.508673528299474,1.220913349084786e-09,0.02961080936118784
1.2251112303835e-09,5,1.2251112303835e-09,3.469688415791813,1.2251112303835e-09,0.04064394434901774
1.233506992980929e-09,5,1.233506992980929e-09,3.392199017553664,1.233506992980929e-09,0.06436097768661481
1.241081960179917e-09,5,1.241081960179917e-09,3.322829743480889,1.241081960179917e-09,0.08762800436883832
1.250577024305299e-09,5,1.250577024305299e-09,3.236603583775428,1.250577024305299e-09,0.1192940240269773
1.26190307709434e-09,5,1.26190307709434e-09,3.134819116437693,1.26190307709434e-09,0.1607822707773861
1.27172767429877e-09,5,1.27172767429877e-09,3.04749185469365,1.27172767429877e-09,0.2001921153984325
1.285982331942629e-09,5,1.285982331942629e-09,2.92246683062325,1.285982331942629e-09,0.2635574147375292
1.29961219971777e-09,5,1.29961219971777e-09,2.804898105384035,1.29961219971777e-09,0.3319201787459561
1.311717231397777e-09,5,1.311717231397777e-09,2.702199875470131,1.311717231397777e-09,0.4001899916771286
1.322889444262169e-09,5,1.322889444262169e-09,2.608903494424202,1.322889444262169e-09,0.470943669417773
1.333076290949184e-09,5,1.333076290949184e-09,2.525040409053712,1.333076290949184e-09,0.5436354050389745
1.341674950390382e-09,5,1.341674950390382e-09,2.454985742010512,1.341674950390382e-09,0.6128021071537714
1.349843132756001e-09,5,1.349843132756001e-09,2.388816094825808,1.349843132756001e-09,0.6872464655498967
1.357245926930734e-09,5,1.357245926930734e-09,2.329052363079933,1.357245926930734e-09,0.7642442051524991
1.364112730306269e-09,5,1.364112730306269e-09,2.274194965629376,1.364112730306269e-09,0.8454919196438231
1.371226842853782e-09,5,1.371226842853782e-09,2.218809225380154,1.371226842853782e-09,0.9409495023446108
1.379362896760112e-09,5,1.379362896760112e-09,2.158082111741807,1.379362896760112e-09,1.065058305414612
1.386452181964405e-09,5,1.386452181964405e-09,2.107704272889489,1.386452181964405e-09,1.186129170829696
1.395420897801872e-09,5,1.395420897801872e-09,2.047385873349156,1.395420897801872e-09,1.35565748491146
1.408114211768174e-09,5,1.408114211768174e-09,1.96816474876192,1.408114211768174e-09,1.623396545196166
1.417423209944688e-09,5,1.417423209944688e-09,1.914285184773671,1.417423209944688e-09,1.837860919537691
1.428356032492092e-09,5,1.428356032492092e-09,1.855002416401625,1.428356032492092e-09,2.105515892822197
1.438417630493239e-09,5,1.438417630493239e-09,1.803741075899593,1.438417630493239e-09,2.363505645924226
1.447333639172426e-09,5,1.447333639172426e-09,1.760536089678885,1.447333639172426e-09,2.598659461853322
1.45882399213869e-09,5,1.45882399213869e-09,1.707226942984241,1.45882399213869e-09,2.905831622875749
1.467330755839826e-09,5,1.467330755839826e-09,1.669059132968175,1.467330755839826e-09,3.132696002537105
1.472942189062728e-09,5,1.472942189062728e-09,1.644357970618191,1.472942189062728e-09,3.280136123650914
1.482707102196817e-09,5,1.482707102196817e-09,1.602384591441094,1.482707102196817e-09,3.524990566628285
1.49172500280781e-09,5,1.49172500280781e-09,1.566687196056523,1.49172500280781e-09,3.729237611873792
1.500101837955158e-09,5,1.500101837955158e-09,1.536532901482865,1.500101837955158e-09,3.896125271703065
1.510931641427419e-09,5,1.510931641427419e-09,1.498427438910843,1.510931641427419e-09,4.080637170833379
1.520785638711901e-09,5,1.520785638711901e-09,1.462170202158127,1.520785638711901e-09,4.221390083942666
1.534084518432107e-09,5,1.534084518432107e-09,1.409353310453814,1.534084518432107e-09,4.376765127252812
1.544208299931643e-09,5,1.544208299931643e-09,1.366097782464643,1.544208299931643e-09,4.472633667022973
1.552495402523945e-09,5,1.552495402523945e-09,1.329021044049825,1.552495402523945e-09,4.539096279538114
1.56663021747888e-09,5,1.56663021747888e-09,1.263520146945142,1.56663021747888e-09,4.63287720982667
1.576579464176114e-09,5,1.576579464176114e-09,1.216291873961722,1.576579464176114e-09,4.686612136290696
1.586894037091861e-09,5,1.586894037091861e-09,1.166925449945792,1.586894037091861e-09,4.73376975669421
1.596239334426788e-09,5,1.596239334426788e-09,1.122207541803087,1.596239334426788e-09,4.770280470238721
1.605763042956051e-09,5,1.605763042956051e-09,1.076920944833604,1.605763042956051e-09,4.802406570343035
1.614890665931048e-09,5,1.614890665931048e-09,1.033945539904717,1.614890665931048e-09,4.82905580984512
1.62383805040861e-09,5,1.62383805040861e-09,0.9922732631767629,1.62383805040861e-09,4.851724058456837
1.632601935180585e-09,5,1.632601935180585e-09,0.9518079164774075,1.632601935180585e-09,4.870961111145424
1.641474227426887e-09,5,1.641474227426887e-09,0.9109662945073416,1.641474227426887e-09,4.887744314148417
1.651095479628996e-09,5,1.651095479628996e-09,0.8665313318787178,1.651095479628996e-09,4.903209065983399
1.663074934119631e-09,5,1.663074934119631e-09,0.8112017119579397,1.663074934119631e-09,4.918991115566739
1.673586333494049e-09,5,1.673586333494049e-09,0.7635207855627353,1.673586333494049e-09,4.930081187982235
1.686872557962348e-09,5,1.686872557962348e-09,0.705577833264006,1.686872557962348e-09,4.941134806379826
1.702145890233425e-09,5,1.702145890233425e-09,0.6429375883865843,1.702145890233425e-09,4.950749941372314
1.717936971451511e-09,5,1.717936971451511e-09,0.5829150853983037,1.717936971451511e-09,4.958195374159575
1.735183516235699e-09,5,1.735183516235699e-09,0.5228519571113415,1.735183516235699e-09,4.964357004457629
1.754589815626468e-09,5,1.754589815626468e-09,0.4618561989312722,1.754589815626468e-09,4.96967381714487
1.776285657984317e-09,5,1.776285657984317e-09,0.4013736985708797,1.776285657984317e-09,4.974303613312362
1.800315071054653e-09,5,1.800315071054653e-09,0.3430169835681015,1.800315071054653e-09,4.978373821118109
1.826735743964406e-09,5,1.826735743964406e-09,0.2881303001928177,1.826735743964406e-09,4.981983634717167
1.855580224307076e-09,5,1.855580224307076e-09,0.2378079890929938,1.855580224307076e-09,4.985188662045223
1.886936116031027e-09,5,1.886936116031027e-09,0.1927179199607977,1.886936116031027e-09,4.988018365191023
1.92102454870855e-09,5,1.92102454870855e-09,0.1530939517134436,1.92102454870855e-09,4.990491650048602
1.95823450018749e-09,5,1.95823450018749e-09,0.1188701660669034,1.95823450018749e-09,4.992624668875819
1.99915635474641e-09,5,1.99915635474641e-09,0.08980821770169245,1.99915635474641e-09,4.994434814365882
2.044633486578717e-09,5,2.044633486578717e-09,0.0655862417401495,2.044633486578717e-09,4.995941859405487
2.095844313125945e-09,5,2.095844313125945e-09,0.04585155642742581,2.095844313125945e-09,4.997167495671197
2.154444073907166e-09,5,2.154444073907166e-09,0.03024151109826775,2.154444073907166e-09,4.99813472783444
2.222816331023095e-09,5,2.222816331023095e-09,0.01838248630712254,2.222816331023095e-09,4.99886773910183
2.304531326922514e-09,5,2.304531326922514e-09,0.00987648255818142,2.304531326922514e-09,4.999392317345406
2.404531326922514e-09,5,2.404531326922514e-09,0.004312225138593589,2.404531326922514e-09,4.999734852544509
2.504531326922514e-09,5,2.504531326922514e-09,0.001696877448278901,2.504531326922514e-09,4.999895653573477
2.604531326922514e-09,5,2.604531326922514e-09,0.0005696469342654667,2.604531326922514e-09,4.999964936692399
2.704531326922514e-09,5,2.704531326922514e-09,0.0001338608142694398,2.704531326922514e-09,4.999991736258456
2.804531326922514e-09,5,2.804531326922514e-09,-7.875859216077805e-06,2.804531326922514e-09,5.000000462039611
2.904531326922514e-09,5,2.904531326922514e-09,-3.800564365542093e-05,2.904531326922514e-09,5.000002317102429
3.004531326922514e-09,5,3.004531326922514e-09,-3.293777165939932e-05,3.004531326922514e-09,5.0000019917325
3.104531326922514e-09,5,3.104531326922514e-09,-2.141532317549998e-05,3.104531326922514e-09,5.000001283266121
3.204531326922514e-09,5,3.204531326922514e-09,-1.210018808770928e-05,3.204531326922514e-09,5.000000720306661
3.304531326922515e-09,5,3.304531326922515e-09,-6.191512131389648e-06,3.304531326922515e-09,5.000000361656812
3.404531326922515e-09,5,3.404531326922515e-09,-2.903448164247504e-06,3.404531326922515e-09,5.000000160782019
3.504531326922515e-09,5,3.504531326922515e-09,-1.239953257147045e-06,3.504531326922515e-09,5.000000058764154
3.604531326922515e-09,5,3.604531326922515e-09,-4.669401424097692e-07,3.604531326922515e-09,5.000000011308829
3.704531326922515e-09,5,3.704531326922515e-09,-1.388665597852452e-07,3.704531326922515e-09,4.999999991181786
3.804531326922515e-09,5,3.804531326922515e-09,-1.493649724969864e-08,3.804531326922515e-09,4.999999983675452
3.904531326922515e-09,5,3.904531326922515e-09,2.345195848791594e-08,3.904531326922515e-09,4.999999981271483
4.004531326922515e-09,5,4.004531326922515e-09,3.04556598328998e-08,4.004531326922515e-09,4.999999980833278
4.104531326922515e-09,5,4.104531326922515e-09,2.791433993921017e-08,4.104531326922515e-09,4.999999980970703
4.204531326922515e-09,5,4.204531326922515e-09,2.396627073633008e-08,4.204531326922515e-09,4.999999981206558
4.304531326922515e-09,5,4.304531326922515e-09,2.091691330228093e-08,4.304531326922515e-09,4.999999981393254
4.404531326922515e-09,5,4.404531326922515e-09,1.901806353394144e-08,4.404531326922515e-09,4.999999981510463
4.504531326922515e-09,5,4.504531326922515e-09,1.797161365800507e-08,4.504531326922515e-09,4.999999981575116
4.604531326922515e-09,5,4.604531326922515e-09,1.744521739988155e-08,4.604531326922515e-09,4.999999981607584
4.704531326922515e-09,5,4.704531326922515e-09,1.720144229141716e-08,4.704531326922515e-09,4.999999981622592
4.804531326922516e-09,5,4.804531326922516e-09,1.709817218098489e-08,4.804531326922516e-09,4.999999981628942
4.904531326922516e-09,5,4.904531326922516e-09,1.705920260849383e-08,4.904531326922516e-09,4.999999981631338
5.004531326922516e-09,5,5.004531326922516e-09,1.704709575617689e-08,5.004531326922516e-09,4.999999981632083
5.104531326922516e-09,5,5.104531326922516e-09,1.70449189811617e-08,5.104531326922516e-09,4.999999981632217
5.204531326922516e-09,5,5.204531326922516e-09,1.704570279103158e-08,5.204531326922516e-09,4.999999981632169
5.304531326922516e-09,5,5.304531326922516e-09,1.704692116083686e-08,5.304531326922516e-09,4.999999981632094
5.404531326922516e-09,5,5.404531326922516e-09,1.704786849038386e-08,5.404531326922516e-09,4.999999981632036
5.504531326922516e-09,5,5.504531326922516e-09,1.704845723975836e-08,5.504531326922516e-09,4.999999981632
5.604531326922516e-09,5,5.604531326922516e-09,1.704878017565981e-08,5.604531326922516e-09,4.99999998163198
5.704531326922516e-09,5,5.704531326922516e-09,1.704893961776921e-08,5.704531326922516e-09,4.999999981631969
5.804531326922516e-09,5,5.804531326922516e-09,1.704902165855004e-08,5.804531326922516e-09,4.999999981631965
5.904531326922516e-09,5,5.904531326922516e-09,1.704905402706774e-08,5.904531326922516e-09,4.999999981631962
6.004531326922516e-09,5,6.004531326922516e-09,1.704906175398435e-08,6.004531326922516e-09,4.999999981631962
6.1e-09,5,6.1e-09,1.704906724661261e-08,6.1e-09,4.999999981631962
6.1015625e-09,4.921874999999994,6.1015625e-09,-0.003071904574657915,6.1015625e-09,4.999371968511761
6.104122720062094e-09,4.793863996895286,6.104122720062094e-09,-0.00802913330039012,6.104122720062094e-09,4.998405104150973
6.109243160186283e-09,4.53784199068587,6.109243160186283e-09,-0.01761963776508649,6.109243160186283e-09,4.99672983536602
