/net3 X,/net3 Y,/net8 X,/net8 Y,/o2 X,/o2 Y
0,5,0,2.892568355444196e-08,0,4.999999981632027
1e-11,5,1e-11,2.892568170472984e-08,1e-11,4.999999981632012
3e-11,5,3e-11,2.89256801485699e-08,3e-11,4.999999981631993
6.999999999999999e-11,5,6.999999999999999e-11,2.892568132387661e-08,6.999999999999999e-11,4.999999981631971
1.5e-10,5,1.5e-10,2.892568386054357e-08,1.5e-10,4.999999981631959
2.5e-10,5,2.5e-10,2.892568445800428e-08,2.5e-10,4.999999981631959
3.5e-10,5,3.5e-10,2.892568367875482e-08,3.5e-10,4.999999981631961
4.5e-10,5,4.5e-10,2.892568351931319e-08,4.5e-10,4.999999981631962
5.5e-10,5,5.5e-10,2.89256832208573e-08,5.5e-10,4.999999981631962
6.499999999999999e-10,5,6.499999999999999e-10,2.892568311869621e-08,6.499999999999999e-10,4.999999981631962
7.499999999999999e-10,5,7.499999999999999e-10,2.89256831042613e-08,7.499999999999999e-10,4.999999981631962
8.499999999999999e-10,5,8.499999999999999e-10,2.892568294971446e-08,8.499999999999999e-10,4.999999981631962
9.25e-10,5,9.25e-10,2.892568369639165e-08,9.25e-10,4.999999981631962
1e-09,5,1e-09,2.892568356522451e-08,1e-09,4.999999981631962
1.000286102158821e-09,4.985694892058937,1.000286102158821e-09,-0.001881685255038416,1.000286102158821e-09,4.999600639816111
1.000493110254444e-09,4.975344487277814,1.000493110254444e-09,-0.003243764880024495,1.000493110254444e-09,4.999312816560232
1.000907126445689e-09,4.954643677715568,1.000907126445689e-09,-0.00597018200455732,1.000907126445689e-09,4.998741543662231
1.001381771851199e-09,4.930911407440057,1.001381771851199e-09,-0.009098824216073546,1.001381771851199e-09,4.998094372712486
1.002331062662219e-09,4.883446866889036,1.002331062662219e-09,-0.01535952278340274,1.002331062662219e-09,4.996826256732278
1.003625765972149e-09,4.818711701392543,1.003625765972149e-09,-0.02388873355895397,1.003625765972149e-09,4.995155358964165
1.004926136564942e-09,4.753693171752925,1.004926136564942e-09,-0.03242400215682639,1.004926136564942e-09,4.993547482454564
1.006345393286954e-09,4.682730335652312,1.006345393286954e-09,-0.04168032459230525,1.006345393286954e-09,4.991875078379831
1.007914649072182e-09,4.604267546390902,1.007914649072182e-09,-0.05185893419772429,1.007914649072182e-09,4.990118802521312
1.009374166441276e-09,4.531291677936191,1.009374166441276e-09,-0.06124939971519189,1.009374166441276e-09,4.98857435819226
1.011457865678775e-09,4.427106716061235,1.011457865678775e-09,-0.07454241602418128,1.011457865678775e-09,4.986507434964466
1.012926801869838e-09,4.353659906508113,1.012926801869838e-09,-0.08406773958547921,1.012926801869838e-09,4.985095208915737
1.014365493319824e-09,4.281725334008788,1.014365493319824e-09,-0.09385700732988939,1.014365493319824e-09,4.98367601156714
1.015663650286794e-09,4.216817485660305,1.015663650286794e-09,-0.1029392833434035,1.015663650286794e-09,4.9823953302924
1.017235120352388e-09,4.138243982380608,1.017235120352388e-09,-0.1137950871836357,1.017235120352388e-09,4.980939877194873
1.018492046262485e-09,4.075397686875743,1.018492046262485e-09,-0.1222079855595075,1.018492046262485e-09,4.979881808917575
1.020035803020144e-09,3.998209848992825,1.020035803020144e-09,-0.1321344801555462,1.020035803020144e-09,4.978722112892887
1.022390218242473e-09,3.880489087876354,1.022390218242473e-09,-0.1463325781850202,1.022390218242473e-09,4.977250274313479
1.025780068905957e-09,3.710996554702168,1.025780068905957e-09,-0.164673299775841,1.025780068905957e-09,4.975735910587349
1.030351922776624e-09,3.482403861168815,1.030351922776624e-09,-0.1853379428355482,1.030351922776624e-09,4.974739648668312
1.036220664636518e-09,3.188966768174106,1.036220664636518e-09,-0.2048643539393136,1.036220664636518e-09,4.97502083794718
1.043557156943131e-09,2.822142152843447,1.043557156943131e-09,-0.2181360603720178,1.043557156943131e-09,4.977446044630132
1.052988825496007e-09,2.350558725199663,1.052988825496007e-09,-0.2170456673552825,1.052988825496007e-09,4.983240430023109
1.05730805027865e-09,2.134597486067503,1.05730805027865e-09,-0.2097084976892474,1.05730805027865e-09,4.986763313497725
1.065209992973004e-09,1.739500351349782,1.065209992973004e-09,-0.1848581823507151,1.065209992973004e-09,4.994326437323448
1.068702362946019e-09,1.56488185269906,1.068702362946019e-09,-0.1694494701579566,1.068702362946019e-09,4.998020546501011
1.071953068271017e-09,1.402346586449144,1.071953068271017e-09,-0.1523278775477823,1.071953068271017e-09,5.001772465416034
1.076093458191663e-09,1.195327090416869,1.076093458191663e-09,-0.1261108896318002,1.076093458191663e-09,5.007067730031389
1.079899818992712e-09,1.005009050364416,1.079899818992712e-09,-0.09695441122609948,1.079899818992712e-09,5.012419266987067
1.083216093200006e-09,0.8391953399996845,1.083216093200006e-09,-0.06618098189299161,1.083216093200006e-09,5.017719537033145
1.084748094646513e-09,0.762595267674377,1.084748094646513e-09,-0.04930393796041622,1.084748094646513e-09,5.020566806805785
1.086232513392373e-09,0.6883743303813716,1.086232513392373e-09,-0.03061244796604477,1.086232513392373e-09,5.023710148891496
1.087670398654347e-09,0.6164800672826702,1.087670398654347e-09,-0.0104543018412123,1.087670398654347e-09,5.027067911023085
1.088836922072838e-09,0.5581538963580845,1.088836922072838e-09,0.007278466076953844,1.088836922072838e-09,5.029986163840688
1.090092603995068e-09,0.4953698002465812,1.090092603995068e-09,0.02800526770784778,1.090092603995068e-09,5.033369931403876
1.091079296230161e-09,0.4460351884919707,1.091079296230161e-09,0.04547510333965632,1.091079296230161e-09,5.036197635054002
1.092011838323959e-09,0.3994080838020659,1.092011838323959e-09,0.06268818963213939,1.092011838323959e-09,5.038946443534433
1.092939224420581e-09,0.3530387789709435,1.092939224420581e-09,0.08029843356606596,1.092939224420581e-09,5.041710915497044
1.093922435564764e-09,0.3038782217618108,1.093922435564764e-09,0.09941556109417818,1.093922435564764e-09,5.044654876419638
1.09522997623268e-09,0.2385011883659827,1.09522997623268e-09,0.125497077940986,1.09522997623268e-09,5.048578712964109
1.097234725683749e-09,0.1382637158125357,1.097234725683749e-09,0.1669037042890817,1.097234725683749e-09,5.054606413909227
1.1e-09,0,1.1e-09,0.2268083271794609,1.1e-09,5.06294296989269
1.100411828649179e-09,0,1.100411828649179e-09,0.2378932410876716,1.100411828649179e-09,5.064593592829391
1.100841304103163e-09,0,1.100841304103163e-09,0.2494588062168272,1.100841304103163e-09,5.0663014378618
1.101426193794271e-09,0,1.101426193794271e-09,0.2652146492950606,1.101426193794271e-09,5.068596512544284
1.102595973176488e-09,0,1.102595973176488e-09,0.2967374554799316,1.102595973176488e-09,5.073074046864549
1.104935531940921e-09,0,1.104935531940921e-09,0.3598081366282977,1.104935531940921e-09,5.081594419544103
1.109614649469788e-09,0,1.109614649469788e-09,0.48594067408864,1.109614649469788e-09,5.09706128392999
1.113857291763626e-09,0,1.113857291763626e-09,0.6001545158618922,1.113857291763626e-09,5.109461263033534
1.11809344734269e-09,0,1.11809344734269e-09,0.7138811223142516,1.11809344734269e-09,5.120508881381078
1.122343685280341e-09,0,1.122343685280341e-09,0.8270150533151582,1.122343685280341e-09,5.130562397900399
1.126577569600967e-09,0,1.126577569600967e-09,0.9361697339247554,1.126577569600967e-09,5.140192754485517
1.130435667248491e-09,0,1.130435667248491e-09,1.03231353941758,1.130435667248491e-09,5.147989140135368
1.134896566182687e-09,0,1.134896566182687e-09,1.141725045282919,1.134896566182687e-09,5.154116608456415
1.139376236919057e-09,0,1.139376236919057e-09,1.250206326836447,1.139376236919057e-09,5.156525050918426
1.144388940923075e-09,0,1.144388940923075e-09,1.369925662716468,1.144388940923075e-09,5.154617944672978
1.149813892807477e-09,0,1.149813892807477e-09,1.497428056278036,1.149813892807477e-09,5.147164963814277
1.155674163756005e-09,0,1.155674163756005e-09,1.63266967307063,1.155674163756005e-09,5.133052118448762
1.162070772441146e-09,0,1.162070772441146e-09,1.777229136804423,1.162070772441146e-09,5.110801127889022
1.169099605578618e-09,0,1.169099605578618e-09,1.932235018644414,1.169099605578618e-09,5.078531200545512
1.176907153343426e-09,0,1.176907153343426e-09,2.099431797931253,1.176907153343426e-09,5.033551721728757
1.185688342355342e-09,0,1.185688342355342e-09,2.281308873110542,1.185688342355342e-09,4.973145352499787
1.195705006199806e-09,0,1.195705006199806e-09,2.480108378911699,1.195705006199806e-09,4.891701488362728
1.204015745249569e-09,0,1.204015745249569e-09,2.636706438758853,1.204015745249569e-09,4.811471757257267
1.211585445212107e-09,0,1.211585445212107e-09,2.772403033251062,1.211585445212107e-09,4.727164675938764
1.21705298099712e-09,0,1.21705298099712e-09,2.866346656599607,1.21705298099712e-09,4.658528710581624
1.222194248626177e-09,0,1.222194248626177e-09,2.951824172790519,1.222194248626177e-09,4.586735576819205
1.226613888263208e-09,0,1.226613888263208e-09,3.023485380564241,1.226613888263208e-09,4.5178653003317
1.235398109991602e-09,0,1.235398109991602e-09,3.162276658965828,1.235398109991602e-09,4.353188706702552
1.243902335109683e-09,0,1.243902335109683e-09,3.289392981042232,1.243902335109683e-09,4.156535434586798
1.250040587013897e-09,0,1.250040587013897e-09,3.375078775067951,1.250040587013897e-09,3.993951246634016
1.257191425801689e-09,0,1.257191425801689e-09,3.468438675529574,1.257191425801689e-09,3.783315513329599
1.264204693029957e-09,0,1.264204693029957e-09,3.553504614412867,1.264204693029957e-09,3.555438402102279
1.271709305576088e-09,0,1.271709305576088e-09,3.637783674831564,1.271709305576088e-09,3.28970946182224
1.279278474775866e-09,0,1.279278474775866e-09,3.716158375878683,1.279278474775866e-09,3.000638781961086
1.286655868077796e-09,0,1.286655868077796e-09,3.786582952790473,1.286655868077796e-09,2.700660391035476
1.293052128412337e-09,0,1.293052128412337e-09,3.84321613010704,1.293052128412337e-09,2.427897029358159
1.297815308207355e-09,0,1.297815308207355e-09,3.882899910613686,1.297815308207355e-09,2.218380920577991
1.307341667797392e-09,0,1.307341667797392e-09,3.956663852760693,1.307341667797392e-09,1.792687028395518
1.313019044535997e-09,0,1.313019044535997e-09,3.99706230078387,1.313019044535997e-09,1.547137257970496
1.318710429777462e-09,0,1.318710429777462e-09,4.034366467641455,1.318710429777462e-09,1.321146923262221
1.324257177489847e-09,0,1.324257177489847e-09,4.068476803870261,1.324257177489847e-09,1.124829084322688
1.331684243445081e-09,0,1.331684243445081e-09,4.112771887555541,1.331684243445081e-09,0.8989446660845093
1.33636357327523e-09,0,1.33636357327523e-09,4.140518668223095,1.33636357327523e-09,0.7771562040946004
1.345722232935527e-09,0,1.345722232935527e-09,4.196329028360442,1.345722232935527e-09,0.576513080512471
1.349233369482806e-09,0,1.349233369482806e-09,4.217460873335408,1.349233369482806e-09,0.5148165528312061
1.356255642577364e-09,0,1.356255642577364e-09,4.25992535720987,1.356255642577364e-09,0.4100674475719903
1.366153783515713e-09,0,1.366153783515713e-09,4.319957104053217,1.366153783515713e-09,0.2969356467173813
1.375885307963427e-09,0,1.375885307963427e-09,4.378611211088661,1.375885307963427e-09,0.2164716140107188
1.380929727679489e-09,0,1.380929727679489e-09,4.408477896940724,1.380929727679489e-09,0.1846690351968699
1.386962320419994e-09,0,1.386962320419994e-09,4.443255629060626,1.386962320419994e-09,0.1534450995959061
1.392562968449781e-09,0,1.392562968449781e-09,4.474385388903938,1.392562968449781e-09,0.1298552632743022
1.398736761607023e-09,0,1.398736761607023e-09,4.507239886835753,1.398736761607023e-09,0.1086736752301652
1.40534733443235e-09,0,1.40534733443235e-09,4.540623886594141,1.40534733443235e-09,0.09046724182245697
1.412644931342454e-09,0,1.412644931342454e-09,4.575283738436632,1.412644931342454e-09,0.0745728269714605
1.420733008852407e-09,0,1.420733008852407e-09,4.61103475194035,1.420733008852407e-09,0.06090213826991357
1.429799797932239e-09,0,1.429799797932239e-09,4.647890422262892,1.429799797932239e-09,0.04924791737932775
1.440037297096548e-09,0,1.440037297096548e-09,4.685629030237149,1.440037297096548e-09,0.03945250957377043
1.449078251783001e-09,0,1.449078251783001e-09,4.715752309939716,1.449078251783001e-09,0.03297400102588362
1.467160161155906e-09,0,1.467160161155906e-09,4.768020262473351,1.467160161155906e-09,0.02375580822143988
1.48025929563204e-09,0,1.48025929563204e-09,4.799928266536146,1.48025929563204e-09,0.01925451305558359
1.492555409273877e-09,0,1.492555409273877e-09,4.825904267491876,1.492555409273877e-09,0.01610422462012696
1.507102783288316e-09,0,1.507102783288316e-09,4.852360218195605,1.507102783288316e-09,0.01323045605051355
1.523196991871301e-09,0,1.523196991871301e-09,4.877021370610827,1.523196991871301e-09,0.01077169864092714
1.540750739071402e-09,0,1.540750739071402e-09,4.899291493961917,1.540750739071402e-09,0.00868449314751908
1.560379017003096e-09,0,1.560379017003096e-09,4.919502505991368,1.560379017003096e-09,0.006868205503548549
1.582413888651291e-09,0,1.582413888651291e-09,4.937460130797015,1.582413888651291e-09,0.005298046819426543
1.607186104035355e-09,0,1.607186104035355e-09,4.952982107247482,1.607186104035355e-09,0.0039639678549495
1.63527954452842e-09,0,1.63527954452842e-09,4.966062083775046,1.63527954452842e-09,0.00285156768150026
1.667508579043954e-09,0,1.667508579043954e-09,4.976752254645763,1.667508579043954e-09,0.001948413043491458
1.705015945002222e-09,0,1.705015945002222e-09,4.985153433080615,1.705015945002222e-09,0.001241814316483515
1.749510101520086e-09,0,1.749510101520086e-09,4.991424563519953,1.749510101520086e-09,0.0007161182987068437
1.803645872600973e-09,0,1.803645872600973e-09,4.995778108840906,1.803645872600973e-09,0.000352118457921349
1.871777282173565e-09,0,1.871777282173565e-09,4.998481633238949,1.871777282173565e-09,0.0001265278435449378
1.961628181136627e-09,0,1.961628181136627e-09,4.999862830580374,1.961628181136627e-09,1.143962394344227e-05
2.061628181136627e-09,0,2.061628181136627e-09,5.000227206611112,2.061628181136627e-09,-1.891175038397458e-05
2.161628181136627e-09,0,2.161628181136627e-09,5.000196501527873,2.161628181136627e-09,-1.648760894992063e-05
2.261628181136627e-09,0,2.261628181136627e-09,5.000104686133628,2.261628181136627e-09,-8.834903610821927e-06
2.361628181136627e-09,0,2.361628181136627e-09,5.000041628507515,2.361628181136627e-09,-3.519092400150852e-06
2.461628181136627e-09,0,2.461628181136627e-09,5.00001170237466,2.461628181136627e-09,-9.760628171864306e-07
2.561628181136627e-09,0,2.561628181136627e-09,5.000000972604802,2.561628181136627e-09,-6.600791747294795e-08
2.661628181136627e-09,0,2.661628181136627e-09,4.99999851183279,2.661628181136627e-09,1.412713523346792e-07
2.761628181136627e-09,0,2.761628181136627e-09,4.99999865797606,2.761628181136627e-09,1.27911025715739e-07
2.861628181136627e-09,0,2.861628181136627e-09,4.999999242426133,2.861628181136627e-09,7.856908056023518e-08
2.961628181136627e-09,0,2.961628181136627e-09,4.999999665522656,2.961628181136627e-09,4.332351095861086e-08
3.061628181136627e-09,0,3.061628181136627e-09,4.999999880753615,3.061628181136627e-09,2.536282784883359e-08
3.161628181136627e-09,0,3.161628181136627e-09,4.999999964354039,3.161628181136627e-09,1.837914214090022e-08
3.261628181136627e-09,0,3.261628181136627e-09,4.999999987109186,3.261628181136627e-09,1.647711544220066e-08
3.361628181136627e-09,0,3.361628181136627e-09,4.999999988526096,3.361628181136627e-09,1.635837868377514e-08
3.461628181136628e-09,0,3.461628181136628e-09,4.999999985263365,3.461628181136628e-09,1.663082522211418e-08
3.561628181136628e-09,0,3.561628181136628e-09,4.999999982500836,3.561628181136628e-09,1.686152506718507e-08
3.661628181136628e-09,0,3.661628181136628e-09,4.999999981013892,3.661628181136628e-09,1.698568700822583e-08
3.761628181136627e-09,0,3.761628181136627e-09,4.999999980405694,3.761628181136627e-09,1.703646704894547e-08
3.861628181136627e-09,0,3.861628181136627e-09,4.999999980225093,3.861628181136627e-09,1.705154491785929e-08
3.961628181136627e-09,0,3.961628181136627e-09,4.999999980203286,3.961628181136627e-09,1.705336517296544e-08
4.061628181136628e-09,0,4.061628181136628e-09,4.999999980221115,4.061628181136628e-09,1.705187629068757e-08
4.161628181136628e-09,0,4.161628181136628e-09,4.999999980238896,4.161628181136628e-09,1.705039180064476e-08
4.261628181136628e-09,0,4.261628181136628e-09,4.999999980249073,4.261628181136628e-09,1.704954230628925e-08
4.361628181136628e-09,0,4.361628181136628e-09,4.999999980253451,4.361628181136628e-09,1.704917620819188e-08
4.461628181136628e-09,0,4.461628181136628e-09,4.99999998025485,4.461628181136628e-09,1.704905992233232e-08
4.561628181136628e-09,0,4.561628181136628e-09,4.999999980255084,4.561628181136628e-09,1.704904036723436e-08
4.661628181136628e-09,0,4.661628181136628e-09,4.999999980254994,4.661628181136628e-09,1.704904760832088e-08
4.761628181136628e-09,0,4.761628181136628e-09,4.999999980254882,4.761628181136628e-09,1.704905735582814e-08
4.861628181136628e-09,0,4.861628181136628e-09,4.999999980254814,4.861628181136628e-09,1.704906293705627e-08
4.961628181136628e-09,0,4.961628181136628e-09,4.999999980254782,4.961628181136628e-09,1.704906561098922e-08
5.061628181136628e-09,0,5.061628181136628e-09,4.999999980254771,5.061628181136628e-09,1.704906647577773e-08
5.161628181136628e-09,0,5.161628181136628e-09,4.999999980254769,5.161628181136628e-09,1.704906646949138e-08
5.261628181136628e-09,0,5.261628181136628e-09,4.99999998025477,5.261628181136628e-09,1.704906627634432e-08
5.361628181136628e-09,0,5.361628181136628e-09,4.999999980254771,5.361628181136628e-09,1.704906656344847e-08
5.461628181136629e-09,0,5.461628181136629e-09,4.999999980254771,5.461628181136629e-09,1.704906641462152e-08
5.561628181136629e-09,0,5.561628181136629e-09,4.999999980254771,5.561628181136629e-09,1.704906644469563e-08
5.661628181136629e-09,0,5.661628181136629e-09,4.999999980254771,5.661628181136629e-09,1.70490662283805e-08
5.761628181136629e-09,0,5.761628181136629e-09,4.999999980254771,5.761628181136629e-09,1.704906638092651e-08
5.861628181136629e-09,0,5.861628181136629e-09,4.999999980254771,5.861628181136629e-09,1.704906615230652e-08
5.961628181136629e-09,0,5.961628181136629e-09,4.999999980254771,5.961628181136629e-09,1.704906628789277e-08
6.030814090568314e-09,0,6.030814090568314e-09,4.999999980254771,6.030814090568314e-09,1.704906643886528e-08
6.1e-09,0,6.1e-09,4.999999980254771,6.1e-09,1.704906671594117e-08
6.103125e-09,0.1562500000000117,6.103125e-09,5.015313324446957,6.103125e-09,0.002883017296127485
6.106124595139816e-09,0.306229756990807,6.106124595139816e-09,5.029620380372288,6.106124595139816e-09,0.005371244708324575
6.110425865324621e-09,0.5212932662310423,6.110425865324621e-09,5.049301124876578,6.110425865324621e-09,0.008356458097906354
6.112407547592426e-09,0.620377379621295,6.112407547592426e-09,5.058082615910616,6.112407547592426e-09,0.009517890762972639
6.113809746208023e-09,0.6904873104011408,6.113809746208023e-09,5.064329328255931,6.113809746208023e-09,0.01029199328286782
6.114913261107481e-09,0.7456630553740731,6.114913261107481e-09,5.069474885275111,6.114913261107481e-09,0.01091840119589523
6.115978338259955e-09,0.7989169129977547,6.115978338259955e-09,5.07478355694914,6.115978338259955e-09,0.01156819224885607
6.117012914028997e-09,0.8506457014498325,6.117012914028997e-09,5.080180027575149,6.117012914028997e-09,0.01222342507061578
6.118124649771954e-09,0.9062324885976755,6.118124649771954e-09,5.085995893485219,6.118124649771954e-09,0.01290194056970477
6.119192533864809e-09,0.9596266932404605,6.119192533864809e-09,5.091407643973385,6.119192533864809e-09,0.01349001512665067
6.120362952549556e-09,1.018147627477809,6.120362952549556e-09,5.097014754094624,6.120362952549556e-09,0.0140394102765161
6.122038807808736e-09,1.101940390436822,6.122038807808736e-09,5.104312863008324,6.122038807808736e-09,0.01463334740391193
6.125390518327097e-09,1.26952591635485,6.125390518327097e-09,5.115981440024437,6.125390518327097e-09,0.01513183002485435
6.128816766640038e-09,1.440838332001923,6.128816766640038e-09,5.123661264686593,6.128816766640038e-09,0.01474274769009564
