/net1 X,/net1 Y,/net010 X,/net010 Y,/o1 X,/o1 Y
0,0,0,4.99999999145504,0,1.704906614307206e-08
1e-11,0,1e-11,4.99999999145504,1e-11,1.704906622658482e-08
3e-11,0,3e-11,4.99999999145504,3e-11,1.704906608090667e-08
6.999999999999999e-11,0,6.999999999999999e-11,4.999999991455039,6.999999999999999e-11,1.704906698687179e-08
1.5e-10,0,1.5e-10,4.999999991455039,1.5e-10,1.704906717975398e-08
2.5e-10,0,2.5e-10,4.99999999145504,2.5e-10,1.704906683651851e-08
3.5e-10,0,3.5e-10,4.99999999145504,3.5e-10,1.704906663920509e-08
4.5e-10,0,4.5e-10,4.999999991455041,4.5e-10,1.704906672068781e-08
5.5e-10,0,5.5e-10,4.999999991455041,5.5e-10,1.704906669421116e-08
6.499999999999999e-10,0,6.499999999999999e-10,4.999999991455041,6.499999999999999e-10,1.704906627717529e-08
7.499999999999999e-10,0,7.499999999999999e-10,4.999999991455041,7.499999999999999e-10,1.704906624242704e-08
8.499999999999999e-10,0,8.499999999999999e-10,4.999999991455041,8.499999999999999e-10,1.704906625917739e-08
9.25e-10,0,9.25e-10,4.999999991455041,9.25e-10,1.704906647022898e-08
1e-09,0,1e-09,4.999999991455041,1e-09,1.704906600509647e-08
1.000048387895121e-09,0.002419394756067303,1.000048387895121e-09,5.000503992505547,1.000048387895121e-09,0.0001063807955469983
1.000082557713316e-09,0.00412788566580807,1.000082557713316e-09,5.000859645991044,1.000082557713316e-09,0.0001813681254366087
1.000150897349706e-09,0.007544867485289603,1.000150897349706e-09,5.001569952399352,1.000150897349706e-09,0.000330859272622305
1.000287576622485e-09,0.01437883112425267,1.000287576622485e-09,5.002986282309442,1.000287576622485e-09,0.0006277743995389553
1.000560935168044e-09,0.02804675840217881,1.000560935168044e-09,5.005801700775766,1.000560935168044e-09,0.001213303968730437
1.001107652259161e-09,0.05538261295803108,1.001107652259161e-09,5.011364392553482,1.001107652259161e-09,0.002351722385179758
1.002201086441395e-09,0.1100543220697356,1.002201086441395e-09,5.022224928117775,1.002201086441395e-09,0.004502996711061471
1.003858375488304e-09,0.1929187744151728,1.003858375488304e-09,5.038043758057887,1.003858375488304e-09,0.007464127115724431
1.00562510045783e-09,0.2812550228915203,1.00562510045783e-09,5.054103568511402,1.00562510045783e-09,0.01025348314920369
1.00749182317529e-09,0.3745911587644964,1.00749182317529e-09,5.070233736859542,1.00749182317529e-09,0.01282658036494128
1.009462934808864e-09,0.4731467404431807,1.009462934808864e-09,5.08641713012119,1.009462934808864e-09,0.01517187862338401
1.011483309949318e-09,0.5741654974659169,1.011483309949318e-09,5.10234372322794,1.011483309949318e-09,0.01725692734594756
1.013277874221742e-09,0.6638937110870936,1.013277874221742e-09,5.116694441519243,1.013277874221742e-09,0.01901216265921274
1.014564980006806e-09,0.7282490003402843,1.014564980006806e-09,5.127439168598044,1.014564980006806e-09,0.0202874823451489
1.015908039536336e-09,0.795401976816772,1.015908039536336e-09,5.138496515581371,1.015908039536336e-09,0.02151842846739132
1.017054774035703e-09,0.8527387017851377,1.017054774035703e-09,5.14742915996449,1.017054774035703e-09,0.02241291843883327
1.01818820376635e-09,0.9094101883175079,1.01818820376635e-09,5.155644645692069,1.01818820376635e-09,0.0231297164418349
1.019792166337852e-09,0.9896083168926081,1.019792166337852e-09,5.166112092422953,1.019792166337852e-09,0.02385127405024181
1.02279604238537e-09,1.139802119268479,1.02279604238537e-09,5.181890162670114,1.02279604238537e-09,0.02432104895251702
1.025881367702783e-09,1.294068385139138,1.025881367702783e-09,5.192869774216384,1.025881367702783e-09,0.02370910570315582
1.028447093979013e-09,1.422354698950632,1.028447093979013e-09,5.197998285013211,1.028447093979013e-09,0.02244246346654461
1.030937063394557e-09,1.546853169727847,1.030937063394557e-09,5.199548109707812,1.030937063394557e-09,0.02063287002302406
1.033420828267276e-09,1.671041413363814,1.033420828267276e-09,5.19778680226788,1.033420828267276e-09,0.01832717157465794
1.035935015556155e-09,1.796750777807734,1.035935015556155e-09,5.192700300235045,1.035935015556155e-09,0.01554726770674913
1.038537142236481e-09,1.926857111824026,1.038537142236481e-09,5.183998513163585,1.038537142236481e-09,0.01225828823528786
1.041250497511471e-09,2.062524875573548,1.041250497511471e-09,5.171262335834927,1.041250497511471e-09,0.008441274960669688
1.044099036808133e-09,2.204951840406634,1.044099036808133e-09,5.153923186771276,1.044099036808133e-09,0.004065225644729904
1.04711702807271e-09,2.355851403635482,1.04711702807271e-09,5.131159521365888,1.04711702807271e-09,-0.000973571293992924
1.052845870774604e-09,2.642293538730172,1.052845870774604e-09,5.075540457204886,1.052845870774604e-09,-0.01176182250077738
1.055026408324496e-09,2.751320416224776,1.055026408324496e-09,5.050012335427848,1.055026408324496e-09,-0.01614123302197356
1.057048504532542e-09,2.852425226627091,1.057048504532542e-09,5.024132735875916,1.057048504532542e-09,-0.02033148750265752
1.059510362694228e-09,2.975518134711413,1.059510362694228e-09,4.990009064945392,1.059510362694228e-09,-0.0255310193804609
1.061928170413406e-09,3.096408520670299,1.061928170413406e-09,4.954009619603974,1.061928170413406e-09,-0.03066917253564047
1.064416363722922e-09,3.220818186146108,1.064416363722922e-09,4.913208886955184,1.064416363722922e-09,-0.03623065952703891
1.066233755465424e-09,3.311687773271215,1.066233755465424e-09,4.88074802769306,1.066233755465424e-09,-0.04050923726682326
1.068892252279801e-09,3.444612613990061,1.068892252279801e-09,4.828459257046008,1.068892252279801e-09,-0.04722242854841546
1.071381080131707e-09,3.569054006585323,1.071381080131707e-09,4.772654021312156,1.071381080131707e-09,-0.05429833314892381
1.07322831665985e-09,3.661415832992478,1.07322831665985e-09,4.724704308137936,1.07322831665985e-09,-0.06046820001077255
1.074625093449044e-09,3.731254672452208,1.074625093449044e-09,4.683776371342232,1.074625093449044e-09,-0.06582037557259575
1.07613942703926e-09,3.806971351962973,1.07613942703926e-09,4.635584017114749,1.07613942703926e-09,-0.07209716353933357
1.077607819766849e-09,3.880390988342436,1.077607819766849e-09,4.585832195359333,1.077607819766849e-09,-0.07846932893667041
1.079064826922402e-09,3.953241346120115,1.079064826922402e-09,4.533828836872327,1.079064826922402e-09,-0.08500234365888475
1.08114872817393e-09,4.057436408696507,1.08114872817393e-09,4.455125786271438,1.08114872817393e-09,-0.0947307567708407
1.08235792500052e-09,4.117896250025998,1.08235792500052e-09,4.40706404347634,1.08235792500052e-09,-0.1007676579809565
1.083777620274102e-09,4.188881013705082,1.083777620274102e-09,4.348432953737412,1.083777620274102e-09,-0.1086790927453832
1.084969902191931e-09,4.248495109596547,1.084969902191931e-09,4.298063586486391,1.084969902191931e-09,-0.1162421922963844
1.086236124451734e-09,4.311806222586703,1.086236124451734e-09,4.244006286193539,1.086236124451734e-09,-0.12490528133033
1.087496160703813e-09,4.374808035190642,1.087496160703813e-09,4.189387923536672,1.087496160703813e-09,-0.1336867010989585
1.088559130417932e-09,4.427956520896609,1.088559130417932e-09,4.142432569089779,1.088559130417932e-09,-0.1409826130481876
1.089769750570751e-09,4.48848752853753,1.089769750570751e-09,4.08785415914146,1.089769750570751e-09,-0.1490258224292036
1.091357467149997e-09,4.567873357499832,1.091357467149997e-09,4.014432909718474,1.091357467149997e-09,-0.1590086666163203
1.093381200491035e-09,4.66906002455175,1.093381200491035e-09,3.917796079591087,1.093381200491035e-09,-0.1706428956117962
1.095866374119804e-09,4.79331870599018,1.095866374119804e-09,3.794470774303563,1.095866374119804e-09,-0.1830486928355148
1.097933187059902e-09,4.896659352995097,1.097933187059902e-09,3.688038298751472,1.097933187059902e-09,-0.1916483864863757
1.1e-09,5,1.1e-09,3.578151421788015,1.1e-09,-0.1985522510987694
1.100712167924771e-09,5,1.100712167924771e-09,3.534164943423758,1.100712167924771e-09,-0.2017213995419413
1.101331199866672e-09,5,1.101331199866672e-09,3.495922316948421,1.101331199866672e-09,-0.204270441293179
1.102001996281625e-09,5,1.102001996281625e-09,3.454498453706792,1.102001996281625e-09,-0.2067275260651695
1.103147130535457e-09,5,1.103147130535457e-09,3.383852797990927,1.103147130535457e-09,-0.2101157929575991
1.105023623012279e-09,5,1.105023623012279e-09,3.268336926531201,1.105023623012279e-09,-0.2134414587580315
1.108776607965923e-09,5,1.108776607965923e-09,3.038634962770457,1.108776607965923e-09,-0.2118672541987976
1.114684067856797e-09,5,1.114684067856797e-09,2.683897773879732,1.114684067856797e-09,-0.1872010687532979
1.11800161280219e-09,5,1.11800161280219e-09,2.491405064800884,1.11800161280219e-09,-0.160845887795512
1.121311049446848e-09,5,1.121311049446848e-09,2.307429250992481,1.121311049446848e-09,-0.1248916713909512
1.124415076084352e-09,5,1.124415076084352e-09,2.143790327215163,1.124415076084352e-09,-0.08197223063546323
1.127648295583116e-09,5,1.127648295583116e-09,1.983130137803928,1.127648295583116e-09,-0.02743099861892109
1.129613052645388e-09,5,1.129613052645388e-09,1.890348010773329,1.129613052645388e-09,0.0101314077267738
1.131779023617538e-09,5,1.131779023617538e-09,1.792272044005662,1.131779023617538e-09,0.05427754755079438
1.133450328554384e-09,5,1.133450328554384e-09,1.719564749163141,1.133450328554384e-09,0.09140431226020908
1.134761943944237e-09,5,1.134761943944237e-09,1.664261245392339,1.134761943944237e-09,0.1225335582851735
1.1369809580587e-09,5,1.1369809580587e-09,1.574027606390081,1.1369809580587e-09,0.1797418302722733
1.138903011111522e-09,5,1.138903011111522e-09,1.498872095395074,1.138903011111522e-09,0.2350103109789486
1.140357424377633e-09,5,1.140357424377633e-09,1.443507390220725,1.140357424377633e-09,0.2814777647173953
1.141640986848494e-09,5,1.141640986848494e-09,1.395677777804078,1.141640986848494e-09,0.3262451236414908
1.143239399092109e-09,5,1.143239399092109e-09,1.33781294073284,1.143239399092109e-09,0.3863874569761899
1.145021020456046e-09,5,1.145021020456046e-09,1.275891963920033,1.145021020456046e-09,0.4582539507059438
1.146754324564026e-09,5,1.146754324564026e-09,1.218345083778122,1.146754324564026e-09,0.5325436356914837
1.148985119962196e-09,5,1.148985119962196e-09,1.148118339011963,1.148985119962196e-09,0.6339593974322143
1.151840323126261e-09,5,1.151840323126261e-09,1.064255249085765,1.151840323126261e-09,0.7723459505878687
1.154999779006441e-09,5,1.154999779006441e-09,0.9787178776486652,1.154999779006441e-09,0.9354228066826179
1.158459018220643e-09,5,1.158459018220643e-09,0.8923827487830609,1.158459018220643e-09,1.124722917872973
1.162613379986754e-09,5,1.162613379986754e-09,0.7971286960475598,1.162613379986754e-09,1.36499108940787
1.167115636490585e-09,5,1.167115636490585e-09,0.7055046925498818,1.167115636490585e-09,1.636471209022773
1.1709712543346e-09,5,1.1709712543346e-09,0.6367335798294688,1.1709712543346e-09,1.874656420879697
1.175077211135848e-09,5,1.175077211135848e-09,0.5722887397127335,1.175077211135848e-09,2.13083622407677
1.179639742295043e-09,5,1.179639742295043e-09,0.5098890610967611,1.179639742295043e-09,2.414101856928665
1.184237249486293e-09,5,1.184237249486293e-09,0.4555059068100458,1.184237249486293e-09,2.691926493959766
1.188632568244329e-09,5,1.188632568244329e-09,0.4110134351839205,1.188632568244329e-09,2.942877609385045
1.192766183942913e-09,5,1.192766183942913e-09,0.37599896776042,1.192766183942913e-09,3.159325960066881
1.196986130839666e-09,5,1.196986130839666e-09,0.3459962385563365,1.196986130839666e-09,3.359189795674857
1.203961111721172e-09,5,1.203961111721172e-09,0.3045934059067439,1.203961111721172e-09,3.646714676170591
1.211771054140876e-09,5,1.211771054140876e-09,0.2655181347359815,1.211771054140876e-09,3.913633686552823
1.21898839427336e-09,5,1.21898839427336e-09,0.2336970811466288,1.21898839427336e-09,4.115920747587091
1.226617788396401e-09,5,1.226617788396401e-09,0.2033112796940754,1.226617788396401e-09,4.290466482884565
1.234816965399574e-09,5,1.234816965399574e-09,0.1738574638878025,1.234816965399574e-09,4.440674574676544
1.243338620077966e-09,5,1.243338620077966e-09,0.146570582114183,1.243338620077966e-09,4.563524329591916
1.252277823506462e-09,5,1.252277823506462e-09,0.1214885910317561,1.252277823506462e-09,4.663556445835467
1.261804455266118e-09,5,1.261804455266118e-09,0.09858272881046547,1.261804455266118e-09,4.745013677034922
1.268458831523624e-09,5,1.268458831523624e-09,0.08480487258730285,1.268458831523624e-09,4.789522203012083
1.279142702603294e-09,5,1.279142702603294e-09,0.06610396429440818,1.279142702603294e-09,4.845321493064165
1.286785206734318e-09,5,1.286785206734318e-09,0.05506624574680645,1.286785206734318e-09,4.875723805574612
1.299591196403567e-09,5,1.299591196403567e-09,0.0401903039388647,1.299591196403567e-09,4.914031930040986
1.308914823698372e-09,5,1.308914823698372e-09,0.03179705555596072,1.308914823698372e-09,4.93417876985932
1.324748765274228e-09,5,1.324748765274228e-09,0.02109561363164814,1.324748765274228e-09,4.958424234591337
1.336772460187722e-09,5,1.336772460187722e-09,0.0153414410860936,1.336772460187722e-09,4.970673647666949
1.348246429849046e-09,5,1.348246429849046e-09,0.01128865241892046,1.348246429849046e-09,4.978917274976709
1.361874223117223e-09,5,1.361874223117223e-09,0.007798610911783046,1.361874223117223e-09,4.985761793785265
1.377504385804835e-09,5,1.377504385804835e-09,0.005052404825465498,1.377504385804835e-09,4.99097275178382
1.395629056048527e-09,5,1.395629056048527e-09,0.003002786564675414,1.395629056048527e-09,4.994747043667867
1.417575963558919e-09,5,1.417575963558919e-09,0.001541614786458734,1.417575963558919e-09,4.997364244889734
1.445036335318051e-09,5,1.445036335318051e-09,0.0006021754210835202,1.445036335318051e-09,4.999002674096062
1.48086409722031e-09,5,1.48086409722031e-09,9.69905965641603e-05,1.48086409722031e-09,4.999859287297642
1.530720969028909e-09,5,1.530720969028909e-09,-8.867440478183247e-05,1.530720969028909e-09,5.000161108945654
1.607382701913352e-09,5,1.607382701913352e-09,-8.592570686711089e-05,1.607382701913352e-09,5.000142903855052
1.707382701913352e-09,5,1.707382701913352e-09,-3.058950591221216e-05,1.707382701913352e-09,5.000047764229834
1.807382701913352e-09,5,1.807382701913352e-09,-4.14437704524433e-06,1.807382701913352e-09,5.000005636279742
1.907382701913352e-09,5,1.907382701913352e-09,1.686939341729379e-06,1.907382701913352e-09,4.999997069040888
2.007382701913352e-09,5,2.007382701913352e-09,1.292801662418488e-06,2.007382701913352e-09,4.999997893228996
2.107382701913352e-09,5,2.107382701913352e-09,4.167730826539598e-07,2.107382701913352e-09,4.99999931429326
2.207382701913352e-09,5,2.207382701913352e-09,4.723891358117426e-08,2.207382701913352e-09,4.99999991024915
2.307382701913352e-09,5,2.307382701913352e-09,-2.438950157110734e-08,2.307382701913352e-09,5.000000027625943
2.407382701913352e-09,5,2.407382701913352e-09,-1.440135979061569e-08,2.407382701913352e-09,5.000000011749069
2.507382701913352e-09,5,2.507382701913352e-09,-1.236674396943788e-09,2.507382701913352e-09,4.999999990482481
2.607382701913352e-09,5,2.607382701913352e-09,3.727983891569582e-09,2.607382701913352e-09,4.999999982322723
2.707382701913353e-09,5,2.707382701913353e-09,4.543936450525675e-09,2.707382701913353e-09,4.99999998089743
2.807382701913353e-09,5,2.807382701913353e-09,4.349382324911073e-09,2.807382701913353e-09,4.999999981196479
2.907382701913353e-09,5,2.907382701913353e-09,4.159320352341735e-09,2.907382701913353e-09,4.999999981511376
3.007382701913353e-09,5,3.007382701913353e-09,4.091539288792571e-09,3.007382701913353e-09,4.999999981626452
3.107382701913353e-09,5,3.107382701913353e-09,4.081739592085923e-09,3.107382701913353e-09,4.999999981643797
3.207382701913353e-09,5,3.207382701913353e-09,4.085133012007278e-09,3.207382701913353e-09,4.999999981638295
3.307382701913353e-09,5,3.307382701913353e-09,4.087927977321157e-09,3.307382701913353e-09,4.999999981633576
3.407382701913353e-09,5,3.407382701913353e-09,4.088863823489226e-09,3.407382701913353e-09,4.999999981631976
3.507382701913353e-09,5,3.507382701913353e-09,4.088977406485613e-09,3.507382701913353e-09,4.999999981631775
3.607382701913353e-09,5,3.607382701913353e-09,4.08892041655691e-09,3.607382701913353e-09,4.999999981631871
3.707382701913353e-09,5,3.707382701913353e-09,4.088880126591885e-09,3.707382701913353e-09,4.999999981631941
3.807382701913353e-09,5,3.807382701913353e-09,4.08886632580032e-09,3.807382701913353e-09,4.999999981631963
3.907382701913353e-09,5,3.907382701913353e-09,4.088866176675011e-09,3.907382701913353e-09,4.999999981631966
4.007382701913353e-09,5,4.007382701913353e-09,4.088867585761555e-09,4.007382701913353e-09,4.999999981631964
4.107382701913354e-09,5,4.107382701913354e-09,4.08886690847295e-09,4.107382701913354e-09,4.999999981631962
4.207382701913354e-09,5,4.207382701913354e-09,4.088867113466022e-09,4.207382701913354e-09,4.999999981631962
4.307382701913354e-09,5,4.307382701913354e-09,4.088866911898814e-09,4.307382701913354e-09,4.999999981631962
4.407382701913354e-09,5,4.407382701913354e-09,4.088867362420847e-09,4.407382701913354e-09,4.999999981631962
4.507382701913354e-09,5,4.507382701913354e-09,4.088867275850342e-09,4.507382701913354e-09,4.999999981631962
4.607382701913354e-09,5,4.607382701913354e-09,4.088866891216446e-09,4.607382701913354e-09,4.999999981631962
4.707382701913354e-09,5,4.707382701913354e-09,4.088867267168678e-09,4.707382701913354e-09,4.999999981631962
4.807382701913354e-09,5,4.807382701913354e-09,4.088867214525261e-09,4.807382701913354e-09,4.999999981631962
4.907382701913354e-09,5,4.907382701913354e-09,4.088866972315344e-09,4.907382701913354e-09,4.999999981631962
5.007382701913354e-09,5,5.007382701913354e-09,4.088866977290082e-09,5.007382701913354e-09,4.999999981631962
5.107382701913354e-09,5,5.107382701913354e-09,4.088867468478621e-09,5.107382701913354e-09,4.999999981631962
5.207382701913354e-09,5,5.207382701913354e-09,4.088867236737464e-09,5.207382701913354e-09,4.999999981631962
5.307382701913354e-09,5,5.307382701913354e-09,4.088867340716132e-09,5.307382701913354e-09,4.999999981631962
5.407382701913354e-09,5,5.407382701913354e-09,4.088867213131213e-09,5.407382701913354e-09,4.999999981631962
5.507382701913354e-09,5,5.507382701913354e-09,4.088867093011855e-09,5.507382701913354e-09,4.999999981631962
5.607382701913355e-09,5,5.607382701913355e-09,4.088867219387205e-09,5.607382701913355e-09,4.999999981631962
5.707382701913355e-09,5,5.707382701913355e-09,4.088867222695858e-09,5.707382701913355e-09,4.999999981631962
5.807382701913355e-09,5,5.807382701913355e-09,4.088867341966961e-09,5.807382701913355e-09,4.999999981631962
5.907382701913355e-09,5,5.907382701913355e-09,4.08886720763911e-09,5.907382701913355e-09,4.999999981631962
6.007382701913355e-09,5,6.007382701913355e-09,4.088867058741451e-09,6.007382701913355e-09,4.999999981631962
6.1e-09,5,6.1e-09,4.088867618491716e-09,6.1e-09,4.999999981631962
6.103125e-09,4.843749999999988,6.103125e-09,-0.02708652811709351,6.103125e-09,4.994698928862755
6.106602300160296e-09,4.669884991985185,6.106602300160296e-09,-0.05477202383272517,6.106602300160296e-09,4.989667719648252
6.113556900480888e-09,4.322154975955579,6.113556900480888e-09,-0.1042605450257493,6.113556900480888e-09,4.982047479193215
6.114903464016716e-09,4.254826799164181,6.114903464016716e-09,-0.1151456880982509,6.114903464016716e-09,4.98047912670414
6.117596591088372e-09,4.120170445581383,6.117596591088372e-09,-0.1357670456206657,6.117596591088372e-09,4.977760646825468
6.12249999884654e-09,3.875000057673024,6.12249999884654e-09,-0.1644038945801718,6.12249999884654e-09,4.975100469230515
6.127865437710075e-09,3.606728114496242,6.127865437710075e-09,-0.1815823617938766,6.127865437710075e-09,4.975383744945551
6.130201308688708e-09,3.489934565564589,6.130201308688708e-09,-0.1844620085138452,6.130201308688708e-09,4.976463625365714
6.134873050645974e-09,3.256347467701283,6.134873050645974e-09,-0.1819499352407914,6.134873050645974e-09,4.980078356682774
6.144216534560507e-09,2.789173271974671,6.144216534560507e-09,-0.1450491501407139,6.144216534560507e-09,4.991854394843615
