/net3 X,/net3 Y,/net8 X,/net8 Y,/o2 X,/o2 Y
0,5,0,2.892568355444196e-08,0,4.999999981632027
1e-11,5,1e-11,2.892568170472984e-08,1e-11,4.999999981632012
3e-11,5,3e-11,2.89256801485699e-08,3e-11,4.999999981631993
6.999999999999999e-11,5,6.999999999999999e-11,2.892568132387661e-08,6.999999999999999e-11,4.999999981631971
1.5e-10,5,1.5e-10,2.892568386054357e-08,1.5e-10,4.999999981631959
2.5e-10,5,2.5e-10,2.892568445800428e-08,2.5e-10,4.999999981631959
3.5e-10,5,3.5e-10,2.892568367875482e-08,3.5e-10,4.999999981631961
4.5e-10,5,4.5e-10,2.892568351931319e-08,4.5e-10,4.999999981631962
5.5e-10,5,5.5e-10,2.89256832208573e-08,5.5e-10,4.999999981631962
6.499999999999999e-10,5,6.499999999999999e-10,2.892568311869621e-08,6.499999999999999e-10,4.999999981631962
7.499999999999999e-10,5,7.499999999999999e-10,2.89256831042613e-08,7.499999999999999e-10,4.999999981631962
8.499999999999999e-10,5,8.499999999999999e-10,2.892568294971446e-08,8.499999999999999e-10,4.999999981631962
9.25e-10,5,9.25e-10,2.892568369639165e-08,9.25e-10,4.999999981631962
1e-09,5,1e-09,2.892568356522451e-08,1e-09,4.999999981631962
1.000283108115046e-09,4.985844594247691,1.000283108115046e-09,-0.0003661785886717418,1.000283108115046e-09,4.999922259990469
1.000486496953796e-09,4.975675152310204,1.000486496953796e-09,-0.000635547602373533,1.000486496953796e-09,4.999865324390545
1.000893274631295e-09,4.95533626843523,1.000893274631295e-09,-0.001197756356501685,1.000893274631295e-09,4.999747416860195
1.001292690524045e-09,4.935365473797736,1.001292690524045e-09,-0.001780636674676207,1.001292690524045e-09,4.999626443522033
1.002091522309545e-09,4.895423884522748,1.002091522309545e-09,-0.003032261088431111,1.002091522309545e-09,4.999370635071713
1.003130765364316e-09,4.843461731784182,1.003130765364316e-09,-0.00481390312218321,1.003130765364316e-09,4.999014621147185
1.004135499810967e-09,4.793225009451647,1.004135499810967e-09,-0.00668078193321656,1.004135499810967e-09,4.998650409768137
1.005210302250526e-09,4.739484887473694,1.005210302250526e-09,-0.008811699987350907,1.005210302250526e-09,4.998244564548077
1.006373812852514e-09,4.681309357374289,1.006373812852514e-09,-0.01124901036121397,1.006373812852514e-09,4.997792264090415
1.007629286255923e-09,4.618535687203875,1.007629286255923e-09,-0.01400411974619856,1.007629286255923e-09,4.997295307113552
1.008995484724683e-09,4.550225763765871,1.008995484724683e-09,-0.01712274055687604,1.008995484724683e-09,4.996750097064235
1.010483183932101e-09,4.475840803394955,1.010483183932101e-09,-0.02064697755932339,1.010483183932101e-09,4.996154455613574
1.012103541028506e-09,4.394822948574697,1.012103541028506e-09,-0.02471322357851306,1.012103541028506e-09,4.995487848731154
1.013039131177307e-09,4.348043441134672,1.013039131177307e-09,-0.02730078366385552,1.013039131177307e-09,4.99506710203998
1.013922082912835e-09,4.303895854358255,1.013922082912835e-09,-0.02999860949103606,1.013922082912835e-09,4.994626709755654
1.014840744750987e-09,4.257962762450648,1.014840744750987e-09,-0.03303979896591072,1.014840744750987e-09,4.994131252386055
1.015726543797052e-09,4.213672810147398,1.015726543797052e-09,-0.03608592786425717,1.015726543797052e-09,4.993642186734363
1.016566484476292e-09,4.171675776185424,1.016566484476292e-09,-0.03898638775941705,1.016566484476292e-09,4.993187703949915
1.017449343463088e-09,4.127532826845614,1.017449343463088e-09,-0.04199154375469853,1.017449343463088e-09,4.992731387287619
1.018538468497048e-09,4.073076575147621,1.018538468497048e-09,-0.04559255572573771,1.018538468497048e-09,4.992207285275406
1.019954348033342e-09,4.002282598332912,1.019954348033342e-09,-0.05005303853990115,1.019954348033342e-09,4.991597397133245
1.021787424587762e-09,3.910628770611894,1.021787424587762e-09,-0.05540483683202344,1.021787424587762e-09,4.990933424771578
1.024111722322424e-09,3.794413883878791,1.024111722322424e-09,-0.0614389378936815,1.024111722322424e-09,4.99029768794752
1.02693530651069e-09,3.653234674465527,1.02693530651069e-09,-0.06755480097845672,1.02693530651069e-09,4.989831637205013
1.030221180014139e-09,3.488940999293039,1.030221180014139e-09,-0.07289639108049438,1.030221180014139e-09,4.989698185816061
1.033969365696069e-09,3.301531715196572,1.033969365696069e-09,-0.0765552453034407,1.033969365696069e-09,4.99005333588316
1.038284389252518e-09,3.085780537374093,1.038284389252518e-09,-0.07745952617272324,1.038284389252518e-09,4.9910784084812
1.043386377120124e-09,2.830681143993792,1.043386377120124e-09,-0.07388439915685885,1.043386377120124e-09,4.99304951529594
1.049841072270852e-09,2.507946386457419,1.049841072270852e-09,-0.06211434580513345,1.049841072270852e-09,4.996550575603997
1.057331756051428e-09,2.133412197428593,1.057331756051428e-09,-0.03832931152505857,1.057331756051428e-09,5.001856641588739
1.065578137498882e-09,1.721093125055911,1.065578137498882e-09,0.0002620155017417862,1.065578137498882e-09,5.009036070266524
1.07363867327509e-09,1.318066336245493,1.07363867327509e-09,0.05012561898118609,1.07363867327509e-09,5.016884907441916
1.079663104522517e-09,1.016844773874139,1.079663104522517e-09,0.09504115006517101,1.079663104522517e-09,5.023153900194713
1.082435865472252e-09,0.8782067263873925,1.082435865472252e-09,0.1178959231208401,1.082435865472252e-09,5.026137978468538
1.08458504597454e-09,0.7707477012730148,1.08458504597454e-09,0.1365666028401724,1.08458504597454e-09,5.028490806086555
1.085871851773894e-09,0.7064074113052898,1.085871851773894e-09,0.148160306521698,1.085871851773894e-09,5.029918476223937
1.087234909696301e-09,0.6382545151849337,1.087234909696301e-09,0.160819751170379,1.087234909696301e-09,5.031454095159303
1.088208675030185e-09,0.5895662484907449,1.088208675030185e-09,0.170139193784722,1.088208675030185e-09,5.032573521164516
1.088958494033162e-09,0.5520752983418991,1.088958494033162e-09,0.1774952507307057,1.088958494033162e-09,5.033453047303206
1.089677535129316e-09,0.516123243534202,1.089677535129316e-09,0.1847115236805337,1.089677535129316e-09,5.034313821525526
1.090402829257013e-09,0.4798585371493527,1.090402829257013e-09,0.1921590317562313,1.090402829257013e-09,5.035200615672727
1.091184915530784e-09,0.4407542234607913,1.091184915530784e-09,0.2003823623211878,1.091184915530784e-09,5.036177939191377
1.092184170716853e-09,0.3907914641573669,1.092184170716853e-09,0.2111797884397369,1.092184170716853e-09,5.037457653993249
1.093606107243238e-09,0.3196946378381158,1.093606107243238e-09,0.2270997160794558,1.093606107243238e-09,5.039335287377586
1.095719881108292e-09,0.214005944585411,1.095719881108292e-09,0.251944030944871,1.095719881108292e-09,5.042238409437823
1.097859940554146e-09,0.1070029722927037,1.097859940554146e-09,0.2785001928572497,1.097859940554146e-09,5.045300796468874
1.1e-09,0,1.1e-09,0.3064465437788604,1.1e-09,5.048476447601801
1.100499679442664e-09,0,1.100499679442664e-09,0.3144269335786609,1.100499679442664e-09,5.049504308809823
1.100949528967807e-09,0,1.100949528967807e-09,0.3216024083769236,1.100949528967807e-09,5.050419340487452
1.101479237691509e-09,0,1.101479237691509e-09,0.330035014193606,1.101479237691509e-09,5.051479378536246
1.102538655138914e-09,0,1.102538655138914e-09,0.3468441190681359,1.102538655138914e-09,5.053539762186984
1.104657490033724e-09,0,1.104657490033724e-09,0.3802669514390611,1.104657490033724e-09,5.057435888911838
1.1075826459018e-09,0,1.1075826459018e-09,0.4260721126741615,1.1075826459018e-09,5.062374070116889
1.11055725048803e-09,0,1.11055725048803e-09,0.4723563693775579,1.11055725048803e-09,5.066935596550749
1.113930017822604e-09,0,1.113930017822604e-09,0.5246004412999259,1.113930017822604e-09,5.071627534617103
1.117842894971483e-09,0,1.117842894971483e-09,0.585034567529191,1.117842894971483e-09,5.076531762680818
1.122411457473022e-09,0,1.122411457473022e-09,0.6554946862219594,1.122411457473022e-09,5.081649721425429
1.127841731232312e-09,0,1.127841731232312e-09,0.7391932537825416,1.127841731232312e-09,5.087046105099761
1.134369349654043e-09,0,1.134369349654043e-09,0.8393446445470281,1.134369349654043e-09,5.092848048798587
1.142052327434722e-09,0,1.142052327434722e-09,0.9544944815421138,1.142052327434722e-09,5.099115984014753
1.149219853800197e-09,0,1.149219853800197e-09,1.059879781107222,1.149219853800197e-09,5.102840833855028
1.158011320870869e-09,0,1.158011320870869e-09,1.188590234630373,1.158011320870869e-09,5.101955712446832
1.166904814216068e-09,0,1.166904814216068e-09,1.318224791504745,1.166904814216068e-09,5.094157868791497
1.172774135803845e-09,0,1.172774135803845e-09,1.403333159148517,1.172774135803845e-09,5.085180084748304
1.179704861569747e-09,0,1.179704861569747e-09,1.503242860931441,1.179704861569747e-09,5.070757672217678
1.186863956322713e-09,0,1.186863956322713e-09,1.605674714593796,1.186863956322713e-09,5.051678730146311
1.195087551041419e-09,0,1.195087551041419e-09,1.722256549235568,1.195087551041419e-09,5.024749228303198
1.202668142577706e-09,0,1.202668142577706e-09,1.828675962441135,1.202668142577706e-09,4.995559796933866
1.211183735677627e-09,0,1.211183735677627e-09,1.947294372581258,1.211183735677627e-09,4.959082562718138
1.219124510686789e-09,0,1.219124510686789e-09,2.056330935268857,1.219124510686789e-09,4.92009181492844
1.233718663311957e-09,0,1.233718663311957e-09,2.252143791789389,1.233718663311957e-09,4.835533817150131
1.246716479618545e-09,0,1.246716479618545e-09,2.420894513302464,1.246716479618545e-09,4.744936493737493
1.258541021838118e-09,0,1.258541021838118e-09,2.569297980169415,1.258541021838118e-09,4.647915603006996
1.268834779927242e-09,0,1.268834779927242e-09,2.694375784890999,1.268834779927242e-09,4.549368556437761
1.277656787355107e-09,0,1.277656787355107e-09,2.798812775953353,1.277656787355107e-09,4.450990651291311
1.28409106889096e-09,0,1.28409106889096e-09,2.873859700999232,1.28409106889096e-09,4.368075510692509
1.289884723241824e-09,0,1.289884723241824e-09,2.940846278894228,1.289884723241824e-09,4.282892237916352
1.295406408522915e-09,0,1.295406408522915e-09,3.003749869312504,1.295406408522915e-09,4.191556381942502
1.301330588478356e-09,0,1.301330588478356e-09,3.069575754319645,1.301330588478356e-09,4.08245757260244
1.308220174539179e-09,0,1.308220174539179e-09,3.143632083398501,1.308220174539179e-09,3.94104606652592
1.316055900820151e-09,0,1.316055900820151e-09,3.224601115728398,1.316055900820151e-09,3.761300024780942
1.324499605934814e-09,0,1.324499605934814e-09,3.308167536595632,1.324499605934814e-09,3.545435059830923
1.333427663702756e-09,0,1.333427663702756e-09,3.392666981435081,1.333427663702756e-09,3.29289977701366
1.342551359446903e-09,0,1.342551359446903e-09,3.47523774946989,1.342551359446903e-09,3.010158828955537
1.351459201106677e-09,0,1.351459201106677e-09,3.552395025945264,1.351459201106677e-09,2.7114854695088
1.359504081861982e-09,0,1.359504081861982e-09,3.619225724208618,1.359504081861982e-09,2.424090709267365
1.365800172852747e-09,0,1.365800172852747e-09,3.669660938464002,1.365800172852747e-09,2.188754576100936
1.37044074463905e-09,0,1.37044074463905e-09,3.705794681881442,1.37044074463905e-09,2.010375758736581
1.379721888211656e-09,0,1.379721888211656e-09,3.775537212139212,1.379721888211656e-09,1.649631152570652
1.38582190343689e-09,0,1.38582190343689e-09,3.819185283503086,1.38582190343689e-09,1.421988223257809
1.391780578347226e-09,0,1.391780578347226e-09,3.859561668277806,1.391780578347226e-09,1.218669783061798
1.39786326593151e-09,0,1.39786326593151e-09,3.899295553201327,1.39786326593151e-09,1.034089158974276
1.406583007261347e-09,0,1.406583007261347e-09,3.955603242870541,1.406583007261347e-09,0.8095362045681158
1.411800304233438e-09,0,1.411800304233438e-09,3.989443832294277,1.411800304233438e-09,0.6962588276723433
1.417178317291829e-09,0,1.417178317291829e-09,4.024544609622922,1.417178317291829e-09,0.5947166099703765
1.421569042231812e-09,0,1.421569042231812e-09,4.053328638290223,1.421569042231812e-09,0.5223605380144846
1.430350492111779e-09,0,1.430350492111779e-09,4.110847462289935,1.430350492111779e-09,0.4021030077074628
1.434349655897488e-09,0,1.434349655897488e-09,4.136936281675671,1.434349655897488e-09,0.3570920230801585
1.442347983468905e-09,0,1.442347983468905e-09,4.188539021816274,1.442347983468905e-09,0.2819085501958148
1.446624388420079e-09,0,1.446624388420079e-09,4.215753154185346,1.446624388420079e-09,0.2488877418609159
1.455177198322428e-09,0,1.455177198322428e-09,4.269226068375438,1.455177198322428e-09,0.194634094831211
1.460102766047401e-09,0,1.460102766047401e-09,4.29949515285618,1.460102766047401e-09,0.1694926450181354
1.469953901497346e-09,0,1.469953901497346e-09,4.358785265255485,1.469953901497346e-09,0.1291747617957698
1.476528670129306e-09,0,1.476528670129306e-09,4.397122628686492,1.476528670129306e-09,0.1084034239896565
1.484832152268337e-09,0,1.484832152268337e-09,4.443463039785955,1.484832152268337e-09,0.08762753213904763
1.492991195990956e-09,0,1.492991195990956e-09,4.486305704568597,1.492991195990956e-09,0.07191272403641867
1.502016575140173e-09,0,1.502016575140173e-09,4.530397058675839,1.502016575140173e-09,0.05862913431814912
1.511940035502014e-09,0,1.511940035502014e-09,4.57490790945942,1.511940035502014e-09,0.0476641675272033
1.523143315238367e-09,0,1.523143315238367e-09,4.620395050815114,1.523143315238367e-09,0.03851759347005517
1.533046231431422e-09,0,1.533046231431422e-09,4.656655195140226,1.533046231431422e-09,0.03248105649999216
1.552852063817532e-09,0,1.552852063817532e-09,4.719364523757751,1.552852063817532e-09,0.02384124966022291
1.567134463247255e-09,0,1.567134463247255e-09,4.757331252828178,1.567134463247255e-09,0.01957527124061793
1.580472105074374e-09,0,1.580472105074374e-09,4.788012504876372,1.580472105074374e-09,0.01654493242067937
1.59616073787995e-09,0,1.59616073787995e-09,4.819043081545331,1.59616073787995e-09,0.01373249805256261
1.613382622323857e-09,0,1.613382622323857e-09,4.847745124015825,1.613382622323857e-09,0.01128611744795454
1.632003897665282e-09,0,1.632003897665282e-09,4.873491146766359,1.632003897665282e-09,0.009181040731206642
1.652657233272038e-09,0,1.652657233272038e-09,4.896771603788724,1.652657233272038e-09,0.007329783808880678
1.675666688828505e-09,0,1.675666688828505e-09,4.917457044028966,1.675666688828505e-09,0.005717192007682317
1.701351424294298e-09,0,1.701351424294298e-09,4.935419894908517,1.701351424294298e-09,0.004339207987068452
1.730288686494582e-09,0,1.730288686494582e-09,4.950717717712003,1.730288686494582e-09,0.003183772634281529
1.7632707282127e-09,0,1.7632707282127e-09,4.963451000707152,1.7632707282127e-09,0.002238846429562781
1.801382050731801e-09,0,1.801382050731801e-09,4.97375278733303,1.801382050731801e-09,0.001491273612370545
1.84620043648365e-09,0,1.84620043648365e-09,4.981803397711831,1.84620043648365e-09,0.0009247542715797641
1.900090728584039e-09,0,1.900090728584039e-09,4.98782707560585,1.900090728584039e-09,0.0005197588798504545
1.966742217908663e-09,0,1.966742217908663e-09,4.99209363609565,1.966742217908663e-09,0.0002533029700641174
2.052237461888875e-09,0,2.052237461888875e-09,4.994921792502468,2.052237461888875e-09,9.865867691600733e-05
2.152237461888875e-09,0,2.152237461888875e-09,4.996480244310792,2.152237461888875e-09,3.359022658380397e-05
2.252237461888875e-09,0,2.252237461888875e-09,4.997223922271032,2.252237461888875e-09,1.632758442259384e-05
2.352237461888875e-09,0,2.352237461888875e-09,4.997649133805745,2.352237461888875e-09,1.323859886893649e-05
2.452237461888875e-09,0,2.452237461888875e-09,4.997949548256854,2.452237461888875e-09,1.260471817904192e-05
2.552237461888875e-09,0,2.552237461888875e-09,4.998189855273965,2.552237461888875e-09,1.157854549915756e-05
2.652237461888875e-09,0,2.652237461888875e-09,4.998389802256161,2.652237461888875e-09,1.007751418339468e-05
2.752237461888875e-09,0,2.752237461888875e-09,4.998556945132176,2.752237461888875e-09,8.494914156474621e-06
2.852237461888875e-09,0,2.852237461888875e-09,4.998696575306921,2.852237461888875e-09,7.087309830627449e-06
2.952237461888875e-09,0,2.952237461888875e-09,4.99881360512643,2.952237461888875e-09,5.934613058767498e-06
3.052237461888875e-09,0,3.052237461888875e-09,4.998912446565642,3.052237461888875e-09,5.02083856730757e-06
3.152237461888875e-09,0,3.152237461888875e-09,4.998996765543998,3.152237461888875e-09,4.299081193512783e-06
3.252237461888875e-09,0,3.252237461888875e-09,4.999069449864248,3.252237461888875e-09,3.722789511868197e-06
3.352237461888875e-09,0,3.352237461888875e-09,4.999132718887827,3.352237461888875e-09,3.25538275281569e-06
3.452237461888876e-09,0,3.452237461888876e-09,4.999188272431724,3.452237461888876e-09,2.870443122231392e-06
3.552237461888876e-09,0,3.552237461888876e-09,4.999237424386711,3.552237461888876e-09,2.549254205087628e-06
3.652237461888876e-09,0,3.652237461888876e-09,4.999281205185399,3.652237461888876e-09,2.278363829579992e-06
3.752237461888876e-09,0,3.752237461888876e-09,4.999320435301433,3.752237461888876e-09,2.047834188872974e-06
3.852237461888876e-09,0,3.852237461888876e-09,4.99935577699528,3.852237461888876e-09,1.850119428937847e-06
3.952237461888876e-09,0,3.952237461888876e-09,4.999387771065428,3.952237461888876e-09,1.679363758933278e-06
4.052237461888876e-09,0,4.052237461888876e-09,4.999416863511416,4.052237461888876e-09,1.530950701620446e-06
4.152237461888876e-09,0,4.152237461888876e-09,4.999443425335583,4.152237461888876e-09,1.401198516481984e-06
4.252237461888876e-09,0,4.252237461888876e-09,4.999467767548572,4.252237461888876e-09,1.287143793081586e-06
4.352237461888876e-09,0,4.352237461888876e-09,4.999490152720197,4.352237461888876e-09,1.186381998360231e-06
4.452237461888876e-09,0,4.452237461888876e-09,4.999510803979269,4.452237461888876e-09,1.09694739012639e-06
4.552237461888876e-09,0,4.552237461888876e-09,4.999529912095104,4.552237461888876e-09,1.017221441993356e-06
4.652237461888876e-09,0,4.652237461888876e-09,4.999547641097661,4.652237461888876e-09,9.458624331061299e-07
4.752237461888876e-09,0,4.752237461888876e-09,4.99956413277329,4.752237461888876e-09,8.817509363884148e-07
4.852237461888876e-09,0,4.852237461888876e-09,4.999579510288019,4.852237461888876e-09,8.239473188731807e-07
4.952237461888877e-09,0,4.952237461888877e-09,4.999593881128505,4.952237461888877e-09,7.71658366031873e-07
5.052237461888877e-09,0,5.052237461888877e-09,4.999607339505257,5.052237461888877e-09,7.2421088391131e-07
5.152237461888877e-09,0,5.152237461888877e-09,4.999619968328983,5.152237461888877e-09,6.810306663213598e-07
5.252237461888877e-09,0,5.252237461888877e-09,4.999631840845658,5.252237461888877e-09,6.416256169442781e-07
5.352237461888877e-09,0,5.352237461888877e-09,4.999643021996897,5.352237461888877e-09,6.055721299850884e-07
5.452237461888877e-09,0,5.452237461888877e-09,4.999653569557825,5.452237461888877e-09,5.725040152447579e-07
5.552237461888877e-09,0,5.552237461888877e-09,4.999663535093634,5.552237461888877e-09,5.421034534713668e-07
5.652237461888877e-09,0,5.652237461888877e-09,4.999672964767534,5.652237461888877e-09,5.140935646478496e-07
5.752237461888877e-09,0,5.752237461888877e-09,4.999681900026278,5.752237461888877e-09,4.882322670350322e-07
5.852237461888877e-09,0,5.852237461888877e-09,4.999690378184297,5.852237461888877e-09,4.643071839377861e-07
5.952237461888877e-09,0,5.952237461888877e-09,4.999698432923451,5.952237461888877e-09,4.421313924551418e-07
6.026118730944438e-09,0,6.026118730944438e-09,4.999704128377192,6.026118730944438e-09,4.268002578212847e-07
6.1e-09,0,6.1e-09,4.999709620436732,6.1e-09,4.122944666249134e-07
6.103125e-09,0.1562500000000117,6.103125e-09,5.010401946180945,6.103125e-09,0.002013170237760025
6.106313343299586e-09,0.315667164979278,6.106313343299586e-09,5.021027207818184,6.106313343299586e-09,0.003853573528611884
6.112298234520415e-09,0.614911726020724,6.112298234520415e-09,5.039987659753523,6.112298234520415e-09,0.006616400236769146
6.113794457325622e-09,0.689722866281075,6.113794457325622e-09,5.044530779909392,6.113794457325622e-09,0.007172067849078148
