/net3 X,/net3 Y,/net8 X,/net8 Y,/O X,/O Y
0,5,0,2.892568355444196e-08,0,4.999999981632027
1e-11,5,1e-11,2.892568251421024e-08,1e-11,4.999999981632012
3e-11,5,3e-11,2.892568053689816e-08,3e-11,4.999999981631993
6.999999999999999e-11,5,6.999999999999999e-11,2.892568113634548e-08,6.999999999999999e-11,4.999999981631971
1.5e-10,5,1.5e-10,2.892568386785724e-08,1.5e-10,4.999999981631959
2.5e-10,5,2.5e-10,2.892568512518487e-08,2.5e-10,4.99999998163196
3.5e-10,5,3.5e-10,2.89256840624659e-08,3.5e-10,4.999999981631961
4.5e-10,5,4.5e-10,2.892568368989921e-08,4.5e-10,4.999999981631962
5.5e-10,5,5.5e-10,2.892568341253575e-08,5.5e-10,4.999999981631962
6.499999999999999e-10,5,6.499999999999999e-10,2.892568272739945e-08,6.499999999999999e-10,4.999999981631962
7.499999999999999e-10,5,7.499999999999999e-10,2.892568314873588e-08,7.499999999999999e-10,4.999999981631962
8.499999999999999e-10,5,8.499999999999999e-10,2.892568339064448e-08,8.499999999999999e-10,4.999999981631962
9.25e-10,5,9.25e-10,2.892568384305534e-08,9.25e-10,4.999999981631962
1e-09,5,1e-09,2.892568323604855e-08,1e-09,4.999999981631962
1.000283268430014e-09,4.985836578499315,1.000283268430014e-09,-0.0004473183627642633,1.000283268430014e-09,4.999905039657418
1.000486849127553e-09,4.975657543622347,1.000486849127553e-09,-0.0007761800964435568,1.000486849127553e-09,4.999835530069612
1.000894010522632e-09,4.95529947386841,1.000894010522632e-09,-0.001461346677784187,1.000894010522632e-09,4.999691841030338
1.001296283154631e-09,4.935185842268457,1.001296283154631e-09,-0.002174573359285386,1.001296283154631e-09,4.999543834233802
1.002100828418629e-09,4.89495857906855,1.002100828418629e-09,-0.003701657594993639,1.002100828418629e-09,4.99923183124815
1.003134195706666e-09,4.843290214666704,1.003134195706666e-09,-0.005837749229030418,1.003134195706666e-09,4.998805214626109
1.004137937311274e-09,4.793103134436326,1.004137937311274e-09,-0.008075525526248684,1.004137937311274e-09,4.998368975998376
1.005214386078464e-09,4.739280696076798,1.005214386078464e-09,-0.01062518167691594,1.005214386078464e-09,4.997883945614628
1.006381157321149e-09,4.680942133942558,1.006381157321149e-09,-0.01353265141162287,1.006381157321149e-09,4.997345330146763
1.007643035754817e-09,4.617848212259163,1.007643035754817e-09,-0.01681244945008838,1.007643035754817e-09,4.996755208164986
1.009019467780072e-09,4.549026610996422,1.009019467780072e-09,-0.02051732534165089,1.009019467780072e-09,4.996109783940722
1.010522295272255e-09,4.47388523638725,1.010522295272255e-09,-0.02469743767618336,1.010522295272255e-09,4.995406652787507
1.012163884094365e-09,4.391805795281763,1.012163884094365e-09,-0.02952642516804137,1.012163884094365e-09,4.99461930626801
1.013066434236955e-09,4.346678288152259,1.013066434236955e-09,-0.0324565261869711,1.013066434236955e-09,4.994144854610261
1.013913177677029e-09,4.304341116148549,1.013913177677029e-09,-0.03548588054837675,1.013913177677029e-09,4.993652025184617
1.014816362022137e-09,4.259181898893141,1.014816362022137e-09,-0.03897829956176163,1.014816362022137e-09,4.993084793049041
1.016056794446674e-09,4.197160277666289,1.016056794446674e-09,-0.04395432944803956,1.016056794446674e-09,4.992292553427098
1.01692548795441e-09,4.153725602279517,1.01692548795441e-09,-0.04742021000862051,1.01692548795441e-09,4.991758980135246
1.017781757434818e-09,4.110912128259095,1.017781757434818e-09,-0.05075899089349201,1.017781757434818e-09,4.99126292512039
1.018914883937281e-09,4.054255803135961,1.018914883937281e-09,-0.05501323900973917,1.018914883937281e-09,4.99066040823837
1.020444493821342e-09,3.977775308932904,1.020444493821342e-09,-0.06041010103480611,1.020444493821342e-09,4.989951359840676
1.022446839246245e-09,3.877658037687732,1.022446839246245e-09,-0.06681708477064235,1.022446839246245e-09,4.98920769114419
1.025031254453613e-09,3.748437277319358,1.025031254453613e-09,-0.07391083944884524,1.025031254453613e-09,4.988553517240675
1.02821157354747e-09,3.589421322626503,1.02821157354747e-09,-0.08072943757965832,1.02821157354747e-09,4.988204584820663
1.031965211638811e-09,3.401739418059457,1.031965211638811e-09,-0.0859630013904213,1.031965211638811e-09,4.988402021431281
1.03639537237905e-09,3.180231381047517,1.03639537237905e-09,-0.08812651173868527,1.03639537237905e-09,4.989410574680419
1.0418369760372e-09,2.908151198140005,1.0418369760372e-09,-0.08477671516561318,1.0418369760372e-09,4.991660818108457
1.047935058069751e-09,2.603247096512474,1.047935058069751e-09,-0.07316866566154963,1.047935058069751e-09,4.995310064767128
1.054675038327987e-09,2.266248083600638,1.054675038327987e-09,-0.05076818929086148,1.054675038327987e-09,5.000505400339031
1.0621348700994e-09,1.893256495029986,1.0621348700994e-09,-0.01440249387533945,1.0621348700994e-09,5.007648618247437
1.070140056499377e-09,1.492997175031129,1.070140056499377e-09,0.03764068579359651,1.070140056499377e-09,5.016257651346198
1.075880477204414e-09,1.205976139779295,1.075880477204414e-09,0.08302231365630773,1.075880477204414e-09,5.022884509616715
1.081724490011732e-09,0.9137754994133971,1.081724490011732e-09,0.1359627432486531,1.081724490011732e-09,5.029917087812164
1.083595791550484e-09,0.8202104224758235,1.083595791550484e-09,0.1543594277154942,1.083595791550484e-09,5.032227199179942
1.08595787878067e-09,0.7021060609664973,1.08595787878067e-09,0.1786402135639014,1.08595787878067e-09,5.035191741564766
1.086743265744579e-09,0.6628367127710506,1.086743265744579e-09,0.1869939295300488,1.086743265744579e-09,5.036193180018301
1.08754947754721e-09,0.6225261226395178,1.08754947754721e-09,0.1957414108217002,1.08754947754721e-09,5.037234902136004
1.088335054718241e-09,0.5832472640879551,1.088335054718241e-09,0.2044607292611632,1.088335054718241e-09,5.038269164264993
1.089474381225421e-09,0.5262809387289549,1.089474381225421e-09,0.2174999921659671,1.089474381225421e-09,5.039812940614797
1.090285354667144e-09,0.485732266642823,1.090285354667144e-09,0.2270799189246605,1.090285354667144e-09,5.040945944803661
1.090996329546413e-09,0.4501835226793292,1.090996329546413e-09,0.2356870588390911,1.090996329546413e-09,5.041963002658331
1.09192805043127e-09,0.4035974784365122,1.09192805043127e-09,0.2472612437681477,1.09192805043127e-09,5.043328553580834
1.093349591975262e-09,0.332520401236903,1.093349591975262e-09,0.265554308602947,1.093349591975262e-09,5.045479155173757
1.095598874197047e-09,0.2200562901476548,1.095598874197047e-09,0.2960223958583491,1.095598874197047e-09,5.04903169053206
1.1e-09,0,1.1e-09,0.3608621257538501,1.1e-09,5.05643896130833
1.100568333555771e-09,0,1.100568333555771e-09,0.3714770467781427,1.100568333555771e-09,5.057811438290374
1.101110833790419e-09,0,1.101110833790419e-09,0.3815860950300844,1.101110833790419e-09,5.059102512252484
1.101924772225787e-09,0,1.101924772225787e-09,0.3966915062901774,1.101924772225787e-09,5.060991738292604
1.103552649096523e-09,0,1.103552649096523e-09,0.4266875414917809,1.103552649096523e-09,5.064596990919411
1.106808402837993e-09,0,1.106808402837993e-09,0.4859938506308739,1.106808402837993e-09,5.071192754295488
1.109698332715386e-09,0,1.109698332715386e-09,0.5380476800815394,1.109698332715386e-09,5.076448467617382
1.112827382417026e-09,0,1.112827382417026e-09,0.5939802664861599,1.112827382417026e-09,5.081605824141565
1.116440243867024e-09,0,1.116440243867024e-09,0.658216207839966,1.116440243867024e-09,5.086990932728034
1.120584531039759e-09,0,1.120584531039759e-09,0.7316365161313779,1.120584531039759e-09,5.092562751213993
1.125462273627154e-09,0,1.125462273627154e-09,0.8177273825982949,1.125462273627154e-09,5.098548889472225
1.13123091254173e-09,0,1.13123091254173e-09,0.9184025579923388,1.13123091254173e-09,5.105433002494538
1.137796987613278e-09,0,1.137796987613278e-09,1.031399069453379,1.137796987613278e-09,5.112148862963124
1.145172752544528e-09,0,1.145172752544528e-09,1.157974774402099,1.145172752544528e-09,5.115226983573669
1.153183834833587e-09,0,1.153183834833587e-09,1.295322623780247,1.153183834833587e-09,5.111844086869275
1.159954948069652e-09,0,1.159954948069652e-09,1.411111655329701,1.159954948069652e-09,5.103353089592665
1.168174066762272e-09,0,1.168174066762272e-09,1.551010447051925,1.168174066762272e-09,5.086226588261717
1.17753905787706e-09,0,1.17753905787706e-09,1.709195465834089,1.17753905787706e-09,5.057926971756832
1.188803955214561e-09,0,1.188803955214561e-09,1.897195098464685,1.188803955214561e-09,5.012009666840077
1.198984217082738e-09,0,1.198984217082738e-09,2.064786119759057,1.198984217082738e-09,4.961305852331565
1.207756525533191e-09,0,1.207756525533191e-09,2.2067542709412,1.207756525533191e-09,4.909675492842388
1.225016972245695e-09,0,1.225016972245695e-09,2.477114972932188,1.225016972245695e-09,4.78333393127347
1.237601670656258e-09,0,1.237601670656258e-09,2.665525466962364,1.237601670656258e-09,4.667018618025524
1.248163139429316e-09,0,1.248163139429316e-09,2.817496433808734,1.248163139429316e-09,4.548681859806881
1.257797585751469e-09,0,1.257797585751469e-09,2.951758042210542,1.257797585751469e-09,4.416213032403906
1.263979883292059e-09,0,1.263979883292059e-09,3.036262282477333,1.263979883292059e-09,4.313397181017123
1.272622774418642e-09,0,1.272622774418642e-09,3.151313200033186,1.272622774418642e-09,4.143322361129419
1.280237814404433e-09,0,1.280237814404433e-09,3.248943113860412,1.280237814404433e-09,3.969113995717266
1.289160263559377e-09,0,1.289160263559377e-09,3.359039921086623,1.289160263559377e-09,3.73607615340888
1.298321186829556e-09,0,1.298321186829556e-09,3.467704018060262,1.298321186829556e-09,3.46471420896087
1.308190583913539e-09,0,1.308190583913539e-09,3.58003165588564,1.308190583913539e-09,3.137100309845554
1.319416847045217e-09,0,1.319416847045217e-09,3.701461924505045,1.319416847045217e-09,2.72268362918744
1.32905990348726e-09,0,1.32905990348726e-09,3.79983322821926,1.32905990348726e-09,2.334753838009597
1.335379009701304e-09,0,1.335379009701304e-09,3.861134617794577,1.335379009701304e-09,2.067165962460936
1.339325058019728e-09,0,1.339325058019728e-09,3.898098910628472,1.339325058019728e-09,1.896370629535377
1.347217154656576e-09,0,1.347217154656576e-09,3.96883406052752,1.347217154656576e-09,1.561109854523204
1.353661670329516e-09,0,1.353661670329516e-09,4.022828469622396,1.353661670329516e-09,1.311470808929352
1.358968002763518e-09,0,1.358968002763518e-09,4.065011962559301,1.358968002763518e-09,1.127836369211437
1.365983515019917e-09,0,1.365983515019917e-09,4.118724888599111,1.365983515019917e-09,0.9162598484952863
1.372145081758337e-09,0,1.372145081758337e-09,4.164541476365541,1.372145081758337e-09,0.7584116587207314
1.377571224129615e-09,0,1.377571224129615e-09,4.204049676660032,1.377571224129615e-09,0.6396055708884572
1.382606113482077e-09,0,1.382606113482077e-09,4.240070206208409,1.382606113482077e-09,0.5448585283397606
1.387475141924435e-09,0,1.387475141924435e-09,4.274341677124212,1.387475141924435e-09,0.4659820770605788
1.397096119550599e-09,0,1.397096119550599e-09,4.340296783122715,1.397096119550599e-09,0.3407232987306404
1.402030852167798e-09,0,1.402030852167798e-09,4.373095649122278,1.402030852167798e-09,0.2902577831771416
1.411460364656647e-09,0,1.411460364656647e-09,4.43307253135287,1.411460364656647e-09,0.2138809271585638
1.417178355152483e-09,0,1.417178355152483e-09,4.467447030258581,1.417178355152483e-09,0.1784325939595264
1.424131436614282e-09,0,1.424131436614282e-09,4.507029497193922,1.424131436614282e-09,0.1439046327901971
1.43102366696023e-09,0,1.43102366696023e-09,4.543809807398892,1.43102366696023e-09,0.1170432931458501
1.43874019974626e-09,0,1.43874019974626e-09,4.582110034007018,1.43874019974626e-09,0.09366376022177263
1.447170008371015e-09,0,1.447170008371015e-09,4.620581072705254,1.447170008371015e-09,0.07423924654923224
1.456605111189979e-09,0,1.456605111189979e-09,4.659680428965649,1.456605111189979e-09,0.05805998317549303
1.467195954494349e-09,0,1.467195954494349e-09,4.698939534146819,1.467195954494349e-09,0.04487735385154674
1.476576525642531e-09,0,1.476576525642531e-09,4.729942696654883,1.476576525642531e-09,0.03637332482580752
1.495337667938895e-09,0,1.495337667938895e-09,4.78277677571143,1.495337667938895e-09,0.02470302809702441
1.508863287269452e-09,0,1.508863287269452e-09,4.814189819394143,1.508863287269452e-09,0.01931671483330294
1.521534441291536e-09,0,1.521534441291536e-09,4.839282556122018,1.521534441291536e-09,0.01571388880922325
1.536527802542752e-09,0,1.536527802542752e-09,4.864418782728418,1.536527802542752e-09,0.01255277385494939
1.55311333960874e-09,0,1.55311333960874e-09,4.887422408937953,1.55311333960874e-09,0.009950588357357515
1.571247387113859e-09,0,1.571247387113859e-09,4.907846158120033,1.571247387113859e-09,0.00781601829410004
1.591633208953799e-09,0,1.591633208953799e-09,4.926094103505985,1.591633208953799e-09,0.006014265196740332
1.614695341704267e-09,0,1.614695341704267e-09,4.942058628862439,1.614695341704267e-09,0.004501819694018161
1.640892364496479e-09,0,1.640892364496479e-09,4.955648087503002,1.640892364496479e-09,0.003255306807259615
1.6709961992768e-09,0,1.6709961992768e-09,4.96692851997217,1.6709961992768e-09,0.002250884015450092
1.706094620360499e-09,0,1.706094620360499e-09,4.976018525431147,1.706094620360499e-09,0.001468501026179477
1.747747044661062e-09,0,1.747747044661062e-09,4.983085300173971,1.747747044661062e-09,0.0008877864422844537
1.798326890619111e-09,0,1.798326890619111e-09,4.988353393681219,1.798326890619111e-09,0.0004844842944997765
1.861588252921128e-09,0,1.861588252921128e-09,4.992097642601418,1.861588252921128e-09,0.0002296039700703235
1.943752589648018e-09,0,1.943752589648018e-09,4.99463490950005,1.943752589648018e-09,8.956345199242471e-05
2.043752589648018e-09,0,2.043752589648018e-09,4.996153626263902,2.043752589648018e-09,3.347234795694331e-05
2.143752589648018e-09,0,2.143752589648018e-09,4.996939357509175,2.143752589648018e-09,2.033654519186297e-05
2.243752589648018e-09,0,2.243752589648018e-09,4.997429956942302,2.243752589648018e-09,1.770980003296495e-05
2.343752589648018e-09,0,2.343752589648018e-09,4.997789384223971,2.343752589648018e-09,1.604321325409256e-05
2.443752589648018e-09,0,2.443752589648018e-09,4.998073265157861,2.443752589648018e-09,1.382092428695184e-05
2.543752589648018e-09,0,2.543752589648018e-09,4.998302495612578,2.543752589648018e-09,1.144364612872701e-05
2.643752589648018e-09,0,2.643752589648018e-09,4.998488795746425,2.643752589648018e-09,9.337205272835341e-06
2.743752589648018e-09,0,2.743752589648018e-09,4.998641278305296,2.743752589648018e-09,7.64731237820358e-06
2.843752589648019e-09,0,2.843752589648019e-09,4.998767431414795,2.843752589648019e-09,6.344391566135039e-06
2.943752589648019e-09,0,2.943752589648019e-09,4.998873152844602,2.943752589648019e-09,5.343188021055078e-06
3.043752589648019e-09,0,3.043752589648019e-09,4.998962902901977,3.043752589648019e-09,4.562333658024035e-06
3.143752589648019e-09,0,3.143752589648019e-09,4.999039995492965,3.143752589648019e-09,3.940966880772541e-06
3.243752589648019e-09,0,3.243752589648019e-09,4.999106898948314,3.243752589648019e-09,3.437253569774309e-06
3.343752589648019e-09,0,3.343752589648019e-09,4.999165478461081,3.343752589648019e-09,3.022732460846823e-06
3.443752589648019e-09,0,3.443752589648019e-09,4.999217169754538,3.443752589648019e-09,2.677506789973771e-06
3.543752589648019e-09,0,3.543752589648019e-09,4.999263097725613,3.543752589648019e-09,2.387130759086133e-06
3.643752589648019e-09,0,3.643752589648019e-09,4.999304157199766,3.643752589648019e-09,2.140770765044835e-06
3.743752589648019e-09,0,3.743752589648019e-09,4.999341069034086,3.743752589648019e-09,1.930116757413919e-06
3.843752589648019e-09,0,3.843752589648019e-09,4.999374420215616,3.843752589648019e-09,1.748698317284558e-06
3.943752589648019e-09,0,3.943752589648019e-09,4.999404693274804,3.943752589648019e-09,1.591422268455958e-06
4.043752589648019e-09,0,4.043752589648019e-09,4.999432288298167,4.043752589648019e-09,1.454242363655475e-06
4.143752589648019e-09,0,4.143752589648019e-09,4.999457539648827,4.143752589648019e-09,1.333916104057162e-06
4.243752589648019e-09,0,4.243752589648019e-09,4.999480728815986,4.243752589648019e-09,1.227823219920364e-06
4.34375258964802e-09,0,4.34375258964802e-09,4.999502094389148,4.34375258964802e-09,1.133829149827446e-06
4.44375258964802e-09,0,4.44375258964802e-09,4.999521839872627,4.44375258964802e-09,1.050181702120487e-06
4.54375258964802e-09,0,4.54375258964802e-09,4.999540139862193,4.54375258964802e-09,9.754322504507663e-07
4.64375258964802e-09,0,4.64375258964802e-09,4.99955714496826,4.64375258964802e-09,9.083751336678957e-07
4.74375258964802e-09,0,4.74375258964802e-09,4.999572985771231,4.74375258964802e-09,8.480006423859285e-07
4.84375258964802e-09,0,4.84375258964802e-09,4.999587776022992,4.84375258964802e-09,7.9345824091283e-07
4.94375258964802e-09,0,4.94375258964802e-09,4.999601615256372,4.94375258964802e-09,7.440275581421672e-07
5.04375258964802e-09,0,5.04375258964802e-09,4.999614590925986,5.04375258964802e-09,6.990953303342107e-07
5.14375258964802e-09,0,5.14375258964802e-09,4.999626780175398,5.14375258964802e-09,6.581369526789065e-07
5.24375258964802e-09,0,5.24375258964802e-09,4.999638251304273,5.24375258964802e-09,6.20701615359928e-07
5.34375258964802e-09,0,5.34375258964802e-09,4.999649064993064,5.34375258964802e-09,5.864002535289027e-07
5.44375258964802e-09,0,5.44375258964802e-09,4.999659275330577,5.44375258964802e-09,5.548957212891709e-07
5.54375258964802e-09,0,5.54375258964802e-09,4.999668930680314,5.54375258964802e-09,5.258947377045093e-07
5.64375258964802e-09,0,5.64375258964802e-09,4.999678074414257,5.64375258964802e-09,4.991412411818536e-07
5.74375258964802e-09,0,5.74375258964802e-09,4.999686745537091,5.74375258964802e-09,4.744108944467048e-07
5.843752589648021e-09,0,5.843752589648021e-09,4.999694979219414,5.843752589648021e-09,4.51506500728644e-07
5.943752589648021e-09,0,5.943752589648021e-09,4.999702807255009,5.943752589648021e-09,4.302541756946346e-07
6.02187629482401e-09,0,6.02187629482401e-09,4.999708658024656,6.02187629482401e-09,4.147250554025411e-07
6.1e-09,0,6.1e-09,4.999714291272046,6.1e-09,4.000621297744199e-07
6.103125e-09,0.1562500000000117,6.103125e-09,5.012310960247421,6.103125e-09,0.002371748459834837
6.106372020271353e-09,0.3186010135676311,6.106372020271353e-09,5.025003266081908,6.106372020271353e-09,0.004566638527101163
6.11259049144322e-09,0.6295245721610118,6.11259049144322e-09,5.047899679414427,6.11259049144322e-09,0.007871768628884529
6.114145109236187e-09,0.7072554618093569,6.114145109236187e-09,5.053340912641462,6.114145109236187e-09,0.008522393448833314
6.117254344822121e-09,0.8627172411060474,6.117254344822121e-09,5.063913897276564,6.117254344822121e-09,0.00964672260609134
6.120962475352235e-09,1.048123767611743,6.120962475352235e-09,5.076033447864009,6.120962475352235e-09,0.01072308845111777
6.123689559895573e-09,1.184477994778673,6.123689559895573e-09,5.084635622349086,6.123689559895573e-09,0.01135502149936337
6.126876957194616e-09,1.343847859730823,6.126876957194616e-09,5.094394066800374,6.126876957194616e-09,0.0119510070943314
6.131697826177916e-09,1.584891308895794,6.131697826177916e-09,5.108641142737203,6.131697826177916e-09,0.01262133736378788
6.137390882130279e-09,1.869544106513928,6.137390882130279e-09,5.124836312618638,6.137390882130279e-09,0.01314387055696403
6.144022067348621e-09,2.201103367431048,6.144022067348621e-09,5.143677142804817,6.144022067348621e-09,0.01360906900197058
6.145657617501315e-09,2.282880875065772,6.145657617501315e-09,5.149111493674122,6.145657617501315e-09,0.01386163480781125
6.148816473156463e-09,2.440823657823167,6.148816473156463e-09,5.160587321248354,6.148816473156463e-09,0.01450138878764769
6.154045657921407e-09,2.702282896070357,6.154045657921407e-09,5.177993020664445,6.154045657921407e-09,0.01510458833679989
6.159128738003761e-09,2.956436900188032,6.159128738003761e-09,5.189636789611208,6.159128738003761e-09,0.01459070827806331
