/net1 X,/net1 Y,/net09 X,/net09 Y,/o1 X,/o1 Y
0,0,0,4.99999999145504,0,1.704906614307206e-08
1e-11,0,1e-11,4.99999999145504,1e-11,1.704906622610294e-08
3e-11,0,3e-11,4.99999999145504,3e-11,1.704906611895655e-08
6.999999999999999e-11,0,6.999999999999999e-11,4.999999991455039,6.999999999999999e-11,1.704906670470937e-08
1.5e-10,0,1.5e-10,4.999999991455039,1.5e-10,1.704906713623059e-08
2.5e-10,0,2.5e-10,4.999999991455041,2.5e-10,1.704906698560643e-08
3.5e-10,0,3.5e-10,4.999999991455041,3.5e-10,1.70490663813419e-08
4.5e-10,0,4.5e-10,4.999999991455041,4.5e-10,1.704906615748277e-08
5.5e-10,0,5.5e-10,4.99999999145504,5.5e-10,1.704906639673337e-08
6.499999999999999e-10,0,6.499999999999999e-10,4.99999999145504,6.499999999999999e-10,1.70490662694839e-08
7.499999999999999e-10,0,7.499999999999999e-10,4.99999999145504,7.499999999999999e-10,1.704906618339902e-08
8.499999999999999e-10,0,8.499999999999999e-10,4.99999999145504,8.499999999999999e-10,1.704906622118306e-08
9.25e-10,0,9.25e-10,4.99999999145504,9.25e-10,1.704906650806219e-08
1e-09,0,1e-09,4.99999999145504,1e-09,1.704906636205082e-08
1.000048387895121e-09,0.002419394756067303,1.000048387895121e-09,5.000382822442313,1.000048387895121e-09,8.080886015921748e-05
1.000082557713316e-09,0.00412788566580807,1.000082557713316e-09,5.000653009057998,1.000082557713316e-09,0.0001377753598054964
1.000150897349706e-09,0.007544867485289603,1.000150897349706e-09,5.001192782514471,1.000150897349706e-09,0.0002513738328386113
1.000287576622485e-09,0.01437883112425267,1.000287576622485e-09,5.002269766331141,1.000287576622485e-09,0.0004771415727548077
1.000560935168044e-09,0.02804675840217881,1.000560935168044e-09,5.004413409740755,1.000560935168044e-09,0.0009229352063163881
1.001107652259161e-09,0.05538261295803108,1.001107652259161e-09,5.008659812601588,1.001107652259161e-09,0.001791912953397603
1.002201086441395e-09,0.1100543220697356,1.002201086441395e-09,5.016993093331263,1.002201086441395e-09,0.003442647808095846
1.0040727945599e-09,0.2036397279949851,1.0040727945599e-09,5.030785697255307,1.0040727945599e-09,0.006015346915791907
1.006071263064064e-09,0.303563153203196,1.006071263064064e-09,5.044890354559415,1.006071263064064e-09,0.008436894146005408
1.008168746840201e-09,0.4084373420100435,1.008168746840201e-09,5.059051008112634,1.008168746840201e-09,0.01065134966570773
1.01038081623403e-09,0.5190408117015076,1.01038081623403e-09,5.073364662534691,1.01038081623403e-09,0.0126699674241472
1.012564317801328e-09,0.6282158900663947,1.012564317801328e-09,5.08731365156163,1.012564317801328e-09,0.01445782843876505
1.014220774832092e-09,0.7110387416046037,1.014220774832092e-09,5.098447336843901,1.014220774832092e-09,0.01582438256942197
1.015484136201296e-09,0.7742068100648075,1.015484136201296e-09,5.107059588478736,1.015484136201296e-09,0.01683221757732297
1.017032892655297e-09,0.8516446327648325,1.017032892655297e-09,5.11714563826013,1.017032892655297e-09,0.01790398309533018
1.018218537793658e-09,0.9109268896828857,1.018218537793658e-09,5.124329083805951,1.018218537793658e-09,0.01856926590762907
1.019708229529049e-09,0.9854114764524479,1.019708229529049e-09,5.132588436082396,1.019708229529049e-09,0.01920334452617425
1.022281787951604e-09,1.11408939758019,1.022281787951604e-09,5.144708324874284,1.022281787951604e-09,0.01978141446758713
1.026161811798378e-09,1.308090589918919,1.026161811798378e-09,5.157681355606479,1.026161811798378e-09,0.01951357596765563
1.029068647780756e-09,1.453432389037783,1.029068647780756e-09,5.163203744279852,1.029068647780756e-09,0.01849843926338254
1.031756707375036e-09,1.587835368751817,1.031756707375036e-09,5.165117965203352,1.031756707375036e-09,0.01700998324600412
1.034455238227291e-09,1.722761911364568,1.034455238227291e-09,5.163976341886124,1.034455238227291e-09,0.01504795504017237
1.037143049033803e-09,1.857152451690123,1.037143049033803e-09,5.159818985584142,1.037143049033803e-09,0.01268398821263955
1.039911562630251e-09,1.995578131512558,1.039911562630251e-09,5.152420304619887,1.039911562630251e-09,0.009874749820502888
1.042795710816537e-09,2.139785540826854,1.042795710816537e-09,5.141383978774999,1.042795710816537e-09,0.006595579776194981
1.045817670768245e-09,2.290883538412268,1.045817670768245e-09,5.126205657197572,1.045817670768245e-09,0.002823231279354557
1.049014952031482e-09,2.450747601574106,1.049014952031482e-09,5.106141375350266,1.049014952031482e-09,-0.001566211111836321
1.053349248555156e-09,2.667462427757799,1.053349248555156e-09,5.072351308108785,1.053349248555156e-09,-0.008169846211353134
1.055530207013329e-09,2.776510350666438,1.055530207013329e-09,5.052435598054745,1.055530207013329e-09,-0.01167892710201385
1.057656972790402e-09,2.882848639520085,1.057656972790402e-09,5.031100229015467,1.057656972790402e-09,-0.0152138643723566
1.061910504344548e-09,3.095525217227379,1.061910504344548e-09,4.982975113506818,1.061910504344548e-09,-0.02252969225029708
1.065297871536848e-09,3.26489357684239,1.065297871536848e-09,4.939360201556793,1.065297871536848e-09,-0.02858437258557713
1.06757930058246e-09,3.378965029122986,1.06757930058246e-09,4.906705159155997,1.06757930058246e-09,-0.03289735555037577
1.0699047117286e-09,3.495235586429984,1.0699047117286e-09,4.870309345740769,1.0699047117286e-09,-0.03755142735960561
1.072719807179907e-09,3.635990358995335,1.072719807179907e-09,4.820950792768098,1.072719807179907e-09,-0.04372455981960793
1.074968745290924e-09,3.748437264546213,1.074968745290924e-09,4.775379849081832,1.074968745290924e-09,-0.04944984094708987
1.076572577885026e-09,3.828628894251276,1.076572577885026e-09,4.738529313824597,1.076572577885026e-09,-0.05414361661736102
1.078184588097232e-09,3.909229404861615,1.078184588097232e-09,4.698472048797092,1.078184588097232e-09,-0.05920422673561779
1.079768958434938e-09,3.988447921746891,1.079768958434938e-09,4.656752468751104,1.079768958434938e-09,-0.06436622747970926
1.081380696431657e-09,4.06903482158286,1.081380696431657e-09,4.611998588350801,1.081380696431657e-09,-0.0697823719527853
1.084338506258058e-09,4.216925312902918,1.084338506258058e-09,4.521925166332351,1.084338506258058e-09,-0.08051916903070978
1.086431946944291e-09,4.321597347214555,1.086431946944291e-09,4.452216958873836,1.086431946944291e-09,-0.08875095424667161
1.090618828316757e-09,4.530941415837826,1.090618828316757e-09,4.308908545855202,1.090618828316757e-09,-0.1065658548004233
1.09436663400933e-09,4.718331700466489,1.09436663400933e-09,4.182815860156494,1.09436663400933e-09,-0.1240192641839797
1.095962295328135e-09,4.798114766406762,1.095962295328135e-09,4.12776595236446,1.095962295328135e-09,-0.1312169979330777
1.097485452713963e-09,4.874272635698123,1.097485452713963e-09,4.074010437650347,1.097485452713963e-09,-0.1377263976319182
1.098742726356981e-09,4.937136317849069,1.098742726356981e-09,4.028713555209309,1.098742726356981e-09,-0.1427681033558446
1.1e-09,5,1.1e-09,3.98257520926112,1.1e-09,-0.147469931024797
1.100608586664288e-09,5,1.100608586664288e-09,3.95681426660218,1.100608586664288e-09,-0.15038132358407
1.101116007496687e-09,5,1.101116007496687e-09,3.93533893343319,1.101116007496687e-09,-0.1527222617271708
1.101633265371173e-09,5,1.101633265371173e-09,3.913459273389631,1.101633265371173e-09,-0.1549945961997979
1.102667781120145e-09,5,1.102667781120145e-09,3.869748143886062,1.102667781120145e-09,-0.1591556750178008
1.104550017897013e-09,5,1.104550017897013e-09,3.790398572389791,1.104550017897013e-09,-0.1653975465798889
1.108314491450751e-09,5,1.108314491450751e-09,3.63246297665516,1.108314491450751e-09,-0.1728000469833438
1.114007596415697e-09,5,1.114007596415697e-09,3.395799963604403,1.114007596415697e-09,-0.1714905266152549
1.119019424487676e-09,5,1.119019424487676e-09,3.189976571030298,1.119019424487676e-09,-0.1582042123010292
1.124206972761218e-09,5,1.124206972761218e-09,2.979927479338691,1.124206972761218e-09,-0.1326873227465119
1.130644192996731e-09,5,1.130644192996731e-09,2.724984970400609,1.130644192996731e-09,-0.08430417896974432
1.134446571379408e-09,5,1.134446571379408e-09,2.578489656833479,1.134446571379408e-09,-0.04655060915886419
1.138336403586476e-09,5,1.138336403586476e-09,2.433042889058826,1.138336403586476e-09,-0.0005885716066746343
1.140246434257008e-09,5,1.140246434257008e-09,2.363553604268637,1.140246434257008e-09,0.02357604787123192
1.141822656173119e-09,5,1.141822656173119e-09,2.307270130709933,1.141822656173119e-09,0.04482978823000377
1.143462967809572e-09,5,1.143462967809572e-09,2.249773504215041,1.143462967809572e-09,0.0682479097157532
1.146743591082476e-09,5,1.146743591082476e-09,2.138193353174503,1.146743591082476e-09,0.1191725750112592
1.151045886287778e-09,5,1.151045886287778e-09,1.99877454187341,1.151045886287778e-09,0.1947817487247828
1.154537974598365e-09,5,1.154537974598365e-09,1.891100586706765,1.154537974598365e-09,0.2645147705861213
1.157479270354581e-09,5,1.157479270354581e-09,1.803761097473586,1.157479270354581e-09,0.3304435641459125
1.15998372951849e-09,5,1.15998372951849e-09,1.731265342876523,1.15998372951849e-09,0.3933837612457304
1.162108365976048e-09,5,1.162108365976048e-09,1.670877123517349,1.162108365976048e-09,0.4528188931193554
1.164230969126078e-09,5,1.164230969126078e-09,1.611929853516417,1.164230969126078e-09,0.5178135527514584
1.168476175426136e-09,5,1.168476175426136e-09,1.499858142916386,1.168476175426136e-09,0.6629088136903599
1.171916391486912e-09,5,1.171916391486912e-09,1.415188527003339,1.171916391486912e-09,0.7938107975218959
1.17544706495053e-09,5,1.17544706495053e-09,1.333907292363717,1.17544706495053e-09,0.9394293102208526
1.17977301241097e-09,5,1.17977301241097e-09,1.241670346114479,1.17977301241097e-09,1.131621096096481
1.184290166775571e-09,5,1.184290166775571e-09,1.153437971095701,1.184290166775571e-09,1.34618654071835
1.188958437465773e-09,5,1.188958437465773e-09,1.070219497056436,1.188958437465773e-09,1.580057845825885
1.193834436874589e-09,5,1.193834436874589e-09,0.9909736124068736,1.193834436874589e-09,1.834284878210638
1.198921257652873e-09,5,1.198921257652873e-09,0.9150780249980476,1.198921257652873e-09,2.106829553578469
1.204312468338333e-09,5,1.204312468338333e-09,0.8401985607737205,1.204312468338333e-09,2.399681396489136
1.209927390137298e-09,5,1.209927390137298e-09,0.7682723232117272,1.209927390137298e-09,2.702360232409539
1.215131221235631e-09,5,1.215131221235631e-09,0.7081974940373177,1.215131221235631e-09,2.972223883554613
1.219851856036548e-09,5,1.219851856036548e-09,0.6606123877869156,1.219851856036548e-09,3.199633589461133
1.224323123109921e-09,5,1.224323123109921e-09,0.6220028823441961,1.224323123109921e-09,3.395099915455349
1.229564230821026e-09,5,1.229564230821026e-09,0.5824454321647371,1.229564230821026e-09,3.599913554460373
1.238049613853226e-09,5,1.238049613853226e-09,0.5253689040632944,1.238049613853226e-09,3.881682555666326
1.246502061214645e-09,5,1.246502061214645e-09,0.4728198473945707,1.246502061214645e-09,4.109428808571765
1.254638052769574e-09,5,1.254638052769574e-09,0.4246472901060139,1.254638052769574e-09,4.286341789678117
1.263275963239192e-09,5,1.263275963239192e-09,0.3758994502969637,1.263275963239192e-09,4.436460678505275
1.272339697779901e-09,5,1.272339697779901e-09,0.3278417101908912,1.272339697779901e-09,4.560128275968428
1.281782426292768e-09,5,1.281782426292768e-09,0.2817387631982317,1.281782426292768e-09,4.65981337131349
1.287619266605681e-09,5,1.287619266605681e-09,0.2554461575695007,1.287619266605681e-09,4.709137055756401
1.294399006592866e-09,5,1.294399006592866e-09,0.2271596707923657,1.294399006592866e-09,4.757082088119664
1.300840806191535e-09,5,1.300840806191535e-09,0.2025536295676888,1.300840806191535e-09,4.794953311284771
1.307839161473256e-09,5,1.307839161473256e-09,0.1782850268321346,1.307839161473256e-09,4.829156924916466
1.315223080930032e-09,5,1.315223080930032e-09,0.1553461752148145,1.315223080930032e-09,4.858837558975035
1.323212300895793e-09,5,1.323212300895793e-09,0.1334174741452774,1.323212300895793e-09,4.884960641483886
1.331873469628744e-09,5,1.331873469628744e-09,0.1127559580724181,1.331873469628744e-09,4.907665041438618
1.341365432423407e-09,5,1.341365432423407e-09,0.09344196438893097,1.341365432423407e-09,4.927278630785787
1.351861546025346e-09,5,1.351861546025346e-09,0.07562431149646981,1.351861546025346e-09,4.944027630639536
1.361181823447828e-09,5,1.361181823447828e-09,0.06251014648410942,1.361181823447828e-09,4.955506840486676
1.379822378292792e-09,5,1.379822378292792e-09,0.0422463556648849,1.379822378292792e-09,4.97198684428513
1.393035914574999e-09,5,1.393035914574999e-09,0.03182593842548052,1.393035914574999e-09,4.979755528046767
1.405471997915191e-09,5,1.405471997915191e-09,0.02433532130004953,1.405471997915191e-09,4.984998516093047
1.420346818263452e-09,5,1.420346818263452e-09,0.01758910237124039,1.420346818263452e-09,4.989484853519228
1.437111722795667e-09,5,1.437111722795667e-09,0.01212551062095208,1.437111722795667e-09,4.992952270704145
1.456165614012551e-09,5,1.456165614012551e-09,0.007873026283338662,1.456165614012551e-09,4.995540262390013
1.478759156079039e-09,5,1.478759156079039e-09,0.004638300056900809,1.478759156079039e-09,4.997436458678707
1.506214514077759e-09,5,1.506214514077759e-09,0.002346725979099873,1.506214514077759e-09,4.998735136430545
1.54059570509512e-09,5,1.54059570509512e-09,0.0008925606252339646,1.54059570509512e-09,4.999534277690086
1.58568192725686e-09,5,1.58568192725686e-09,0.000123181027799754,1.58568192725686e-09,4.999944715372551
1.648826395741209e-09,5,1.648826395741209e-09,-0.0001478543588889704,1.648826395741209e-09,5.000083499867974
1.746777618090065e-09,5,1.746777618090065e-09,-0.000131301628051932,1.746777618090065e-09,5.000069295009508
1.846777618090065e-09,5,1.846777618090065e-09,-5.066075505148537e-05,1.846777618090065e-09,5.000025775662231
1.946777618090065e-09,5,1.946777618090065e-09,-9.502726548092676e-06,1.946777618090065e-09,5.0000045686191
2.046777618090065e-09,5,2.046777618090065e-09,1.729627220869448e-06,2.046777618090065e-09,4.99999900371277
2.146777618090065e-09,5,2.146777618090065e-09,2.231716993371168e-06,2.146777618090065e-09,4.999998814269755
2.246777618090065e-09,5,2.246777618090065e-09,9.874431694110476e-07,2.246777618090065e-09,4.999999463178702
2.346777618090065e-09,5,2.346777618090065e-09,2.380553428901854e-07,2.346777618090065e-09,4.999999854963901
2.446777618090065e-09,5,2.446777618090065e-09,-2.142138390208221e-09,2.446777618090065e-09,4.999999983621155
2.546777618090066e-09,5,2.546777618090066e-09,-3.114436828654591e-08,2.546777618090066e-09,5.000000000190343
2.646777618090066e-09,5,2.646777618090066e-09,-1.391027877379591e-08,2.646777618090066e-09,4.999999991551229
2.746777618090066e-09,5,2.746777618090066e-09,-8.791344158973069e-10,2.746777618090066e-09,4.999999984492732
2.846777618090066e-09,5,2.846777618090066e-09,3.789471927513573e-09,2.846777618090066e-09,4.999999981824008
2.946777618090066e-09,5,2.946777618090066e-09,4.602206401614076e-09,2.946777618090066e-09,4.999999981347071
3.046777618090066e-09,5,3.046777618090066e-09,4.411467915340308e-09,3.046777618090066e-09,4.999999981451488
3.146777618090066e-09,5,3.146777618090066e-09,4.195357625640214e-09,3.146777618090066e-09,4.999999981572661
3.246777618090066e-09,5,3.246777618090066e-09,4.103005307695745e-09,3.246777618090066e-09,4.999999981624227
3.346777618090066e-09,5,3.346777618090066e-09,4.082017322073011e-09,3.346777618090066e-09,4.999999981635804
3.446777618090066e-09,5,3.446777618090066e-09,4.083180176145299e-09,3.446777618090066e-09,4.999999981635104
3.546777618090066e-09,5,3.546777618090066e-09,4.086693648590543e-09,3.546777618090066e-09,4.999999981633152
3.646777618090066e-09,5,3.646777618090066e-09,4.088457568791259e-09,3.646777618090066e-09,4.999999981632184
3.746777618090066e-09,5,3.746777618090066e-09,4.088940634702336e-09,3.746777618090066e-09,4.999999981631921
3.846777618090066e-09,5,3.846777618090066e-09,4.088964701005809e-09,3.846777618090066e-09,4.999999981631909
3.946777618090066e-09,5,3.946777618090066e-09,4.08891051039475e-09,3.946777618090066e-09,4.999999981631939
4.046777618090066e-09,5,4.046777618090066e-09,4.088877754484143e-09,4.046777618090066e-09,4.999999981631957
4.146777618090066e-09,5,4.146777618090066e-09,4.088866285204961e-09,4.146777618090066e-09,4.999999981631962
4.246777618090066e-09,5,4.246777618090066e-09,4.088865814810769e-09,4.246777618090066e-09,4.999999981631963
4.346777618090066e-09,5,4.346777618090066e-09,4.088867286636527e-09,4.346777618090066e-09,4.999999981631963
4.446777618090066e-09,5,4.446777618090066e-09,4.088867231715336e-09,4.446777618090066e-09,4.999999981631962
4.546777618090066e-09,5,4.546777618090066e-09,4.088867424246599e-09,4.546777618090066e-09,4.999999981631962
4.646777618090067e-09,5,4.646777618090067e-09,4.088867373189714e-09,4.646777618090067e-09,4.999999981631962
4.746777618090067e-09,5,4.746777618090067e-09,4.088867471794336e-09,4.746777618090067e-09,4.999999981631962
4.846777618090067e-09,5,4.846777618090067e-09,4.088867546345884e-09,4.846777618090067e-09,4.999999981631962
4.946777618090067e-09,5,4.946777618090067e-09,4.088867258527712e-09,4.946777618090067e-09,4.999999981631962
5.046777618090067e-09,5,5.046777618090067e-09,4.088866825109285e-09,5.046777618090067e-09,4.999999981631962
5.146777618090067e-09,5,5.146777618090067e-09,4.088867547386751e-09,5.146777618090067e-09,4.999999981631962
5.246777618090067e-09,5,5.246777618090067e-09,4.088868242536167e-09,5.246777618090067e-09,4.999999981631962
5.346777618090067e-09,5,5.346777618090067e-09,4.08886801715477e-09,5.346777618090067e-09,4.999999981631962
5.446777618090067e-09,5,5.446777618090067e-09,4.088867417216166e-09,5.446777618090067e-09,4.999999981631962
5.546777618090067e-09,5,5.546777618090067e-09,4.088867012450199e-09,5.546777618090067e-09,4.999999981631962
5.646777618090067e-09,5,5.646777618090067e-09,4.088867196106524e-09,5.646777618090067e-09,4.999999981631962
5.746777618090067e-09,5,5.746777618090067e-09,4.088867477144537e-09,5.746777618090067e-09,4.999999981631962
5.846777618090067e-09,5,5.846777618090067e-09,4.088867681849662e-09,5.846777618090067e-09,4.999999981631962
5.946777618090067e-09,5,5.946777618090067e-09,4.088867471905248e-09,5.946777618090067e-09,4.999999981631962
6.023388809045033e-09,5,6.023388809045033e-09,4.088868216935211e-09,6.023388809045033e-09,4.999999981631962
6.1e-09,5,6.1e-09,4.088867851440323e-09,6.1e-09,4.999999981631962
6.103125e-09,4.843749999999988,6.103125e-09,-0.01993694681212454,6.103125e-09,4.996098584335474
6.106351345137227e-09,4.682432743138631,6.106351345137227e-09,-0.03935247022306382,6.106351345137227e-09,4.992547706800083
6.112486960850007e-09,4.375651957499629,6.112486960850007e-09,-0.07324796720562941,6.112486960850007e-09,4.987178191672164
6.114020864778202e-09,4.298956761089889,6.114020864778202e-09,-0.08272737812928026,6.114020864778202e-09,4.985775014747095
6.117088672634592e-09,4.145566368270409,6.117088672634592e-09,-0.1020987403524248,6.117088672634592e-09,4.983069176112161
6.123224288347371e-09,3.838785582631449,6.123224288347371e-09,-0.1321349044905552,6.123224288347371e-09,4.980025218351126
6.128398905058718e-09,3.580054747064088,6.128398905058718e-09,-0.1467645661487318,6.128398905058718e-09,4.979960783793274
6.137737470704552e-09,3.113126464772383,6.137737470704552e-09,-0.1472106019041183,6.137737470704552e-09,4.984701665046118
6.141519721816944e-09,2.924013909152818,6.141519721816944e-09,-0.1378971683276797,6.141519721816944e-09,4.988198198644125
6.149084224041726e-09,2.545788797913688,6.149084224041726e-09,-0.1029601492205076,6.149084224041726e-09,4.997262594891714
6.154279646441973e-09,2.286017677901371,6.154279646441973e-09,-0.06617666627793926,6.154279646441973e-09,5.005124446997603
6.164670491242465e-09,1.766475437876738,6.164670491242465e-09,0.03891209301543325,6.164670491242465e-09,5.023820061231056
6.172308753672145e-09,1.384562316392759,6.172308753672145e-09,0.1460916438657602,6.172308753672145e-09,5.040059009160028
