/net1 X,/net1 Y,/net010 X,/net010 Y,/o1 X,/o1 Y
0,0,0,4.999999990889179,0,1.704906616105221e-08
1e-11,0,1e-11,4.999999990889179,1e-11,1.704906624966439e-08
3e-11,0,3e-11,4.999999990889179,3e-11,1.70490661176793e-08
6.999999999999999e-11,0,6.999999999999999e-11,4.999999990889179,6.999999999999999e-11,1.704906644449078e-08
1.5e-10,0,1.5e-10,4.999999990889179,1.5e-10,1.704906696216126e-08
2.5e-10,0,2.5e-10,4.999999990889179,2.5e-10,1.704906653376971e-08
3.5e-10,0,3.5e-10,4.999999990889179,3.5e-10,1.704906617782976e-08
4.5e-10,0,4.5e-10,4.999999990889179,4.5e-10,1.704906630015582e-08
5.5e-10,0,5.5e-10,4.999999990889179,5.5e-10,1.704906613792776e-08
6.499999999999999e-10,0,6.499999999999999e-10,4.999999990889179,6.499999999999999e-10,1.704906615008269e-08
7.499999999999999e-10,0,7.499999999999999e-10,4.999999990889179,7.499999999999999e-10,1.704906648381548e-08
8.499999999999999e-10,0,8.499999999999999e-10,4.999999990889179,8.499999999999999e-10,1.704906643878761e-08
9.25e-10,0,9.25e-10,4.999999990889179,9.25e-10,1.704906658795632e-08
1e-09,0,1e-09,4.999999990889179,1e-09,1.704906634581762e-08
1.000048387895121e-09,0.002419394756067303,1.000048387895121e-09,5.000353175594767,1.000048387895121e-09,7.455229272472472e-05
1.000082557713316e-09,0.00412788566580807,1.000082557713316e-09,5.000602447402914,1.000082557713316e-09,0.0001271089352408689
1.000150897349706e-09,0.007544867485289603,1.000150897349706e-09,5.001100468165888,1.000150897349706e-09,0.0002319197880230602
1.000287576622485e-09,0.01437883112425267,1.000287576622485e-09,5.002094274314119,1.000287576622485e-09,0.0004402491977803979
1.000560935168044e-09,0.02804675840217881,1.000560935168044e-09,5.004072880353184,1.000560935168044e-09,0.0008517155041940892
1.001107652259161e-09,0.05538261295803108,1.001107652259161e-09,5.007994415354227,1.001107652259161e-09,0.001654196765908298
1.002201086441395e-09,0.1100543220697356,1.002201086441395e-09,5.015698185290749,1.002201086441395e-09,0.003180226219399695
1.004132206687127e-09,0.2066103343563268,1.004132206687127e-09,5.028869990002235,1.004132206687127e-09,0.005634580085607336
1.006194067504683e-09,0.3097033752341299,1.006194067504683e-09,5.0423550733896,1.006194067504683e-09,0.007942095135439965
1.008354726106416e-09,0.4177363053207916,1.008354726106416e-09,5.055887756711038,1.008354726106416e-09,0.0100462499344806
1.010644011139712e-09,0.5322005569855867,1.010644011139712e-09,5.069614288603595,1.010644011139712e-09,0.01196393470153232
1.013010491490844e-09,0.65052457454219,1.013010491490844e-09,5.083313884880779,1.013010491490844e-09,0.013671483436712
1.014466970655432e-09,0.7233485327716136,1.014466970655432e-09,5.091865275578222,1.014466970655432e-09,0.01466721486276
1.015845927853051e-09,0.7922963926525309,1.015845927853051e-09,5.100369489408158,1.015845927853051e-09,0.01564095216089492
1.017202029649873e-09,0.8601014824936244,1.017202029649873e-09,5.108822677109333,1.017202029649873e-09,0.01656628877030141
1.018517780506813e-09,0.925889025340631,1.018517780506813e-09,5.116711572420577,1.018517780506813e-09,0.01735320156697194
1.019696689266303e-09,0.9848344633151387,1.019696689266303e-09,5.123364654420937,1.019696689266303e-09,0.01793780093732906
1.021243702463823e-09,1.062185123191169,1.021243702463823e-09,5.131399869575679,1.021243702463823e-09,0.01852106062241672
1.023815002871949e-09,1.190750143597463,1.023815002871949e-09,5.1428750282171,1.023815002871949e-09,0.0190362025313399
1.026912036835062e-09,1.345601841753083,1.026912036835062e-09,5.153471396999936,1.026912036835062e-09,0.01894991190745617
1.030009872818184e-09,1.500493640909174,1.030009872818184e-09,5.160491281116485,1.030009872818184e-09,0.01815924804046884
1.032916178729421e-09,1.645808936471023,1.032916178729421e-09,5.163808522867265,1.032916178729421e-09,0.01684338637610936
1.035762897470133e-09,1.788144873506661,1.035762897470133e-09,5.163996823296592,1.035762897470133e-09,0.01507728685230971
1.038615050330081e-09,1.930752516504026,1.038615050330081e-09,5.161166034949188,1.038615050330081e-09,0.01289094807772693
1.041522048790888e-09,2.076102439544394,1.041522048790888e-09,5.155194642701779,1.041522048790888e-09,0.01028636588682177
1.04453094784069e-09,2.226547392034481,1.04453094784069e-09,5.145756903952348,1.04453094784069e-09,0.007241214810345933
1.047678278485043e-09,2.383913924252133,1.047678278485043e-09,5.132358388362765,1.047678278485043e-09,0.003724317060712656
1.051005890809318e-09,2.550294540465919,1.051005890809318e-09,5.114276330626935,1.051005890809318e-09,-0.0003317479997453037
1.053846415727177e-09,2.69232078635886,1.053846415727177e-09,5.095652356381041,1.053846415727177e-09,-0.004191744581017272
1.056146570332994e-09,2.807328516649692,1.056146570332994e-09,5.078389716051334,1.056146570332994e-09,-0.007460295922729485
1.058069567539247e-09,2.90347837696235,1.058069567539247e-09,5.062438399692681,1.058069567539247e-09,-0.01028541695518898
1.061915561951753e-09,3.095778097587667,1.061915561951753e-09,5.026263600525064,1.061915561951753e-09,-0.01618017736130983
1.068523040403341e-09,3.426152020167035,1.068523040403341e-09,4.950901922500388,1.068523040403341e-09,-0.02693466456545852
1.07130406149745e-09,3.565203074872493,1.07130406149745e-09,4.913384735177099,1.07130406149745e-09,-0.03183780568395402
1.074064909482295e-09,3.703245474114737,1.074064909482295e-09,4.871490958979275,1.074064909482295e-09,-0.03715170812495043
1.075697897364954e-09,3.784894868247686,1.075697897364954e-09,4.84359964202345,1.075697897364954e-09,-0.04068307102433971
1.077246886776859e-09,3.86234433884293,1.077246886776859e-09,4.814050156682043,1.077246886776859e-09,-0.04447962894511706
1.078682499968525e-09,3.934124998426245,1.078682499968525e-09,4.784054250257154,1.078682499968525e-09,-0.04834635751659424
1.08079519888415e-09,4.039759944207499,1.08079519888415e-09,4.736486700680752,1.08079519888415e-09,-0.05436335555214484
1.082321784351838e-09,4.1160892175919,1.082321784351838e-09,4.699471499481612,1.082321784351838e-09,-0.05895999741135378
1.085374955287214e-09,4.268747764360699,1.085374955287214e-09,4.617338938998825,1.085374955287214e-09,-0.06901501471807071
1.087806288024589e-09,4.390314401229442,1.087806288024589e-09,4.546398699085884,1.087806288024589e-09,-0.07735357246728149
1.089523634919252e-09,4.476181745962608,1.089523634919252e-09,4.494018121490654,1.089523634919252e-09,-0.08330039430823812
1.091768796433312e-09,4.58843982166562,1.091768796433312e-09,4.423152914913201,1.091768796433312e-09,-0.09121858230230684
1.093833109853314e-09,4.691655492665682,1.093833109853314e-09,4.356928824239827,1.093833109853314e-09,-0.09889785034890329
1.095791992497608e-09,4.789599624880372,1.095791992497608e-09,4.294903172537087,1.095791992497608e-09,-0.1068133511963041
1.097705595285742e-09,4.885279764287073,1.097705595285742e-09,4.234878510022843,1.097705595285742e-09,-0.1149220529379163
1.098852797642871e-09,4.942639882143544,1.098852797642871e-09,4.198591391806704,1.098852797642871e-09,-0.1197755961895147
1.1e-09,5,1.1e-09,4.161829247506472,1.1e-09,-0.124522978543694
1.10053060141762e-09,5,1.10053060141762e-09,4.142140832652601,1.10053060141762e-09,-0.1273104804177478
1.100999407473022e-09,5,1.100999407473022e-09,4.124758214341759,1.100999407473022e-09,-0.129720203846809
1.101487286609109e-09,5,1.101487286609109e-09,4.106682307649515,1.101487286609109e-09,-0.1321518552726986
1.102463044881281e-09,5,1.102463044881281e-09,4.070570293609534,1.102463044881281e-09,-0.1367502954818901
1.104258898457373e-09,5,1.104258898457373e-09,4.004228264734848,1.104258898457373e-09,-0.1442511252687653
1.107304864735503e-09,5,1.107304864735503e-09,3.892049828183584,1.107304864735503e-09,-0.1540834616680506
1.112725756756664e-09,5,1.112725756756664e-09,3.693585746764053,1.112725756756664e-09,-0.1627000362734984
1.119562857305234e-09,5,1.119562857305234e-09,3.445747194988369,1.119562857305234e-09,-0.1578482773966185
1.125100864234605e-09,5,1.125100864234605e-09,3.247317081686622,1.125100864234605e-09,-0.1413999106779577
1.130875466136113e-09,5,1.130875466136113e-09,3.042944774184474,1.130875466136113e-09,-0.1125348550782489
1.137772127316365e-09,5,1.137772127316365e-09,2.802934732551511,1.137772127316365e-09,-0.06239417863705134
1.143719955832869e-09,5,1.143719955832869e-09,2.60054930276275,1.143719955832869e-09,-0.005005807677246091
1.146413166541143e-09,5,1.146413166541143e-09,2.510698746624636,1.146413166541143e-09,0.02421035846116914
1.148726309570992e-09,5,1.148726309570992e-09,2.4346753005543,1.148726309570992e-09,0.0512845335226241
1.151375329865328e-09,5,1.151375329865328e-09,2.349181975769583,1.151375329865328e-09,0.08487285089423317
1.154045690509445e-09,5,1.154045690509445e-09,2.264943567718483,1.154045690509445e-09,0.1216604076547067
1.157651426208397e-09,5,1.157651426208397e-09,2.154641791659032,1.157651426208397e-09,0.1763325055272312
1.161196779706379e-09,5,1.161196779706379e-09,2.05020276682968,1.161196779706379e-09,0.2362373177396735
1.164559972093214e-09,5,1.164559972093214e-09,1.954723706552217,1.164559972093214e-09,0.2995578205146032
1.167646288887201e-09,5,1.167646288887201e-09,1.869856314148959,1.167646288887201e-09,0.3644954259353402
1.170328928179842e-09,5,1.170328928179842e-09,1.797773474653,1.170328928179842e-09,0.4277967851175051
1.172665561172391e-09,5,1.172665561172391e-09,1.736073688024833,1.172665561172391e-09,0.4892683560881856
1.17503590578886e-09,5,1.17503590578886e-09,1.6749044582627,1.17503590578886e-09,0.557787411538215
1.179776595021798e-09,5,1.179776595021798e-09,1.558598476854499,1.179776595021798e-09,0.7118665284709205
1.183834822432194e-09,5,1.183834822432194e-09,1.465928371678971,1.183834822432194e-09,0.8601521358528607
1.187876684225935e-09,5,1.187876684225935e-09,1.379824909498507,1.187876684225935e-09,1.021495586306143
1.192644859809073e-09,5,1.192644859809073e-09,1.285784002516968,1.192644859809073e-09,1.227268471815794
1.197564616948297e-09,5,1.197564616948297e-09,1.196751615526789,1.197564616948297e-09,1.454507564385738
1.202616433540582e-09,5,1.202616433540582e-09,1.113114990487437,1.202616433540582e-09,1.70056720091144
1.207864944685028e-09,5,1.207864944685028e-09,1.033749607663886,1.207864944685028e-09,1.966282893641273
1.213281780741143e-09,5,1.213281780741143e-09,0.958718341788643,1.213281780741143e-09,2.247184579908899
1.21886498876764e-09,5,1.21886498876764e-09,0.8869139437822652,1.21886498876764e-09,2.539040007856647
1.224574648334774e-09,5,1.224574648334774e-09,0.8180052387863045,1.224574648334774e-09,2.833149954823784
1.229961261767806e-09,5,1.229961261767806e-09,0.7584692557903054,1.229961261767806e-09,3.097091910042954
1.234733724447925e-09,5,1.234733724447925e-09,0.7123280912769885,1.234733724447925e-09,3.311534302444669
1.239338710291478e-09,5,1.239338710291478e-09,0.673487776613756,1.239338710291478e-09,3.498365184507544
1.245793740292536e-09,5,1.245793740292536e-09,0.6249888525198704,1.245793740292536e-09,3.728982604545982
1.254583628876096e-09,5,1.254583628876096e-09,0.5647406444157496,1.254583628876096e-09,3.991215031086061
1.263067002704089e-09,5,1.263067002704089e-09,0.5099105758929675,1.263067002704089e-09,4.19560743635495
1.271592032822679e-09,5,1.271592032822679e-09,0.4571541125530335,1.271592032822679e-09,4.360451685933275
1.280622700715379e-09,5,1.280622700715379e-09,0.4039956269607927,1.280622700715379e-09,4.498644178733105
1.29002170220438e-09,5,1.29002170220438e-09,0.3522335809077312,1.29002170220438e-09,4.610574625083129
1.299869209237631e-09,5,1.299869209237631e-09,0.3025268963619165,1.299869209237631e-09,4.700578692254524
1.306008673956615e-09,5,1.306008673956615e-09,0.2740527483795015,1.306008673956615e-09,4.745124381530102
1.313139004637844e-09,5,1.313139004637844e-09,0.2435204762897995,1.313139004637844e-09,4.788120675617163
1.319970061558133e-09,5,1.319970061558133e-09,0.2168273383141102,1.319970061558133e-09,4.822112842151381
1.327409453719239e-09,5,1.327409453719239e-09,0.1905254413044384,1.327409453719239e-09,4.85264460385494
1.335291521474367e-09,5,1.335291521474367e-09,0.165651386845922,1.335291521474367e-09,4.879021804694117
1.343845761894767e-09,5,1.343845761894767e-09,0.1418948609363385,1.343845761894767e-09,4.902091647857802
1.353151382472017e-09,5,1.353151382472017e-09,0.1195331968622634,1.353151382472017e-09,4.922008251189611
1.363384772963604e-09,5,1.363384772963604e-09,0.09866280659138807,1.363384772963604e-09,4.93908329486182
1.372483342323903e-09,5,1.372483342323903e-09,0.08299813884511351,1.372483342323903e-09,4.950930104887004
1.390680481044499e-09,5,1.390680481044499e-09,0.05821945227246904,1.390680481044499e-09,4.968179397007305
1.403429347742246e-09,5,1.403429347742246e-09,0.04521354359703671,1.403429347742246e-09,4.976392105098463
1.415300487585566e-09,5,1.415300487585566e-09,0.03567715209795316,1.415300487585566e-09,4.982005327582914
1.429365380691692e-09,5,1.429365380691692e-09,0.02687443712448731,1.429365380691692e-09,4.986897244104597
1.444995379837089e-09,5,1.444995379837089e-09,0.01953715126695643,1.444995379837089e-09,4.990764564957413
1.462453151888018e-09,5,1.462453151888018e-09,0.01361038989143683,1.462453151888018e-09,4.993743110255303
1.482738580053224e-09,5,1.482738580053224e-09,0.008864943958570628,1.482738580053224e-09,4.996028421117635
1.50675767647742e-09,5,1.50675767647742e-09,0.00524921263540427,1.50675767647742e-09,4.997704272674985
1.535817547494604e-09,5,1.535817547494604e-09,0.002685867810880278,1.535817547494604e-09,4.998852615109023
1.572171077156465e-09,5,1.572171077156465e-09,0.001045992139232531,1.572171077156465e-09,4.99956557721293
1.619728333868717e-09,5,1.619728333868717e-09,0.0001662282197109966,1.619728333868717e-09,4.999937763006815
1.68602978441265e-09,5,1.68602978441265e-09,-0.0001553418385826367,1.68602978441265e-09,5.000069302498319
1.78602978441265e-09,5,1.78602978441265e-09,-0.0001479713908650274,1.78602978441265e-09,5.000062272428406
1.88602978441265e-09,5,1.88602978441265e-09,-6.095481765272352e-05,1.88602978441265e-09,5.000024972918013
1.98602978441265e-09,5,1.98602978441265e-09,-1.333204980398056e-05,1.98602978441265e-09,5.000005279297694
2.08602978441265e-09,5,2.08602978441265e-09,1.09179075082477e-06,2.08602978441265e-09,4.999999469381804
2.18602978441265e-09,5,2.18602978441265e-09,2.503967253187226e-06,2.18602978441265e-09,4.999998936889496
2.28602978441265e-09,5,2.28602978441265e-09,1.280619423590553e-06,2.28602978441265e-09,4.999999445537185
2.386029784412651e-09,5,2.386029784412651e-09,3.79424767398196e-07,2.386029784412651e-09,4.999999821703888
2.486029784412651e-09,5,2.486029784412651e-09,3.853727457063687e-08,2.486029784412651e-09,4.999999966720734
2.586029784412651e-09,5,2.586029784412651e-09,-2.75401165185741e-08,2.586029784412651e-09,4.99999999613348
2.686029784412651e-09,5,2.686029784412651e-09,-1.637409401327256e-08,2.686029784412651e-09,4.999999992077722
2.786029784412651e-09,5,2.786029784412651e-09,-8.985145756892224e-10,2.786029784412651e-09,4.999999985492843
2.886029784412651e-09,5,2.886029784412651e-09,6.159301003115972e-09,2.886029784412651e-09,4.999999982321174
2.986029784412651e-09,5,2.986029784412651e-09,8.028908740192697e-09,2.986029784412651e-09,4.999999981475196
3.086029784412651e-09,5,3.086029784412651e-09,8.092534446260212e-09,3.086029784412651e-09,4.999999981446217
3.186029784412651e-09,5,3.186029784412651e-09,7.861869455945844e-09,3.186029784412651e-09,4.99999998154905
3.286029784412651e-09,5,3.286029784412651e-09,7.721123360012676e-09,3.286029784412651e-09,4.999999981611243
3.386029784412651e-09,5,3.386029784412651e-09,7.673751338501471e-09,3.386029784412651e-09,4.999999981631934
3.486029784412651e-09,5,3.486029784412651e-09,7.666821802187775e-09,3.486029784412651e-09,4.999999981634877
3.586029784412651e-09,5,3.586029784412651e-09,7.669629415263318e-09,3.586029784412651e-09,4.999999981633622
3.686029784412651e-09,5,3.686029784412651e-09,7.672217517483513e-09,3.686029784412651e-09,4.999999981632492
3.786029784412651e-09,5,3.786029784412651e-09,7.673291317222341e-09,3.786029784412651e-09,4.999999981632028
3.886029784412651e-09,5,3.886029784412651e-09,7.673534529540276e-09,3.886029784412651e-09,4.999999981631924
3.986029784412651e-09,5,3.986029784412651e-09,7.673520070651896e-09,3.986029784412651e-09,4.999999981631931
4.086029784412651e-09,5,4.086029784412651e-09,7.673477747009202e-09,4.086029784412651e-09,4.99999998163195
4.186029784412651e-09,5,4.186029784412651e-09,7.673454819573462e-09,4.186029784412651e-09,4.99999998163196
4.286029784412651e-09,5,4.286029784412651e-09,7.673448043573801e-09,4.286029784412651e-09,4.999999981631962
4.386029784412651e-09,5,4.386029784412651e-09,7.673447894861176e-09,4.386029784412651e-09,4.999999981631963
4.486029784412652e-09,5,4.486029784412652e-09,7.673448706894264e-09,4.486029784412652e-09,4.999999981631963
4.586029784412652e-09,5,4.586029784412652e-09,7.673448673426582e-09,4.586029784412652e-09,4.999999981631962
4.686029784412652e-09,5,4.686029784412652e-09,7.673448804036179e-09,4.686029784412652e-09,4.999999981631962
4.786029784412652e-09,5,4.786029784412652e-09,7.673449265783822e-09,4.786029784412652e-09,4.999999981631962
4.886029784412652e-09,5,4.886029784412652e-09,7.673448591659918e-09,4.886029784412652e-09,4.999999981631962
4.986029784412652e-09,5,4.986029784412652e-09,7.673448567934702e-09,4.986029784412652e-09,4.999999981631962
5.086029784412652e-09,5,5.086029784412652e-09,7.673449361668943e-09,5.086029784412652e-09,4.999999981631962
5.186029784412652e-09,5,5.186029784412652e-09,7.673448983401572e-09,5.186029784412652e-09,4.999999981631962
5.286029784412652e-09,5,5.286029784412652e-09,7.673448318190799e-09,5.286029784412652e-09,4.999999981631962
5.386029784412652e-09,5,5.386029784412652e-09,7.673449152306857e-09,5.386029784412652e-09,4.999999981631962
5.486029784412652e-09,5,5.486029784412652e-09,7.67344877829124e-09,5.486029784412652e-09,4.999999981631962
5.586029784412652e-09,5,5.586029784412652e-09,7.673448982414179e-09,5.586029784412652e-09,4.999999981631962
5.686029784412652e-09,5,5.686029784412652e-09,7.673449396953593e-09,5.686029784412652e-09,4.999999981631962
5.786029784412652e-09,5,5.786029784412652e-09,7.673448554899886e-09,5.786029784412652e-09,4.999999981631962
5.886029784412653e-09,5,5.886029784412653e-09,7.673448777306144e-09,5.886029784412653e-09,4.999999981631962
5.986029784412653e-09,5,5.986029784412653e-09,7.673448597162773e-09,5.986029784412653e-09,4.999999981631962
6.043014892206326e-09,5,6.043014892206326e-09,7.67344936546018e-09,6.043014892206326e-09,4.999999981631962
6.1e-09,5,6.1e-09,7.673448588398168e-09,6.1e-09,4.999999981631962
6.103125e-09,4.843749999999988,6.103125e-09,-0.01831911999801675,6.103125e-09,4.996415246853575
6.106054950859222e-09,4.69725245703891,6.106054950859222e-09,-0.03466182653666035,6.106054950859222e-09,4.993409883471387
6.111068768746593e-09,4.446561562670339,6.111068768746593e-09,-0.06042993681235101,6.111068768746593e-09,4.989217253297248
6.112322223218436e-09,4.383888839078207,6.112322223218436e-09,-0.06684462772978007,6.112322223218436e-09,4.988268162736412
6.114829132162121e-09,4.258543391893941,6.114829132162121e-09,-0.08129443785344048,6.114829132162121e-09,4.986141836798471
6.119739341874554e-09,4.013032906272324,6.119739341874554e-09,-0.108558733000477,6.119739341874554e-09,4.982612715220323
6.124406535614356e-09,3.779673219282198,6.124406535614356e-09,-0.1278584153756814,6.124406535614356e-09,4.981010119418379
6.129999185724769e-09,3.500040713761543,6.129999185724769e-09,-0.1413088735825798,6.129999185724769e-09,4.981268893902159
6.133194693310375e-09,3.340265334481265,6.133194693310375e-09,-0.1441179045047929,6.133194693310375e-09,4.98240642391203
6.139585708481586e-09,3.020714575920706,6.139585708481586e-09,-0.1388068819487602,6.139585708481586e-09,4.986519851561774
6.143559740446584e-09,2.822012977670803,6.143559740446584e-09,-0.1281304402668051,6.143559740446584e-09,4.990183806711363
