/net1 X,/net1 Y,/net03 X,/net03 Y,/o X,/o Y
0,0,0,4.99999999145504,0,1.704906614307206e-08
1e-11,0,1e-11,4.99999999145504,1e-11,1.704906622692734e-08
3e-11,0,3e-11,4.99999999145504,3e-11,1.704906611853944e-08
6.999999999999999e-11,0,6.999999999999999e-11,4.999999991455039,6.999999999999999e-11,1.704906669351209e-08
1.5e-10,0,1.5e-10,4.999999991455039,1.5e-10,1.704906731816503e-08
2.5e-10,0,2.5e-10,4.99999999145504,2.5e-10,1.704906684793057e-08
3.5e-10,0,3.5e-10,4.99999999145504,3.5e-10,1.704906624407501e-08
4.5e-10,0,4.5e-10,4.99999999145504,4.5e-10,1.704906554492981e-08
5.5e-10,0,5.5e-10,4.99999999145504,5.5e-10,1.704906602861385e-08
6.499999999999999e-10,0,6.499999999999999e-10,4.99999999145504,6.499999999999999e-10,1.704906641046583e-08
7.499999999999999e-10,0,7.499999999999999e-10,4.99999999145504,7.499999999999999e-10,1.704906586037644e-08
8.499999999999999e-10,0,8.499999999999999e-10,4.99999999145504,8.499999999999999e-10,1.704906614481293e-08
9.25e-10,0,9.25e-10,4.99999999145504,9.25e-10,1.704906612741735e-08
1e-09,0,1e-09,4.99999999145504,1e-09,1.704906627462466e-08
1.000048387895121e-09,0.002419394756067303,1.000048387895121e-09,5.000598741612251,1.000048387895121e-09,0.0001263769639354214
1.000082557713316e-09,0.00412788566580807,1.000082557713316e-09,5.00102121240692,1.000082557713316e-09,0.0002154531301472455
1.000150897349706e-09,0.007544867485289603,1.000150897349706e-09,5.00186477013612,1.000150897349706e-09,0.0003929911662398369
1.000287576622485e-09,0.01437883112425267,1.000287576622485e-09,5.003545951818594,1.000287576622485e-09,0.0007454386404235617
1.000560935168044e-09,0.02804675840217881,1.000560935168044e-09,5.006884438622436,1.000560935168044e-09,0.001439782532158524
1.001107652259161e-09,0.05538261295803108,1.001107652259161e-09,5.013467192303225,1.001107652259161e-09,0.002787028826969695
1.002201086441395e-09,0.1100543220697356,1.002201086441395e-09,5.026267718142674,1.002201086441395e-09,0.00532248967555808
1.003729570280214e-09,0.1864785140106763,1.003729570280214e-09,5.043385019869476,1.003729570280214e-09,0.008533248480218148
1.00535594905725e-09,0.2677974528624935,1.00535594905725e-09,5.060663955772093,1.00535594905725e-09,0.01155501509753511
1.00708124109326e-09,0.3540620546629736,1.00708124109326e-09,5.078014739253769,1.00708124109326e-09,0.01435598085454951
1.008902613742034e-09,0.4451306871017139,1.008902613742034e-09,5.095331105666949,1.008902613742034e-09,0.01690792515591127
1.010792185649219e-09,0.5396092824609678,1.010792185649219e-09,5.112388554508617,1.010792185649219e-09,0.01918116682384715
1.012603576631961e-09,0.6301788315980711,1.012603576631961e-09,5.128481640270039,1.012603576631961e-09,0.02115004830030546
1.013983040213756e-09,0.699152010687819,1.013983040213756e-09,5.141250739417953,1.013983040213756e-09,0.02265997070539391
1.015116855889404e-09,0.7558427944702014,1.015116855889404e-09,5.1518837478131,1.015116855889404e-09,0.02386822340791918
1.016599869010068e-09,0.8299934505033818,1.016599869010068e-09,5.165162384750009,1.016599869010068e-09,0.02523880843867474
1.017687509007101e-09,0.8843754503550515,1.017687509007101e-09,5.174162647585073,1.017687509007101e-09,0.02603967783426524
1.018955285445074e-09,0.9477642722537067,1.018955285445074e-09,5.183731684467812,1.018955285445074e-09,0.02673807905552722
1.021050898142595e-09,1.052544907129761,1.021050898142595e-09,5.197246824877593,1.021050898142595e-09,0.02734771619986151
1.023600834790397e-09,1.180041739519844,1.023600834790397e-09,5.209779170578345,1.023600834790397e-09,0.02723460432926852
1.026132402073664e-09,1.306620103683188,1.026132402073664e-09,5.218009903985109,1.026132402073664e-09,0.02628058396263824
1.028519061752406e-09,1.425953087620294,1.028519061752406e-09,5.22199351055527,1.028519061752406e-09,0.02469619393201198
1.030877646576124e-09,1.543882328806177,1.030877646576124e-09,5.22240666286318,1.030877646576124e-09,0.02255436259688049
1.033256594021989e-09,1.662829701099449,1.033256594021989e-09,5.219356538335674,1.033256594021989e-09,0.01988543841921707
1.035692063375428e-09,1.784603168771376,1.035692063375428e-09,5.212710780820487,1.035692063375428e-09,0.01669169658325447
1.038216855054202e-09,1.910842752710115,1.038216855054202e-09,5.202142095551557,1.038216855054202e-09,0.01295332672551631
1.040854445955778e-09,2.042722297788911,1.040854445955778e-09,5.187181542975085,1.040854445955778e-09,0.008646419869533843
1.043630902608847e-09,2.181545130442332,1.043630902608847e-09,5.167177570908034,1.043630902608847e-09,0.003730476976056767
1.046582424845481e-09,2.329121242274071,1.046582424845481e-09,5.141181014892547,1.046582424845481e-09,-0.001957273998711106
1.050465533958301e-09,2.523276697915063,1.050465533958301e-09,5.099575698873802,1.050465533958301e-09,-0.01018751805208558
1.052507170193554e-09,2.625358509677675,1.052507170193554e-09,5.07428058880522,1.052507170193554e-09,-0.01472584987775177
1.05444879211039e-09,2.722439605519499,1.05444879211039e-09,5.047997889055709,1.05444879211039e-09,-0.01917017671618552
1.058332035944063e-09,2.916601797203145,1.058332035944063e-09,4.989103947505596,1.058332035944063e-09,-0.02835043934927097
1.061673167071733e-09,3.083658353586659,1.061673167071733e-09,4.932451567683797,1.061673167071733e-09,-0.03637479446891017
1.064271804572636e-09,3.2135902286318,1.064271804572636e-09,4.882768044765808,1.064271804572636e-09,-0.04305639702639989
1.066157418923256e-09,3.307870946162784,1.066157418923256e-09,4.843136563501823,1.066157418923256e-09,-0.0482302577089663
1.068520015649839e-09,3.426000782491936,1.068520015649839e-09,4.788147386934962,1.068520015649839e-09,-0.05528540406612066
1.070615388413503e-09,3.530769420675171,1.070615388413503e-09,4.732438459454593,1.070615388413503e-09,-0.06243841557533701
1.072177606720572e-09,3.608880336028595,1.072177606720572e-09,4.684499306025381,1.072177606720572e-09,-0.06872779273087345
1.073425414090957e-09,3.67127070454784,1.073425414090957e-09,4.641575289440036,1.073425414090957e-09,-0.07444857928345905
1.075014305772723e-09,3.750715288636158,1.075014305772723e-09,4.58201589698084,1.075014305772723e-09,-0.08235756160478211
1.076387422442658e-09,3.8193711221329,1.076387422442658e-09,4.526985209105516,1.076387422442658e-09,-0.08956082588178003
1.077793205298499e-09,3.88966026492497,1.077793205298499e-09,4.467590241245577,1.077793205298499e-09,-0.09725094910173662
1.079424555702072e-09,3.971227785103583,1.079424555702072e-09,4.39524761434253,1.079424555702072e-09,-0.1067656530655117
1.080564554083821e-09,4.028227704191043,1.080564554083821e-09,4.343050984710739,1.080564554083821e-09,-0.1141725562573696
1.081630926635631e-09,4.081546331781534,1.081630926635631e-09,4.293323148152882,1.081630926635631e-09,-0.121960069752966
1.082733786406462e-09,4.1366893203231,1.082733786406462e-09,4.240558807303191,1.082733786406462e-09,-0.1308036576845034
1.084401616971993e-09,4.220080848599644,1.084401616971993e-09,4.156506181951581,1.084401616971993e-09,-0.145048957465455
1.085603515250263e-09,4.280175762513146,1.085603515250263e-09,4.092660702884141,1.085603515250263e-09,-0.1554576461858746
1.086690372359774e-09,4.334518617988703,1.086690372359774e-09,4.033070963016693,1.086690372359774e-09,-0.1646513729336951
1.08789313426272e-09,4.394656713135992,1.08789313426272e-09,3.965370071415802,1.08789313426272e-09,-0.1744083221092531
1.089432629595397e-09,4.471631479769866,1.089432629595397e-09,3.876194742511249,1.089432629595397e-09,-0.1861137729470407
1.091473989682181e-09,4.573699484109027,1.091473989682181e-09,3.753694898215734,1.091473989682181e-09,-0.2001022110178828
1.094006231960805e-09,4.700311598040224,1.094006231960805e-09,3.595095836866056,1.094006231960805e-09,-0.2147606225293913
1.096841756639239e-09,4.842087831961941,1.096841756639239e-09,3.408953155451671,1.096841756639239e-09,-0.2272634430967584
1.09842087831962e-09,4.921043915980977,1.09842087831962e-09,3.301471882822377,1.09842087831962e-09,-0.2323191818486301
1.1e-09,5,1.1e-09,3.191389712494526,1.1e-09,-0.2358948695273651
1.100655259046215e-09,5,1.100655259046215e-09,3.138507629669764,1.100655259046215e-09,-0.2383400331074927
1.101211132962543e-09,5,1.101211132962543e-09,3.093640785866316,1.101211132962543e-09,-0.2401832607509772
1.101792690168873e-09,5,1.101792690168873e-09,3.046733081746171,1.101792690168873e-09,-0.2417868873630791
1.102816002395344e-09,5,1.102816002395344e-09,2.964340047789056,1.102816002395344e-09,-0.2437116426470125
1.104447435616214e-09,5,1.104447435616214e-09,2.833589568648327,1.104447435616214e-09,-0.2443506168941749
1.107310629559177e-09,5,1.107310629559177e-09,2.607612341876352,1.107310629559177e-09,-0.2380157138292778
1.110527292662812e-09,5,1.110527292662812e-09,2.363935130659027,1.110527292662812e-09,-0.2188036272525075
1.113158948715919e-09,5,1.113158948715919e-09,2.175885835718337,1.113158948715919e-09,-0.193045535566845
1.115881769069506e-09,5,1.115881769069506e-09,1.993298257167534,1.115881769069506e-09,-0.1567891480027386
1.1207634930592e-09,5,1.1207634930592e-09,1.696808631316077,1.1207634930592e-09,-0.06730719841031625
1.122699921818312e-09,5,1.122699921818312e-09,1.589780772517073,1.122699921818312e-09,-0.02252044745152379
1.124899738667352e-09,5,1.124899738667352e-09,1.475170238099013,1.124899738667352e-09,0.0333810377205417
1.126666461383344e-09,5,1.126666461383344e-09,1.388278957961423,1.126666461383344e-09,0.08273367785431326
1.127833345324022e-09,5,1.127833345324022e-09,1.333250152335679,1.127833345324022e-09,0.1183795450291201
1.128951519597059e-09,5,1.128951519597059e-09,1.282090349059784,1.128951519597059e-09,0.1555279320780457
1.13002510678632e-09,5,1.13002510678632e-09,1.234248502151166,1.13002510678632e-09,0.1947295806788767
1.130978054704681e-09,5,1.130978054704681e-09,1.192854681670618,1.130978054704681e-09,0.2324811752809314
1.132064727606371e-09,5,1.132064727606371e-09,1.147057765487915,1.132064727606371e-09,0.2782421471929084
1.133087371077857e-09,5,1.133087371077857e-09,1.105412124456794,1.133087371077857e-09,0.3234609558546309
1.134234734951502e-09,5,1.134234734951502e-09,1.060363804220308,1.134234734951502e-09,0.3764055654860813
1.13583853907289e-09,5,1.13583853907289e-09,1.000256126332076,1.13583853907289e-09,0.4540279429857817
1.138007836310425e-09,5,1.138007836310425e-09,0.9237993699596087,1.138007836310425e-09,0.5654059210334329
1.14106289789321e-09,5,1.14106289789321e-09,0.8242608167425538,1.14106289789321e-09,0.7343607907353531
1.143790052483133e-09,5,1.143790052483133e-09,0.7436163891040175,1.143790052483133e-09,0.8951429132577706
1.146431575999906e-09,5,1.146431575999906e-09,0.6731618437842003,1.146431575999906e-09,1.057631630238625
1.149124794763219e-09,5,1.149124794763219e-09,0.6086173907826717,1.149124794763219e-09,1.228771897192479
1.152433324353105e-09,5,1.152433324353105e-09,0.5384098965177332,1.152433324353105e-09,1.444826407527016
1.15621372421403e-09,5,1.15621372421403e-09,0.4690217991406399,1.15621372421403e-09,1.697055970875702
1.160251836500913e-09,5,1.160251836500913e-09,0.4059544945031592,1.160251836500913e-09,1.969490347154275
1.164460322272254e-09,5,1.164460322272254e-09,0.3505465234459722,1.164460322272254e-09,2.252446185384989
1.168718531137858e-09,5,1.168718531137858e-09,0.3035010441264991,1.168718531137858e-09,2.532187874664576
1.172865008009065e-09,5,1.172865008009065e-09,0.2652396642032961,1.172865008009065e-09,2.791493042224169
1.176815900750475e-09,5,1.176815900750475e-09,0.2352188686599613,1.176815900750475e-09,3.019753703818827
1.180709474108066e-09,5,1.180709474108066e-09,0.210942546027108,1.180709474108066e-09,3.224057791677803
1.186026091749383e-09,5,1.186026091749383e-09,0.1839208270236606,1.186026091749383e-09,3.471971124873265
1.193609670952267e-09,5,1.193609670952267e-09,0.153301491749888,1.193609670952267e-09,3.771240958690334
1.200486395832086e-09,5,1.200486395832086e-09,0.1308693461023176,1.200486395832086e-09,3.994955411199279
1.207457348037045e-09,5,1.207457348037045e-09,0.1116722835018975,1.207457348037045e-09,4.182181380586885
1.215098451605948e-09,5,1.215098451605948e-09,0.09368124751273335,1.215098451605948e-09,4.348901102308849
1.22312890086394e-09,5,1.22312890086394e-09,0.07755363350910534,1.22312890086394e-09,4.488379567535016
1.231505913681757e-09,5,1.231505913681757e-09,0.06331355825828672,1.231505913681757e-09,4.602500879757588
1.240375568577424e-09,5,1.240375568577424e-09,0.050733433937671,1.240375568577424e-09,4.695888184027849
1.249880600067883e-09,5,1.249880600067883e-09,0.0397182399130803,1.249880600067883e-09,4.771869066392552
1.260188509419818e-09,5,1.260188509419818e-09,0.0302146146587474,1.260188509419818e-09,4.833094918428076
1.268378353713324e-09,5,1.268378353713324e-09,0.02420923281268486,1.268378353713324e-09,4.869605116082231
1.280453734468987e-09,5,1.280453734468987e-09,0.01732034665660079,1.280453734468987e-09,4.909571690889347
1.29098485168454e-09,5,1.29098485168454e-09,0.01285498532309012,1.29098485168454e-09,4.934323132334779
1.301500785436371e-09,5,1.301500785436371e-09,0.009506877791368122,1.301500785436371e-09,4.952250009961046
1.313730956249085e-09,5,1.313730956249085e-09,0.006653937312819757,1.313730956249085e-09,4.967101433113432
1.327770191227131e-09,5,1.327770191227131e-09,0.004376267845839087,1.327770191227131e-09,4.978669694970951
1.344050379107215e-09,5,1.344050379107215e-09,0.002650687204984125,1.344050379107215e-09,4.987248255307802
1.363618175531216e-09,5,1.363618175531216e-09,0.001406030803738279,1.363618175531216e-09,4.993322136401511
1.38789709671067e-09,5,1.38789709671067e-09,0.0005887891953106449,1.38789709671067e-09,4.997245698765929
1.419248723971834e-09,5,1.419248723971834e-09,0.0001308626037885301,1.419248723971834e-09,4.999411323528055
1.462214737716653e-09,5,1.462214737716653e-09,-5.613968097796117e-05,1.462214737716653e-09,5.000280196626575
1.520180825284624e-09,5,1.520180825284624e-09,-7.204962914053082e-05,1.520180825284624e-09,5.000334690881485
1.60260505611112e-09,5,1.60260505611112e-09,-3.173742928834847e-05,1.60260505611112e-09,5.000139372473884
1.70260505611112e-09,5,1.70260505611112e-09,-4.75903201955461e-06,1.70260505611112e-09,5.000018645735668
1.802605056111121e-09,5,1.802605056111121e-09,1.478907686211079e-06,1.802605056111121e-09,4.999992844928431
1.902605056111121e-09,5,1.902605056111121e-09,1.198540579432554e-06,1.902605056111121e-09,4.99999459367087
2.002605056111121e-09,5,2.002605056111121e-09,3.743735053181033e-07,2.002605056111121e-09,4.999998304032311
2.102605056111121e-09,5,2.102605056111121e-09,3.664583409824802e-08,2.102605056111121e-09,4.999999827740825
2.202605056111121e-09,5,2.202605056111121e-09,-2.285954014441409e-08,2.202605056111121e-09,5.000000103139713
2.302605056111121e-09,5,2.302605056111121e-09,-1.172375180918728e-08,2.302605056111121e-09,5.000000052531169
2.402605056111121e-09,5,2.402605056111121e-09,2.054009399900116e-11,2.402605056111121e-09,4.999999999590198
2.502605056111121e-09,5,2.502605056111121e-09,4.036296779811068e-09,2.502605056111121e-09,4.999999982028249
2.602605056111121e-09,5,2.602605056111121e-09,4.517833888507832e-09,2.602605056111121e-09,4.999999979755946
2.702605056111121e-09,5,2.702605056111121e-09,4.287844998888463e-09,2.702605056111121e-09,4.999999980728386
2.802605056111121e-09,5,2.802605056111121e-09,4.130742891368469e-09,2.802605056111121e-09,4.999999981433541
2.902605056111121e-09,5,2.902605056111121e-09,4.085508818327385e-09,2.902605056111121e-09,4.999999981644652
3.002605056111121e-09,5,3.002605056111121e-09,4.08263170379921e-09,3.002605056111121e-09,4.999999981660453
3.102605056111121e-09,5,3.102605056111121e-09,4.086410560818096e-09,3.102605056111121e-09,4.999999981643526
3.202605056111121e-09,5,3.202605056111121e-09,4.088452487228312e-09,3.202605056111121e-09,4.999999981633987
3.302605056111122e-09,5,3.302605056111122e-09,4.088957122643509e-09,3.302605056111122e-09,4.999999981631566
3.402605056111122e-09,5,3.402605056111122e-09,4.08895462541194e-09,3.402605056111122e-09,4.99999998163155
3.502605056111122e-09,5,3.502605056111122e-09,4.088896934269402e-09,3.502605056111122e-09,4.999999981631819
3.602605056111122e-09,5,3.602605056111122e-09,4.088871257523485e-09,3.602605056111122e-09,4.999999981631944
3.702605056111122e-09,5,3.702605056111122e-09,4.088865300920602e-09,3.702605056111122e-09,4.99999998163197
3.802605056111122e-09,5,3.802605056111122e-09,4.088866583597898e-09,3.802605056111122e-09,4.999999981631968
3.902605056111122e-09,5,3.902605056111122e-09,4.088867310348822e-09,3.902605056111122e-09,4.999999981631964
4.002605056111122e-09,5,4.002605056111122e-09,4.088867121229436e-09,4.002605056111122e-09,4.999999981631962
4.102605056111122e-09,5,4.102605056111122e-09,4.088867242293794e-09,4.102605056111122e-09,4.999999981631962
4.202605056111122e-09,5,4.202605056111122e-09,4.088867323367595e-09,4.202605056111122e-09,4.999999981631962
4.302605056111122e-09,5,4.302605056111122e-09,4.088867060217541e-09,4.302605056111122e-09,4.999999981631962
4.402605056111122e-09,5,4.402605056111122e-09,4.088867020715639e-09,4.402605056111122e-09,4.999999981631962
4.502605056111122e-09,5,4.502605056111122e-09,4.088867562350632e-09,4.502605056111122e-09,4.999999981631962
4.602605056111122e-09,5,4.602605056111122e-09,4.088867610435549e-09,4.602605056111122e-09,4.999999981631962
4.702605056111123e-09,5,4.702605056111123e-09,4.0888677257624e-09,4.702605056111123e-09,4.999999981631962
4.802605056111123e-09,5,4.802605056111123e-09,4.08886770928952e-09,4.802605056111123e-09,4.999999981631962
4.902605056111123e-09,5,4.902605056111123e-09,4.088867361975242e-09,4.902605056111123e-09,4.999999981631962
5.002605056111123e-09,5,5.002605056111123e-09,4.088866830925041e-09,5.002605056111123e-09,4.999999981631962
5.102605056111123e-09,5,5.102605056111123e-09,4.088867345732966e-09,5.102605056111123e-09,4.999999981631962
5.202605056111123e-09,5,5.202605056111123e-09,4.088867421565503e-09,5.202605056111123e-09,4.999999981631962
5.302605056111123e-09,5,5.302605056111123e-09,4.088867415911392e-09,5.302605056111123e-09,4.999999981631962
5.402605056111123e-09,5,5.402605056111123e-09,4.088867024537337e-09,5.402605056111123e-09,4.999999981631962
5.502605056111123e-09,5,5.502605056111123e-09,4.088867477037387e-09,5.502605056111123e-09,4.999999981631962
5.602605056111123e-09,5,5.602605056111123e-09,4.08886769872457e-09,5.602605056111123e-09,4.999999981631962
5.702605056111123e-09,5,5.702605056111123e-09,4.088867490557221e-09,5.702605056111123e-09,4.999999981631962
5.802605056111123e-09,5,5.802605056111123e-09,4.088867413327351e-09,5.802605056111123e-09,4.999999981631962
5.902605056111123e-09,5,5.902605056111123e-09,4.088866854306757e-09,5.902605056111123e-09,4.999999981631962
6.002605056111123e-09,5,6.002605056111123e-09,4.088867043089487e-09,6.002605056111123e-09,4.999999981631962
6.1e-09,5,6.1e-09,4.088867480475938e-09,6.1e-09,4.999999981631962
6.103125e-09,4.843749999999988,6.103125e-09,-0.0329864126210079,6.103125e-09,4.993543759320866
6.1066303641799e-09,4.668481791005004,6.1066303641799e-09,-0.06628082299507619,6.1066303641799e-09,4.987507805350867
6.113641092539699e-09,4.317945373015034,6.113641092539699e-09,-0.1238512266863738,6.113641092539699e-09,4.97875188742976
6.123217163837838e-09,3.839141808108118,6.123217163837838e-09,-0.1896111679711028,6.123217163837838e-09,4.971690720138043
6.124470987570272e-09,3.776450621486378,6.124470987570272e-09,-0.1946009984162865,6.124470987570272e-09,4.971691276585807
6.126978635035142e-09,3.6510682482429,6.126978635035142e-09,-0.2016821442331089,6.126978635035142e-09,4.972309256346731
6.131993929964881e-09,3.400303501755942,6.131993929964881e-09,-0.204335009566612,6.131993929964881e-09,4.975703620502055
6.134331784381339e-09,3.283410780933049,6.134331784381339e-09,-0.2004384007707669,6.134331784381339e-09,4.978178876096036
6.139007493214255e-09,3.049625339287263,6.139007493214255e-09,-0.1832660754087749,6.139007493214255e-09,4.984512762537687
6.148358910880086e-09,2.582054455995691,6.148358910880086e-09,-0.1131467212249454,6.148358910880086e-09,5.001473689960337
