/net3 X,/net3 Y,/net8 X,/net8 Y,/o2 X,/o2 Y
0,5,0,1.809120736435182e-08,0,4.999999981632027
1e-11,5,1e-11,1.809120518833182e-08,1e-11,4.999999981632012
3e-11,5,3e-11,1.809120302385643e-08,3e-11,4.999999981631993
6.999999999999999e-11,5,6.999999999999999e-11,1.809120220523836e-08,6.999999999999999e-11,4.999999981631971
1.5e-10,5,1.5e-10,1.809120458987245e-08,1.5e-10,4.999999981631959
2.5e-10,5,2.5e-10,1.809120646736328e-08,2.5e-10,4.999999981631959
3.5e-10,5,3.5e-10,1.80912064150357e-08,3.5e-10,4.999999981631961
4.5e-10,5,4.5e-10,1.80912069950566e-08,4.5e-10,4.999999981631962
5.5e-10,5,5.5e-10,1.809120739972162e-08,5.5e-10,4.999999981631962
6.499999999999999e-10,5,6.499999999999999e-10,1.809120724851072e-08,6.499999999999999e-10,4.999999981631962
7.499999999999999e-10,5,7.499999999999999e-10,1.809120759332076e-08,7.499999999999999e-10,4.999999981631962
8.499999999999999e-10,5,8.499999999999999e-10,1.80912069819192e-08,8.499999999999999e-10,4.999999981631962
9.25e-10,5,9.25e-10,1.80912081340648e-08,9.25e-10,4.999999981631962
1e-09,5,1e-09,1.809120862993814e-08,1e-09,4.999999981631962
1.000389242818019e-09,4.98053785909907,1.000389242818019e-09,-0.002097589927931918,1.000389242818019e-09,4.999556187355936
1.000674993201222e-09,4.966250339938926,1.000674993201222e-09,-0.00363248876161264,1.000674993201222e-09,4.999233382351392
1.001246493967627e-09,4.937675301618636,1.001246493967627e-09,-0.006682832183988554,1.001246493967627e-09,4.998599410329561
1.002129438567388e-09,4.893528071630591,1.002129438567388e-09,-0.01134182552900518,1.002129438567388e-09,4.997651802009382
1.00389532776691e-09,4.805233611654502,1.00389532776691e-09,-0.02046659319608025,1.00389532776691e-09,4.995869389681732
1.007427106165954e-09,4.628644691702323,1.007427106165954e-09,-0.03798232113648142,1.007427106165954e-09,4.992719628491158
1.011446849022657e-09,4.427657548867151,1.011446849022657e-09,-0.05694583568139101,1.011446849022657e-09,4.989709572034115
1.012576133243555e-09,4.37119333782224,1.012576133243555e-09,-0.0623620758496929,1.012576133243555e-09,4.988912320437536
1.013835740138469e-09,4.308212993076567,1.013835740138469e-09,-0.06893158246826213,1.013835740138469e-09,4.987944757991389
1.014880858317999e-09,4.255957084100045,1.014880858317999e-09,-0.07498412924077663,1.014880858317999e-09,4.98704305677001
1.015950101563178e-09,4.202494921841081,1.015950101563178e-09,-0.08155073748824457,1.015950101563178e-09,4.986070493989092
1.017033694460537e-09,4.148315276973165,1.017033694460537e-09,-0.08827877558814846,1.017033694460537e-09,4.985100754551976
1.017965434705188e-09,4.101728264740621,1.017965434705188e-09,-0.09396001986521016,1.017965434705188e-09,4.984313886925675
1.019019770102481e-09,4.049011494875936,1.019019770102481e-09,-0.1001737367180233,1.019019770102481e-09,4.983495339415656
1.020395089787338e-09,3.980245510633102,1.020395089787338e-09,-0.1078444596741875,1.020395089787338e-09,4.982557584041532
1.022172444489298e-09,3.891377775535108,1.022172444489298e-09,-0.1169283320245693,1.022172444489298e-09,4.981575375746283
1.024432810683256e-09,3.778359465837193,1.024432810683256e-09,-0.1270139905824321,1.024432810683256e-09,4.980704330239051
1.027249626540784e-09,3.637518672960784,1.027249626540784e-09,-0.1371414668094763,1.027249626540784e-09,4.980200637417115
1.030626825003102e-09,3.468658749844886,1.030626825003102e-09,-0.1455470360399062,1.030626825003102e-09,4.98041165937603
1.034582419107321e-09,3.270879044633946,1.034582419107321e-09,-0.1500408681288458,1.034582419107321e-09,4.981712437413846
1.039263157998049e-09,3.036842100097563,1.039263157998049e-09,-0.1477521004140151,1.039263157998049e-09,4.984579120596752
1.04505932479238e-09,2.747033760381022,1.04505932479238e-09,-0.1333826675149338,1.04505932479238e-09,4.989865601675316
1.052938442053204e-09,2.353077897339798,1.052938442053204e-09,-0.09324825680977177,1.052938442053204e-09,4.999599610830582
1.058109289680921e-09,2.094535515953964,1.058109289680921e-09,-0.05352842169865932,1.058109289680921e-09,5.007813874338867
1.062979137587434e-09,1.851043120628296,1.062979137587434e-09,-0.006155612689348208,1.062979137587434e-09,5.016523784813334
1.068554548845999e-09,1.572272557700028,1.068554548845999e-09,0.05941721918521359,1.068554548845999e-09,5.027337432763011
1.071105631116552e-09,1.444718444172425,1.071105631116552e-09,0.093989972920342,1.071105631116552e-09,5.032670610634995
1.073696920462277e-09,1.315153976886165,1.073696920462277e-09,0.1325825186348361,1.073696920462277e-09,5.038424197454158
1.076145925407263e-09,1.192703729636833,1.076145925407263e-09,0.1732241648928922,1.076145925407263e-09,5.044353236111915
1.077965934166412e-09,1.101703291679425,1.077965934166412e-09,0.2064181268571895,1.077965934166412e-09,5.049130679485279
1.080060768632313e-09,0.9969615683843376,1.080060768632313e-09,0.2472631452150016,1.080060768632313e-09,5.054887014031457
1.082179849907526e-09,0.8910075046236825,1.082179849907526e-09,0.2914024141047241,1.082179849907526e-09,5.060964425609442
1.086418012457953e-09,0.6790993771023732,1.086418012457953e-09,0.3886306979489556,1.086418012457953e-09,5.073922230989778
1.089097572317758e-09,0.5451213841121012,1.089097572317758e-09,0.4547835052962736,1.089097572317758e-09,5.082330503995969
1.091508284494372e-09,0.4245857752813826,1.091508284494372e-09,0.5170692413795167,1.091508284494372e-09,5.08996612023325
1.095416447122794e-09,0.229177643860317,1.095416447122794e-09,0.6233672240223557,1.095416447122794e-09,5.102450426153234
1.1e-09,0,1.1e-09,0.7558295902716218,1.1e-09,5.117226885111616
1.10101325037081e-09,0,1.10101325037081e-09,0.7924980003975317,1.10101325037081e-09,5.1218851506578
1.101884788496526e-09,0,1.101884788496526e-09,0.8237481226570962,1.101884788496526e-09,5.125858415733125
1.102932679694333e-09,0,1.102932679694333e-09,0.8607549062194116,1.102932679694333e-09,5.130586020711887
1.105019191969993e-09,0,1.105019191969993e-09,0.9321941544431249,1.105019191969993e-09,5.139828382169201
1.108051515724799e-09,0,1.108051515724799e-09,1.031799394611459,1.108051515724799e-09,5.152006112310975
1.111363325942141e-09,0,1.111363325942141e-09,1.137114192451568,1.111363325942141e-09,5.162328688862585
1.114555239064264e-09,0,1.114555239064264e-09,1.235889112617915,1.114555239064264e-09,5.168964005573953
1.119463426310387e-09,0,1.119463426310387e-09,1.383021854766386,1.119463426310387e-09,5.172896720964999
1.127700959949717e-09,0,1.127700959949717e-09,1.618106349160525,1.127700959949717e-09,5.163772772303329
1.133333023685233e-09,0,1.133333023685233e-09,1.770597989148989,1.133333023685233e-09,5.147037412102001
1.144597151156265e-09,0,1.144597151156265e-09,2.055431856738235,1.144597151156265e-09,5.091378289577784
1.151152888920625e-09,0,1.151152888920625e-09,2.208043387950245,1.151152888920625e-09,5.046259102257909
1.163606058925526e-09,0,1.163606058925526e-09,2.472039624499504,1.163606058925526e-09,4.940895392631416
1.168176105982013e-09,0,1.168176105982013e-09,2.560988379741274,1.168176105982013e-09,4.896015310116606
1.177316200094988e-09,0,1.177316200094988e-09,2.727201916550134,1.177316200094988e-09,4.795033905597853
1.182340940070625e-09,0,1.182340940070625e-09,2.812561502413073,1.182340940070625e-09,4.732754895409212
1.188063946450201e-09,0,1.188063946450201e-09,2.905226042125268,1.188063946450201e-09,4.655121538078792
1.192996865686054e-09,0,1.192996865686054e-09,2.981739039849937,1.192996865686054e-09,4.581290367529812
1.202862704157761e-09,0,1.202862704157761e-09,3.128052165712288,1.202862704157761e-09,4.405129334133906
1.212006197847405e-09,0,1.212006197847405e-09,3.255476654340493,1.212006197847405e-09,4.200154576164878
1.221711615803369e-09,0,1.221711615803369e-09,3.378739483281672,1.221711615803369e-09,3.943750302832324
1.229531401881275e-09,0,1.229531401881275e-09,3.469307419566894,1.229531401881275e-09,3.709506161158343
1.23852578822079e-09,0,1.23852578822079e-09,3.564778232619881,1.23852578822079e-09,3.411415924793858
1.247451742209746e-09,0,1.247451742209746e-09,3.651228936990929,1.247451742209746e-09,3.087753382819969
1.256573885035559e-09,0,1.256573885035559e-09,3.731934667157549,1.256573885035559e-09,2.731506712363438
1.264443881181062e-09,0,1.264443881181062e-09,3.795968156353719,1.264443881181062e-09,2.406364016425448
1.270003351100961e-09,0,1.270003351100961e-09,3.838355132636408,1.270003351100961e-09,2.168551095329084
1.273670071934862e-09,0,1.273670071934862e-09,3.865116785564421,1.273670071934862e-09,2.00899939920251
1.281003513602664e-09,0,1.281003513602664e-09,3.916112367210064,1.281003513602664e-09,1.690831519254907
1.288545166691928e-09,0,1.288545166691928e-09,3.964695642638333,1.288545166691928e-09,1.386300546302041
1.294143560426581e-09,0,1.294143560426581e-09,3.998073878723548,1.294143560426581e-09,1.185232281948805
1.300228096884636e-09,0,1.300228096884636e-09,4.033079779302342,1.300228096884636e-09,0.9927650395592901
1.306300812368162e-09,0,1.306300812368162e-09,4.06766015552291,1.306300812368162e-09,0.8268907817604044
1.311157165461245e-09,0,1.311157165461245e-09,4.095358501887323,1.311157165461245e-09,0.7120108352357531
1.320869871647412e-09,0,1.320869871647412e-09,4.150911178047842,1.320869871647412e-09,0.5242607145127195
1.324691765775919e-09,0,1.324691765775919e-09,4.172818484404432,1.324691765775919e-09,0.4643694783722032
1.332335554032933e-09,0,1.332335554032933e-09,4.216393827923274,1.332335554032933e-09,0.3640462115188984
1.336314879924857e-09,0,1.336314879924857e-09,4.238902424118454,1.336314879924857e-09,0.3209717810561297
1.344273531708706e-09,0,1.344273531708706e-09,4.283350127260174,1.344273531708706e-09,0.2498061259155813
1.348779172976339e-09,0,1.348779172976339e-09,4.308161178989836,1.348779172976339e-09,0.2171963885388792
1.357790455511604e-09,0,1.357790455511604e-09,4.35675978565892,1.357790455511604e-09,0.1646761950197794
1.363573137674361e-09,0,1.363573137674361e-09,4.387020601114922,1.363573137674361e-09,0.1384690467827018
1.370879874547231e-09,0,1.370879874547231e-09,4.423876674782978,1.370879874547231e-09,0.1118910550673088
1.378112848140205e-09,0,1.378112848140205e-09,4.45860998020709,1.378112848140205e-09,0.09132770774351084
1.386112094597629e-09,0,1.386112094597629e-09,4.494871771399252,1.386112094597629e-09,0.07373589029180021
1.394821065793609e-09,0,1.394821065793609e-09,4.531784929747774,1.394821065793609e-09,0.05923647949613838
1.404573701516595e-09,0,1.404573701516595e-09,4.570062791669955,1.404573701516595e-09,0.04721147214445451
1.415567882007603e-09,0,1.415567882007603e-09,4.609570202102741,1.415567882007603e-09,0.03742302021623835
1.425285864196571e-09,0,1.425285864196571e-09,4.641490792526265,1.425285864196571e-09,0.03114839837541849
1.444721828574509e-09,0,1.444721828574509e-09,4.69785675464519,1.444721828574509e-09,0.02252521078482513
1.458804694093647e-09,0,1.458804694093647e-09,4.733082508048054,1.458804694093647e-09,0.01848499997188065
1.471974784586004e-09,0,1.471974784586004e-09,4.762256378275,1.471974784586004e-09,0.01573794214825274
1.487475871002033e-09,0,1.487475871002033e-09,4.792515080986952,1.487475871002033e-09,0.01326719057911424
1.504494607536284e-09,0,1.504494607536284e-09,4.821310813776458,1.504494607536284e-09,0.0111564017126631
1.522820909814743e-09,0,1.522820909814743e-09,4.84785868162033,1.522820909814743e-09,0.0093501857782164
1.543003865453645e-09,0,1.543003865453645e-09,4.872555851728971,1.543003865453645e-09,0.007748758573207304
1.565265997083547e-09,0,1.565265997083547e-09,4.895184806382429,1.565265997083547e-09,0.006324804530207127
1.589771761363043e-09,0,1.589771761363043e-09,4.915498219040776,1.589771761363043e-09,0.005070079845797791
1.616882972241057e-09,0,1.616882972241057e-09,4.933449725541197,1.616882972241057e-09,0.00397448895139635
1.647087986989923e-09,0,1.647087986989923e-09,4.949042205611163,1.647087986989923e-09,0.0030310461133443
1.681018177988908e-09,0,1.681018177988908e-09,4.962305225585936,1.681018177988908e-09,0.002234136986517865
1.719548757864645e-09,0,1.719548757864645e-09,4.973309220303344,1.719548757864645e-09,0.001576979710631514
1.763909567075914e-09,0,1.763909567075914e-09,4.982157265799139,1.763909567075914e-09,0.001051410400269036
1.815865965812123e-09,0,1.815865965812123e-09,4.988982577980579,1.815865965812123e-09,0.000647841895021473
1.878057261458124e-09,0,1.878057261458124e-09,4.993953809084618,1.878057261458124e-09,0.0003549700335830931
1.954638335738398e-09,0,1.954638335738398e-09,4.997282060050244,1.954638335738398e-09,0.0001594081234850547
2.052599417218627e-09,0,2.052599417218627e-09,4.999228390613928,2.052599417218627e-09,4.523793747729694e-05
2.152599417218627e-09,0,2.152599417218627e-09,4.999933334642804,2.152599417218627e-09,3.918579652850525e-06
2.252599417218627e-09,0,2.252599417218627e-09,5.000107058188385,2.252599417218627e-09,-6.265195212280485e-06
2.352599417218627e-09,0,2.352599417218627e-09,5.000102886590681,2.352599417218627e-09,-6.143787227747439e-06
2.452599417218627e-09,0,2.452599417218627e-09,5.000062889420951,2.452599417218627e-09,-3.82990587222598e-06
2.552599417218627e-09,0,2.552599417218627e-09,5.000030654157138,2.552599417218627e-09,-1.887269476533301e-06
2.652599417218628e-09,0,2.652599417218628e-09,5.000012486050264,2.652599417218628e-09,-7.540005399113666e-07
2.752599417218628e-09,0,2.752599417218628e-09,5.000004044920482,2.752599417218628e-09,-2.279077921247052e-07
2.852599417218628e-09,0,2.852599417218628e-09,5.000000767291819,2.852599417218628e-09,-2.876590059438601e-08
2.952599417218628e-09,0,2.952599417218628e-09,4.999999783205863,2.952599417218628e-09,2.889893381029821e-08
3.052599417218628e-09,0,3.052599417218628e-09,4.999999639871086,3.052599417218628e-09,3.671414477633614e-08
3.152599417218628e-09,0,3.152599417218628e-09,4.99999972413409,3.152599417218628e-09,3.128584972447821e-08
3.252599417218628e-09,0,3.252599417218628e-09,4.999999827244953,3.252599417218628e-09,2.483335141818341e-08
3.352599417218628e-09,0,3.352599417218628e-09,4.999999899442495,3.352599417218628e-09,2.079991978846369e-08
3.452599417218628e-09,0,3.452599417218628e-09,4.999999939042642,3.452599417218628e-09,1.861497524208579e-08
3.552599417218628e-09,0,3.552599417218628e-09,4.999999957307948,3.552599417218628e-09,1.757423027154184e-08
3.652599417218628e-09,0,3.652599417218628e-09,4.999999964383569,3.652599417218628e-09,1.715554669259761e-08
3.752599417218628e-09,0,3.752599417218628e-09,4.999999966507323,3.752599417218628e-09,1.702630427481257e-08
3.852599417218628e-09,0,3.852599417218628e-09,4.999999966808325,3.852599417218628e-09,1.700727550859586e-08
3.952599417218628e-09,0,3.952599417218628e-09,4.999999966613646,3.952599417218628e-09,1.701865840521975e-08
4.052599417218629e-09,0,4.052599417218629e-09,4.999999966384844,4.052599417218629e-09,1.703220735041439e-08
4.152599417218629e-09,0,4.152599417218629e-09,4.999999966232116,4.152599417218629e-09,1.704122185559128e-08
4.252599417218629e-09,0,4.252599417218629e-09,4.999999966151118,4.252599417218629e-09,1.704598459690081e-08
4.352599417218629e-09,0,4.352599417218629e-09,4.999999966114815,4.352599417218629e-09,1.704811413310472e-08
4.452599417218629e-09,0,4.452599417218629e-09,4.999999966101204,4.452599417218629e-09,1.704891199624067e-08
4.552599417218629e-09,0,4.552599417218629e-09,4.99999996609736,4.552599417218629e-09,1.704913737650644e-08
4.652599417218629e-09,0,4.652599417218629e-09,4.999999966096985,4.652599417218629e-09,1.704915949995098e-08
4.752599417218629e-09,0,4.752599417218629e-09,4.999999966097482,4.752599417218629e-09,1.704913073586727e-08
4.852599417218629e-09,0,4.852599417218629e-09,4.999999966097983,4.852599417218629e-09,1.70491014581703e-08
4.952599417218629e-09,0,4.952599417218629e-09,4.999999966098302,4.952599417218629e-09,1.704908244636909e-08
5.052599417218629e-09,0,5.052599417218629e-09,4.999999966098466,5.052599417218629e-09,1.704907263066514e-08
5.152599417218629e-09,0,5.152599417218629e-09,4.999999966098539,5.152599417218629e-09,1.704906824432242e-08
5.252599417218629e-09,0,5.252599417218629e-09,4.999999966098565,5.252599417218629e-09,1.704906694340864e-08
5.352599417218629e-09,0,5.352599417218629e-09,4.999999966098571,5.352599417218629e-09,1.704906640108368e-08
5.452599417218629e-09,0,5.452599417218629e-09,4.999999966098572,5.452599417218629e-09,1.70490663721753e-08
5.55259941721863e-09,0,5.55259941721863e-09,4.999999966098571,5.55259941721863e-09,1.704906613568139e-08
5.65259941721863e-09,0,5.65259941721863e-09,4.99999996609857,5.65259941721863e-09,1.704906609698264e-08
5.75259941721863e-09,0,5.75259941721863e-09,4.999999966098569,5.75259941721863e-09,1.70490662464349e-08
5.85259941721863e-09,0,5.85259941721863e-09,4.999999966098569,5.85259941721863e-09,1.704906651465353e-08
5.95259941721863e-09,0,5.95259941721863e-09,4.999999966098569,5.95259941721863e-09,1.704906639553089e-08
6.026299708609315e-09,0,6.026299708609315e-09,4.999999966098569,6.026299708609315e-09,1.704906657622629e-08
6.1e-09,0,6.1e-09,4.999999966098569,6.1e-09,1.704906662486043e-08
6.1015625e-09,0.07812500000000587,6.1015625e-09,5.012522971999752,6.1015625e-09,0.002494833545748383
6.104082285107889e-09,0.2041142553944374,6.104082285107889e-09,5.032553270410884,6.104082285107889e-09,0.006255128620073899
6.109121855323666e-09,0.4560927661833005,6.109121855323666e-09,5.071805308238684,6.109121855323666e-09,0.01267162070185568
6.111587513017625e-09,0.5793756508812712,6.111587513017625e-09,5.09058427756456,6.111587513017625e-09,0.01529756598495035
6.116518828405544e-09,0.8259414202772124,6.116518828405544e-09,5.127329878255947,6.116518828405544e-09,0.01969055574664334
6.126381459181382e-09,1.319072959069095,6.126381459181382e-09,5.197608265401813,6.126381459181382e-09,0.02578383591286133
6.128492294091942e-09,1.424614704597098,6.128492294091942e-09,5.210957159077956,6.128492294091942e-09,0.02643442771530593
6.132713963913062e-09,1.635698195653105,6.132713963913062e-09,5.235033669890025,6.132713963913062e-09,0.02704793720917437
6.141157303555302e-09,2.057865177765118,6.141157303555302e-09,5.272171257392864,6.141157303555302e-09,0.02601938591664927
6.145885616200373e-09,2.29428081001864,6.145885616200373e-09,5.286616242726061,6.145885616200373e-09,0.02434660861534177
6.155342241490514e-09,2.767112074525684,6.155342241490514e-09,5.302084944332628,6.155342241490514e-09,0.01938725432672725
6.161830715965027e-09,3.091535798251325,6.161830715965027e-09,5.302470308322585,6.161830715965027e-09,0.01502858628091776
6.174807664914052e-09,3.740383245702606,6.174807664914052e-09,5.277542015265804,6.174807664914052e-09,0.004714307633635199
6.184009324477762e-09,4.20046622388811,6.184009324477762e-09,5.237683296857506,6.184009324477762e-09,-0.003925696933584377
6.192004662238881e-09,4.600233111944036,6.192004662238881e-09,5.161474268196657,6.192004662238881e-09,-0.01695148127634845
6.19600233111944e-09,4.800116555971999,6.19600233111944e-09,5.104443114585991,6.19600233111944e-09,-0.02584359332213563
6.2e-09,5,6.2e-09,5.041788373810904,6.2e-09,-0.03459951107237445
6.200936492330387e-09,5,6.200936492330387e-09,5.022187388619971,6.200936492330387e-09,-0.03746066895313059
6.201768024084322e-09,5,6.201768024084322e-09,5.004723276000605,6.201768024084322e-09,-0.03995427170382157
6.202740508047823e-09,5,6.202740508047823e-09,4.984234849258756,6.202740508047823e-09,-0.04278883505759939
6.204685475974826e-09,5,6.204685475974826e-09,4.943064550531011,6.204685475974826e-09,-0.04817938427770405
6.208575411828832e-09,5,6.208575411828832e-09,4.859995364959449,6.208575411828832e-09,-0.05793936886172765
6.216355283536843e-09,5,6.216355283536843e-09,4.691225146407053,6.216355283536843e-09,-0.07414573796106547
6.223902076714527e-09,5,6.223902076714527e-09,4.524659923944348,6.223902076714527e-09,-0.0865724029000569
6.228611127166393e-09,5,6.228611127166393e-09,4.419988453374038,6.228611127166393e-09,-0.09318056816114685
6.238029228070125e-09,5,6.238029228070125e-09,4.219812797421771,6.238029228070125e-09,-0.1072633949241787
