/net3 X,/net3 Y,/net8 X,/net8 Y,/O X,/O Y
0,5,0,1.809120736435182e-08,0,4.999999981632027
1e-11,5,1e-11,1.809120605331208e-08,1e-11,4.999999981632012
3e-11,5,3e-11,1.809120502173294e-08,3e-11,4.999999981631993
6.999999999999999e-11,5,6.999999999999999e-11,1.809120573971433e-08,6.999999999999999e-11,4.999999981631971
1.5e-10,5,1.5e-10,1.809120723378531e-08,1.5e-10,4.999999981631959
2.5e-10,5,2.5e-10,1.809120846675696e-08,2.5e-10,4.99999998163196
3.5e-10,5,3.5e-10,1.809120813198778e-08,3.5e-10,4.999999981631961
4.5e-10,5,4.5e-10,1.809120737244011e-08,4.5e-10,4.999999981631961
5.5e-10,5,5.5e-10,1.80912070127968e-08,5.5e-10,4.999999981631961
6.499999999999999e-10,5,6.499999999999999e-10,1.809120680194164e-08,6.499999999999999e-10,4.999999981631961
7.499999999999999e-10,5,7.499999999999999e-10,1.809120714364634e-08,7.499999999999999e-10,4.999999981631961
8.499999999999999e-10,5,8.499999999999999e-10,1.809120675519807e-08,8.499999999999999e-10,4.999999981631961
9.25e-10,5,9.25e-10,1.8091207165292e-08,9.25e-10,4.999999981631961
1e-09,5,1e-09,1.809120663485404e-08,1e-09,4.999999981631961
1.000352374098325e-09,4.982381295083741,1.000352374098325e-09,-0.002343052968692377,1.000352374098325e-09,4.9995037062266
1.000603364854549e-09,4.969831757272552,1.000603364854549e-09,-0.004005795369113978,1.000603364854549e-09,4.999153379013605
1.001105346366997e-09,4.944732681650177,1.001105346366997e-09,-0.007308686644589882,1.001105346366997e-09,4.998464665196379
1.001879095521269e-09,4.906045223936553,1.001879095521269e-09,-0.01233794265674156,1.001879095521269e-09,4.997435660235481
1.003426593829814e-09,4.828670308509303,1.003426593829814e-09,-0.02217402503267597,1.003426593829814e-09,4.99549331976323
1.006521590446904e-09,4.673920477654804,1.006521590446904e-09,-0.04099660435937945,1.006521590446904e-09,4.992037810050935
1.010084407352757e-09,4.495779632362142,1.010084407352757e-09,-0.06137945431319494,1.010084407352757e-09,4.988693533265954
1.011569721078257e-09,4.42151394608715,1.011569721078257e-09,-0.06963096200861309,1.011569721078257e-09,4.987456987387839
1.012783966291823e-09,4.360801685408878,1.012783966291823e-09,-0.07659601910253368,1.012783966291823e-09,4.986442265859234
1.013972164370637e-09,4.301391781468135,1.013972164370637e-09,-0.08406172942149963,1.013972164370637e-09,4.985348938589404
1.014889396486719e-09,4.255530175664037,1.014889396486719e-09,-0.09039841738549981,1.014889396486719e-09,4.98441045609299
1.016018194142573e-09,4.199090292871373,1.016018194142573e-09,-0.09860754393291667,1.016018194142573e-09,4.983203909462627
1.017055545315353e-09,4.147222734232374,1.017055545315353e-09,-0.1061999846575751,1.017055545315353e-09,4.98212048167855
1.017965211313838e-09,4.101739434308095,1.017965211313838e-09,-0.1127143430245406,1.017965211313838e-09,4.981228418681381
1.019021774204712e-09,4.048911289764384,1.019021774204712e-09,-0.119999495972004,1.019021774204712e-09,4.980282275172423
1.020405747238845e-09,3.979712638057746,1.020405747238845e-09,-0.1289790160951639,1.020405747238845e-09,4.97920653285754
1.022199368087848e-09,3.89003159560762,1.022199368087848e-09,-0.1395527789305105,1.022199368087848e-09,4.978100333760397
1.024509538350531e-09,3.774523082473466,1.024509538350531e-09,-0.1512750971197434,1.024509538350531e-09,4.977154731815419
1.027450874336874e-09,3.627456283156294,1.027450874336874e-09,-0.1629578870634131,1.027450874336874e-09,4.976708220168558
1.031073853551125e-09,3.446307322443739,1.031073853551125e-09,-0.172183589476306,1.031073853551125e-09,4.977258228142203
1.035459255687265e-09,3.227037215636731,1.035459255687265e-09,-0.175558563112069,1.035459255687265e-09,4.979408961242902
1.040908967162238e-09,2.954551641888122,1.040908967162238e-09,-0.1677358404820929,1.040908967162238e-09,4.984076376866778
1.048326204767129e-09,2.583689761643563,1.048326204767129e-09,-0.1355850218638745,1.048326204767129e-09,4.99340717890994
1.054270466934366e-09,2.286476653281682,1.054270466934366e-09,-0.09151506533020175,1.054270466934366e-09,5.00319934874582
1.060189031414852e-09,1.990548429257426,1.060189031414852e-09,-0.03056172794542349,1.060189031414852e-09,5.015076129673868
1.06477171821328e-09,1.761414089335983,1.06477171821328e-09,0.02828906206136095,1.06477171821328e-09,5.025303492880377
1.067359505109226e-09,1.632024744538704,1.067359505109226e-09,0.06599118991172015,1.067359505109226e-09,5.031428456777375
1.069555103058105e-09,1.522244847094774,1.069555103058105e-09,0.1009099262906098,1.069555103058105e-09,5.036888891809737
1.071984939983634e-09,1.400753000818316,1.071984939983634e-09,0.1431346301706329,1.071984939983634e-09,5.043287822957633
1.074286636827703e-09,1.285668158614856,1.074286636827703e-09,0.1875362921229885,1.074286636827703e-09,5.049872666066564
1.076032754895873e-09,1.19836225520637,1.076032754895873e-09,0.2247658174651319,1.076032754895873e-09,5.055338309847009
1.077699100130863e-09,1.115044993456868,1.077699100130863e-09,0.2628978358921834,1.077699100130863e-09,5.060859949610125
1.079983892755507e-09,1.000805362224667,1.079983892755507e-09,0.3186411043972427,1.079983892755507e-09,5.068745650254106
1.082134491148082e-09,0.8932754425959226,1.082134491148082e-09,0.3748392837167671,1.082134491148082e-09,5.076501727989568
1.086435687933231e-09,0.6782156033384332,1.086435687933231e-09,0.4988216750828002,1.086435687933231e-09,5.093075756654475
1.089119358112043e-09,0.5440320943978287,1.089119358112043e-09,0.582115791742114,1.089119358112043e-09,5.103709445257834
1.091537888602015e-09,0.4231055698992545,1.091537888602015e-09,0.6606278910518106,1.091537888602015e-09,5.113393270641784
1.095337935413924e-09,0.2331032293038069,1.095337935413924e-09,0.7900384207897335,1.095337935413924e-09,5.128832447076018
1.1e-09,0,1.1e-09,0.9553703248926231,1.1e-09,5.149299698036754
1.100897344226575e-09,0,1.100897344226575e-09,0.994656387638157,1.100897344226575e-09,5.15518107704707
1.101730003199701e-09,0,1.101730003199701e-09,1.030833871226243,1.101730003199701e-09,5.160495028413339
1.102785428158408e-09,0,1.102785428158408e-09,1.076266558869029,1.102785428158408e-09,5.166842849616322
1.104896278075823e-09,0,1.104896278075823e-09,1.165742104420999,1.104896278075823e-09,5.177951876293647
1.109117977910652e-09,0,1.109117977910652e-09,1.33943074562176,1.109117977910652e-09,5.193558906164117
1.11655050740935e-09,0,1.11655050740935e-09,1.629058461059244,1.11655050740935e-09,5.200819552404921
1.126416863260726e-09,0,1.126416863260726e-09,1.981337995349988,1.126416863260726e-09,5.174924250630255
1.131455438860558e-09,0,1.131455438860558e-09,2.145671967922593,1.131455438860558e-09,5.147052180526626
1.139873568018716e-09,0,1.139873568018716e-09,2.394499528257962,1.139873568018716e-09,5.081240394575881
1.143902282726157e-09,0,1.143902282726157e-09,2.502661547009221,1.143902282726157e-09,5.041873005253556
1.151959712141038e-09,0,1.151959712141038e-09,2.701356573726573,1.151959712141038e-09,4.952407385506151
1.160803327283969e-09,0,1.160803327283969e-09,2.896100557528024,1.160803327283969e-09,4.837420975840512
1.170376809847126e-09,0,1.170376809847126e-09,3.083640126930118,1.170376809847126e-09,4.687609340435606
1.176487955958698e-09,0,1.176487955958698e-09,3.193202084860655,1.176487955958698e-09,4.573066621471098
1.185093202149134e-09,0,1.185093202149134e-09,3.337498255012768,1.185093202149134e-09,4.372634493085826
1.192780096344077e-09,0,1.192780096344077e-09,3.455232500434592,1.192780096344077e-09,4.158397940774681
1.203823007398415e-09,0,1.203823007398415e-09,3.606418679774074,1.203823007398415e-09,3.800816846314285
1.213356719115207e-09,0,1.213356719115207e-09,3.721912451798409,1.213356719115207e-09,3.4482533076794
1.227293926373725e-09,0,1.227293926373725e-09,3.869774361577295,1.227293926373725e-09,2.870018810607207
1.240546042893224e-09,0,1.240546042893224e-09,3.990791059953215,1.240546042893224e-09,2.265429079597998
1.246020661344037e-09,0,1.246020661344037e-09,4.035820339522298,1.246020661344037e-09,2.004785433806303
1.255080189956362e-09,0,1.255080189956362e-09,4.104950497853177,1.255080189956362e-09,1.585913439953101
1.2618375222746e-09,0,1.2618375222746e-09,4.151855434540796,1.2618375222746e-09,1.307774056179579
1.267075240292891e-09,0,1.267075240292891e-09,4.186095337993471,1.267075240292891e-09,1.117583462364728
1.274404795234552e-09,0,1.274404795234552e-09,4.232267526572273,1.274404795234552e-09,0.8888886753562225
1.2799559463222e-09,0,1.2799559463222e-09,4.266367606881326,1.2799559463222e-09,0.742994777452841
1.285648065371124e-09,0,1.285648065371124e-09,4.300729192160767,1.285648065371124e-09,0.6157557335213708
1.290856565278624e-09,0,1.290856565278624e-09,4.331626078387437,1.290856565278624e-09,0.5172063428812057
1.300197631055816e-09,0,1.300197631055816e-09,4.385356381433784,1.300197631055816e-09,0.3762933339066316
1.309873161580177e-09,0,1.309873161580177e-09,4.438135472232765,1.309873161580177e-09,0.2696799016722272
1.319474230921669e-09,0,1.319474230921669e-09,4.487112205003405,1.319474230921669e-09,0.1942004458312862
1.326091429047011e-09,0,1.326091429047011e-09,4.518772505526127,1.326091429047011e-09,0.1559236195205887
1.336279112577587e-09,0,1.336279112577587e-09,4.564124333653546,1.336279112577587e-09,0.1122229629450212
1.343775703492528e-09,0,1.343775703492528e-09,4.594927148502798,1.343775703492528e-09,0.08910391917813866
1.3558767693376e-09,0,1.3558767693376e-09,4.640320990212596,1.3558767693376e-09,0.06249110296999123
1.365090428595075e-09,0,1.365090428595075e-09,4.671516936638851,1.365090428595075e-09,0.04870465798303605
1.380499868105962e-09,0,1.380499868105962e-09,4.71787361916656,1.380499868105962e-09,0.03322457570268608
1.392423424257517e-09,0,1.392423424257517e-09,4.749215519149005,1.392423424257517e-09,0.02566169081415785
1.403726034356217e-09,0,1.403726034356217e-09,4.775676285955829,1.403726034356217e-09,0.0207356635779781
1.416805034221199e-09,0,1.416805034221199e-09,4.802814764668923,1.416805034221199e-09,0.01669580432948225
1.431238913638453e-09,0,1.431238913638453e-09,4.828960807703404,1.431238913638453e-09,0.0135218374096635
1.446930911702465e-09,0,1.446930911702465e-09,4.853460353448931,1.446930911702465e-09,0.01102116975170942
1.464317214648829e-09,0,1.464317214648829e-09,4.876527531899185,1.464317214648829e-09,0.008967911897704359
1.483618426312464e-09,0,1.483618426312464e-09,4.897915945567651,1.483618426312464e-09,0.007246080452265344
1.505004108620776e-09,0,1.505004108620776e-09,4.917333639388464,1.505004108620776e-09,0.005784889182915658
1.528782589380734e-09,0,1.528782589380734e-09,4.934649081571421,1.528782589380734e-09,0.004534536324138309
1.555366216601304e-09,0,1.555366216601304e-09,4.949792944768502,1.555366216601304e-09,0.003466006447912349
1.585292226945863e-09,0,1.585292226945863e-09,4.962741908604822,1.585292226945863e-09,0.002563488688903817
1.619308155588687e-09,0,1.619308155588687e-09,4.973528378629378,1.619308155588687e-09,0.001816694105803927
1.658471381070787e-09,0,1.658471381070787e-09,4.982230637893674,1.658471381070787e-09,0.001216777968570923
1.704307937430204e-09,0,1.704307937430204e-09,4.988966274405811,1.704307937430204e-09,0.000754043989434585
1.759103574782435e-09,0,1.759103574782435e-09,4.993892772951972,1.759103574782435e-09,0.0004166523467388206
1.826452749579753e-09,0,1.826452749579753e-09,4.997211179514572,1.826452749579753e-09,0.0001900060172474189
1.91238203100366e-09,0,1.91238203100366e-09,4.999171655205454,1.91238203100366e-09,5.638447870630748e-05
2.01238203100366e-09,0,2.01238203100366e-09,4.999981446825495,2.01238203100366e-09,1.262847394442907e-06
2.11238203100366e-09,0,2.11238203100366e-09,5.000153093385123,2.11238203100366e-09,-1.041771547884848e-05
2.21238203100366e-09,0,2.21238203100366e-09,5.000125022559375,2.21238203100366e-09,-8.698642440818138e-06
2.31238203100366e-09,0,2.31238203100366e-09,5.000068396794768,2.31238203100366e-09,-4.862770501213325e-06
2.41238203100366e-09,0,2.41238203100366e-09,5.000029238047034,2.41238203100366e-09,-2.105029483907612e-06
2.512382031003661e-09,0,2.512382031003661e-09,5.000009694306638,2.512382031003661e-09,-6.847142602246829e-07
2.612382031003661e-09,0,2.612382031003661e-09,5.000001910000546,2.612382031003661e-09,-1.183806431135262e-07
2.712382031003661e-09,0,2.712382031003661e-09,4.999999578651412,2.712382031003661e-09,4.673089775964617e-08
2.812382031003661e-09,0,2.812382031003661e-09,4.999999256870941,2.812382031003661e-09,6.723028185356433e-08
2.912382031003661e-09,0,2.912382031003661e-09,4.999999460844395,2.912382031003661e-09,5.154777496664637e-08
3.012382031003661e-09,0,3.012382031003661e-09,4.999999694482655,3.012382031003661e-09,3.522110937508128e-08
3.112382031003661e-09,0,3.112382031003661e-09,4.9999998477351,3.112382031003661e-09,2.493693053661806e-08
3.212382031003661e-09,0,3.212382031003661e-09,4.999999925189884,3.212382031003661e-09,1.981044322382297e-08
3.312382031003661e-09,0,3.312382031003661e-09,4.999999956949104,3.312382031003661e-09,1.768432472696727e-08
3.412382031003661e-09,0,3.412382031003661e-09,4.999999966979342,3.412382031003661e-09,1.699649898406109e-08
3.512382031003661e-09,0,3.512382031003661e-09,4.999999968669404,3.512382031003661e-09,1.687532452023503e-08
3.612382031003661e-09,0,3.612382031003661e-09,4.999999968006098,3.612382031003661e-09,1.69187800816188e-08
3.712382031003661e-09,0,3.712382031003661e-09,4.999999967125182,3.712382031003661e-09,1.69788155684746e-08
3.812382031003661e-09,0,3.812382031003661e-09,4.999999966544819,3.812382031003661e-09,1.701856154510469e-08
3.912382031003661e-09,0,3.912382031003661e-09,4.99999996625248,3.912382031003661e-09,1.703856516635076e-08
4.012382031003662e-09,0,4.012382031003662e-09,4.999999966132946,4.012382031003662e-09,1.704672688308174e-08
4.112382031003662e-09,0,4.112382031003662e-09,4.99999996609524,4.112382031003662e-09,1.704929577059022e-08
4.212382031003662e-09,0,4.212382031003662e-09,4.999999966088891,4.212382031003662e-09,1.704972702672309e-08
4.312382031003662e-09,0,4.312382031003662e-09,4.999999966091387,4.312382031003662e-09,1.704955596744111e-08
4.412382031003662e-09,0,4.412382031003662e-09,4.999999966094704,4.412382031003662e-09,1.704933013853548e-08
4.512382031003662e-09,0,4.512382031003662e-09,4.999999966096889,4.512382031003662e-09,1.704918156175001e-08
4.612382031003662e-09,0,4.612382031003662e-09,4.999999966097989,4.612382031003662e-09,1.704910590472698e-08
4.712382031003662e-09,0,4.712382031003662e-09,4.999999966098439,4.712382031003662e-09,1.70490751533173e-08
4.812382031003662e-09,0,4.812382031003662e-09,4.999999966098581,4.812382031003662e-09,1.704906579006148e-08
4.912382031003662e-09,0,4.912382031003662e-09,4.999999966098605,4.912382031003662e-09,1.704906428874372e-08
5.012382031003662e-09,0,5.012382031003662e-09,4.999999966098595,5.012382031003662e-09,1.704906474296676e-08
5.112382031003662e-09,0,5.112382031003662e-09,4.999999966098582,5.112382031003662e-09,1.704906583533701e-08
5.212382031003662e-09,0,5.212382031003662e-09,4.999999966098575,5.212382031003662e-09,1.704906609520702e-08
5.312382031003662e-09,0,5.312382031003662e-09,4.999999966098572,5.312382031003662e-09,1.704906634175113e-08
5.412382031003663e-09,0,5.412382031003663e-09,4.99999996609857,5.412382031003663e-09,1.704906599378739e-08
5.512382031003663e-09,0,5.512382031003663e-09,4.999999966098569,5.512382031003663e-09,1.704906594455703e-08
5.612382031003663e-09,0,5.612382031003663e-09,4.999999966098569,5.612382031003663e-09,1.704906656608424e-08
5.712382031003663e-09,0,5.712382031003663e-09,4.999999966098569,5.712382031003663e-09,1.704906656460324e-08
5.812382031003663e-09,0,5.812382031003663e-09,4.999999966098569,5.812382031003663e-09,1.70490664654081e-08
5.912382031003663e-09,0,5.912382031003663e-09,4.999999966098569,5.912382031003663e-09,1.704906679379285e-08
6.012382031003663e-09,0,6.012382031003663e-09,4.999999966098569,6.012382031003663e-09,1.704906651758439e-08
6.1e-09,0,6.1e-09,4.999999966098569,6.1e-09,1.704906609844095e-08
6.1015625e-09,0.07812500000000587,6.1015625e-09,5.014662864658682,6.1015625e-09,0.00292129541655989
6.104122720062094e-09,0.2061360031047139,6.104122720062094e-09,5.038328947675716,6.104122720062094e-09,0.007359607171797214
6.109243160186283e-09,0.46215800931413,6.109243160186283e-09,5.084122569846166,6.109243160186283e-09,0.01480668394819221
6.11160863496826e-09,0.5804317484130097,6.11160863496826e-09,5.104579471194542,6.11160863496826e-09,0.01763736767540822
6.116339584532215e-09,0.8169792266107692,6.116339584532215e-09,5.144292109595888,6.116339584532215e-09,0.02233439299979478
6.125801483660126e-09,1.290074183006288,6.125801483660126e-09,5.219813022566183,6.125801483660126e-09,0.02883155933581651
6.128010239191523e-09,1.40051195957616,6.128010239191523e-09,5.235359739512328,6.128010239191523e-09,0.02957525319792199
6.132427750254318e-09,1.621387512715905,6.132427750254318e-09,5.263057527652028,6.132427750254318e-09,0.03019168206246424
6.141262772379908e-09,2.063138618995393,6.141262772379908e-09,5.304481869293832,6.141262772379908e-09,0.02864029518107371
6.145544311365168e-09,2.277215568258375,6.145544311365168e-09,5.318004563107964,6.145544311365168e-09,0.02677897937455148
6.154107389335687e-09,2.705369466784339,6.154107389335687e-09,5.332657055434368,6.154107389335687e-09,0.02160247335291894
6.159716158613784e-09,2.985807930689199,6.159716158613784e-09,5.333472542965083,6.159716158613784e-09,0.01740040561035581
6.167218621809199e-09,3.360931090459963,6.167218621809199e-09,5.323727430866317,6.167218621809199e-09,0.01106455055231334
6.173299653348777e-09,3.664982667438832,6.173299653348777e-09,5.3064392402208,6.173299653348777e-09,0.005412934696422121
6.177346876390272e-09,3.867343819513601,6.177346876390272e-09,5.289990846997665,6.177346876390272e-09,0.001392071289210243
6.185441322473263e-09,4.272066123663137,6.185441322473263e-09,5.244003264761469,6.185441322473263e-09,-0.007641898925406476
6.190111467455422e-09,4.505573372771098,6.190111467455422e-09,5.194349190026423,6.190111467455422e-09,-0.01615652114058478
6.194568457760907e-09,4.728422888045353,6.194568457760907e-09,5.122657200367565,6.194568457760907e-09,-0.02775109450689324
6.197284228880454e-09,4.864211444022699,6.197284228880454e-09,5.074017383449461,6.197284228880454e-09,-0.03490341234622197
6.2e-09,5,6.2e-09,5.022140747285429,6.2e-09,-0.04198015892329305
6.200595406480262e-09,5,6.200595406480262e-09,5.007156346772892,6.200595406480262e-09,-0.04418176552820329
6.201222550998023e-09,5,6.201222550998023e-09,4.991323677930048,6.201222550998023e-09,-0.04647083493616284
6.201994393573457e-09,5,6.201994393573457e-09,4.971772784031991,6.201994393573457e-09,-0.04922847161651066
6.203538078724327e-09,5,6.203538078724327e-09,4.932465109645846,6.203538078724327e-09,-0.05453588875453339
6.206625449026066e-09,5,6.206625449026066e-09,4.853068173616,6.206625449026066e-09,-0.06437447323189234
6.212800189629545e-09,5,6.212800189629545e-09,4.691427582648998,6.212800189629545e-09,-0.08143777094266665
6.220918229699848e-09,5,6.220918229699848e-09,4.474030836146688,6.220918229699848e-09,-0.09978785741764738
6.225228816520449e-09,5,6.225228816520449e-09,4.357768056888488,6.225228816520449e-09,-0.1087561538378485
6.233849990161651e-09,5,6.233849990161651e-09,4.132338708391363,6.233849990161651e-09,-0.1287243059737693
6.242513886016463e-09,5,6.242513886016463e-09,3.906651450584071,6.242513886016463e-09,-0.1384043299862989
6.250130125607823e-09,5,6.250130125607823e-09,3.707410141822358,6.250130125607823e-09,-0.1348768160413683
6.255412382755874e-09,5,6.255412382755874e-09,3.568998042969552,6.255412382755874e-09,-0.1255287850566518
6.261757190341458e-09,5,6.261757190341458e-09,3.402711994413307,6.261757190341458e-09,-0.1066876162826504
6.268251578417801e-09,5,6.268251578417801e-09,3.232678305509912,6.268251578417801e-09,-0.07872730503512025
6.275744826102713e-09,5,6.275744826102713e-09,3.037007321016821,6.275744826102713e-09,-0.03540672457922877
6.283790209853366e-09,5,6.283790209853366e-09,2.82797526087433,6.283790209853366e-09,0.02332793865498306
