/net1 X,/net1 Y,/net09 X,/net09 Y,/o1 X,/o1 Y
0,0,0,4.999999990889179,0,1.704906616105221e-08
1e-11,0,1e-11,4.999999990889179,1e-11,1.704906624656212e-08
3e-11,0,3e-11,4.999999990889176,3e-11,1.704906576231147e-08
6.999999999999999e-11,0,6.999999999999999e-11,4.999999990889173,6.999999999999999e-11,1.704906627494939e-08
1.5e-10,0,1.5e-10,4.999999990889171,1.5e-10,1.70490665883542e-08
2.5e-10,0,2.5e-10,4.999999990889173,2.5e-10,1.704906651199547e-08
3.5e-10,0,3.5e-10,4.999999990889175,3.5e-10,1.704906661705487e-08
4.5e-10,0,4.5e-10,4.999999990889177,4.5e-10,1.704906634047427e-08
5.5e-10,0,5.5e-10,4.999999990889179,5.5e-10,1.704906622724655e-08
6.499999999999999e-10,0,6.499999999999999e-10,4.999999990889179,6.499999999999999e-10,1.704906620764075e-08
7.499999999999999e-10,0,7.499999999999999e-10,4.99999999088918,7.499999999999999e-10,1.704906640123559e-08
8.499999999999999e-10,0,8.499999999999999e-10,4.999999990889181,8.499999999999999e-10,1.704906660578476e-08
9.25e-10,0,9.25e-10,4.999999990889181,9.25e-10,1.70490667447757e-08
1e-09,0,1e-09,4.99999999088918,1e-09,1.704906627766166e-08
1.000042608538347e-09,0.002130426917340556,1.000042608538347e-09,5.000128749642287,1.000042608538347e-09,2.71959519360235e-05
1.000073754935942e-09,0.00368774679708731,1.000073754935942e-09,5.000222857434662,1.000073754935942e-09,4.704357980257316e-05
1.000136047731132e-09,0.006802386556580818,1.000136047731132e-09,5.00041098643148,1.000136047731132e-09,8.665373622719145e-05
1.000260633321511e-09,0.01303166607556783,1.000260633321511e-09,5.000786857189798,1.000260633321511e-09,0.0001655071149474097
1.000509804502271e-09,0.02549022511354186,1.000509804502271e-09,5.001537023682378,1.000509804502271e-09,0.0003217348693361332
1.00100814686379e-09,0.05040734318948992,1.00100814686379e-09,5.003031088352722,1.00100814686379e-09,0.0006283441951275051
1.002004831586828e-09,0.100241579341386,1.002004831586828e-09,5.005994583737354,1.002004831586828e-09,0.001218847915287854
1.003998201032904e-09,0.1999100516451783,1.003998201032904e-09,5.011826587983316,1.003998201032904e-09,0.002314182318085858
1.006824471143908e-09,0.3412235571954056,1.006824471143908e-09,5.019890238506569,1.006824471143908e-09,0.003688156343136788
1.009787702960913e-09,0.489385148045659,1.009787702960913e-09,5.028104721266677,1.009787702960913e-09,0.004926797537880029
1.01288451566714e-09,0.6442257833570204,1.01288451566714e-09,5.036495423153172,1.01288451566714e-09,0.006036565561565882
1.014749442269606e-09,0.7374721134803066,1.014749442269606e-09,5.041692920912821,1.014749442269606e-09,0.006669336984419585
1.016533193616553e-09,0.8266596808276317,1.016533193616553e-09,5.04697409355208,1.016533193616553e-09,0.007294523750608813
1.018315752573889e-09,0.9157876286944288,1.018315752573889e-09,5.052217131384383,1.018315752573889e-09,0.007869885071159726
1.019769202057724e-09,0.988460102886202,1.019769202057724e-09,5.056279527462578,1.019769202057724e-09,0.008266276147007723
1.021311954548631e-09,1.065597727431531,1.021311954548631e-09,5.060314174418001,1.021311954548631e-09,0.008605715646610728
1.023766526430223e-09,1.188326321511146,1.023766526430223e-09,5.066065760294417,1.023766526430223e-09,0.00897055546255791
1.028675670193408e-09,1.433783509670377,1.028675670193408e-09,5.074872237555596,1.028675670193408e-09,0.009089023488818536
1.033016871468608e-09,1.650843573430377,1.033016871468608e-09,5.079513884129756,1.033016871468608e-09,0.008571282472340097
1.036728891502117e-09,1.836444575105857,1.036728891502117e-09,5.081061900255103,1.036728891502117e-09,0.007714148751307143
1.040357180157953e-09,2.017859007897647,1.040357180157953e-09,5.080370585569908,1.040357180157953e-09,0.006551428129496824
1.043926065110053e-09,2.196303255502644,1.043926065110053e-09,5.077536756835957,1.043926065110053e-09,0.005132709750253725
1.047546746051818e-09,2.377337302590901,1.047546746051818e-09,5.072459919601444,1.047546746051818e-09,0.003449545780455609
1.051308897498695e-09,2.565444874934746,1.051308897498695e-09,5.064817888770227,1.051308897498695e-09,0.001473342310897479
1.055259478682572e-09,2.76297393412859,1.055259478682572e-09,5.054180284386959,1.055259478682572e-09,-0.0008573695885238989
1.062458532787678e-09,3.122926639383877,1.062458532787678e-09,5.027794702357841,1.062458532787678e-09,-0.005710906507270127
1.065808242556702e-09,3.290412127835098,1.065808242556702e-09,5.012366162654483,1.065808242556702e-09,-0.008161163188679261
1.068859311006064e-09,3.442965550303176,1.068859311006064e-09,4.996551938068725,1.068859311006064e-09,-0.01048491101770265
1.073872026150203e-09,3.693601307510151,1.073872026150203e-09,4.966847729885001,1.073872026150203e-09,-0.01447391051350916
1.076586267254639e-09,3.829313362731971,1.076586267254639e-09,4.948528278529327,1.076586267254639e-09,-0.01677581970141005
1.079602719598231e-09,3.980135979911533,1.079602719598231e-09,4.925647580133318,1.079602719598231e-09,-0.01957480067976553
1.081251422611794e-09,4.062571130589672,1.081251422611794e-09,4.911361151347768,1.081251422611794e-09,-0.0213426647050728
1.082739461327433e-09,4.136973066371625,1.082739461327433e-09,4.897238698870188,1.082739461327433e-09,-0.02310324414342128
1.085208915496713e-09,4.260445774835642,1.085208915496713e-09,4.87160071935829,1.085208915496713e-09,-0.02626351344188703
1.087205040689752e-09,4.360252034487589,1.087205040689752e-09,4.849582559042058,1.087205040689752e-09,-0.02887137563936421
1.08877259652867e-09,4.438629826433513,1.08877259652867e-09,4.831646158023618,1.08877259652867e-09,-0.03091518561325569
1.091001721249312e-09,4.550086062465578,1.091001721249312e-09,4.80518426695232,1.091001721249312e-09,-0.03381095303343835
1.095459970690594e-09,4.772998534529707,1.095459970690594e-09,4.748869727028047,1.095459970690594e-09,-0.03957871979028982
1.1e-09,5,1.1e-09,4.686816345947889,1.1e-09,-0.04544428605137844
1.100742163498486e-09,5,1.100742163498486e-09,4.674694108048208,1.100742163498486e-09,-0.04671314190813938
1.101534220981364e-09,5,1.101534220981364e-09,4.661752055231442,1.101534220981364e-09,-0.04804101614340556
1.102578434194933e-09,5,1.102578434194933e-09,4.644688342627863,1.102578434194933e-09,-0.04973639627578403
1.104609223408975e-09,5,1.104609223408975e-09,4.611504040282628,1.104609223408975e-09,-0.05285060561053519
1.108670801837058e-09,5,1.108670801837058e-09,4.545162072028725,1.108670801837058e-09,-0.0584261700867392
1.112917180240402e-09,5,1.112917180240402e-09,4.476015299146734,1.112917180240402e-09,-0.0634553286916732
1.117075033009067e-09,5,1.117075033009067e-09,4.409318265466694,1.117075033009067e-09,-0.06774487506715976
1.121251929959364e-09,5,1.121251929959364e-09,4.345438668026128,1.121251929959364e-09,-0.07160052221757214
1.125347487784063e-09,5,1.125347487784063e-09,4.287462258016565,1.125347487784063e-09,-0.07498223273365523
1.129142189476231e-09,5,1.129142189476231e-09,4.236765564817499,1.129142189476231e-09,-0.07758336782358485
1.133015395692475e-09,5,1.133015395692475e-09,4.186457280966801,1.133015395692475e-09,-0.07948919314198857
1.136673772949331e-09,5,1.136673772949331e-09,4.13957415234988,1.136673772949331e-09,-0.08045504576213608
1.140746178870808e-09,5,1.140746178870808e-09,4.087817861281363,1.140746178870808e-09,-0.08047635447212713
1.145661042804353e-09,5,1.145661042804353e-09,4.025826697639609,1.145661042804353e-09,-0.07895910161487062
1.152313759598269e-09,5,1.152313759598269e-09,3.942653403737006,1.152313759598269e-09,-0.07422835432598393
1.155152658481627e-09,5,1.155152658481627e-09,3.907410191584518,1.155152658481627e-09,-0.07128599786223561
1.160830456248341e-09,5,1.160830456248341e-09,3.837350845413039,1.160830456248341e-09,-0.06382132530055354
1.168145718025027e-09,5,1.168145718025027e-09,3.747890641339025,1.168145718025027e-09,-0.05124722682348781
1.175214061238787e-09,5,1.175214061238787e-09,3.662271124587889,1.175214061238787e-09,-0.03609555286357564
1.182503993629609e-09,5,1.182503993629609e-09,3.57476163383379,1.182503993629609e-09,-0.0175757910206412
1.18962988108e-09,5,1.18962988108e-09,3.489968837064624,1.18962988108e-09,0.003053557869678065
1.193671215218176e-09,5,1.193671215218176e-09,3.442255641997077,1.193671215218176e-09,0.01541345974810148
1.197136571610457e-09,5,1.197136571610457e-09,3.401540570276723,1.197136571610457e-09,0.02666440065262383
1.200559282911555e-09,5,1.200559282911555e-09,3.361504496505547,1.200559282911555e-09,0.03836043609720308
1.20740470551375e-09,5,1.20740470551375e-09,3.281957506801362,1.20740470551375e-09,0.06346144074034556
1.2146961625704e-09,5,1.2146961625704e-09,3.197996438826777,1.2146961625704e-09,0.09268900868628815
1.224293916267226e-09,5,1.224293916267226e-09,3.088703286101459,1.224293916267226e-09,0.1351175741026318
1.242038895177353e-09,5,1.242038895177353e-09,2.890535654334108,1.242038895177353e-09,0.226189297861804
1.255145099073483e-09,5,1.255145099073483e-09,2.747704425588932,1.255145099073483e-09,0.3053248601291562
1.265513219019276e-09,5,1.265513219019276e-09,2.637061893243712,1.265513219019276e-09,0.376472516325946
1.274947270440859e-09,5,1.274947270440859e-09,2.538368612119992,1.274947270440859e-09,0.4493154518393925
1.283366599648253e-09,5,1.283366599648253e-09,2.451930492230704,1.283366599648253e-09,0.522543874535615
1.290915251619599e-09,5,1.290915251619599e-09,2.375605804858724,1.290915251619599e-09,0.59673508193164
1.297682900283041e-09,5,1.297682900283041e-09,2.307851574249751,1.297682900283041e-09,0.6722801559909728
1.303762503642262e-09,5,1.303762503642262e-09,2.247484858135484,1.303762503642262e-09,0.7494094592292417
1.309589300044433e-09,5,1.309589300044433e-09,2.190640883073053,1.309589300044433e-09,0.8329253183436711
1.316041791277179e-09,5,1.316041791277179e-09,2.129810900177545,1.316041791277179e-09,0.9373129942729821
1.324106654890877e-09,5,1.324106654890877e-09,2.057706639073182,1.324106654890877e-09,1.085726036382864
1.331190794787814e-09,5,1.331190794787814e-09,1.998111707211509,1.331190794787814e-09,1.231938447960924
1.34275295658181e-09,5,1.34275295658181e-09,1.907978878050324,1.34275295658181e-09,1.499156448022174
1.351246656372081e-09,5,1.351246656372081e-09,1.846987783097192,1.351246656372081e-09,1.715403506224431
1.360823764513013e-09,5,1.360823764513013e-09,1.782916991882279,1.360823764513013e-09,1.97586021928259
1.370883262069847e-09,5,1.370883262069847e-09,1.720274075903102,1.370883262069847e-09,2.264150899874412
1.37922512476146e-09,5,1.37922512476146e-09,1.671420729603568,1.37922512476146e-09,2.511422254497682
1.38936592701022e-09,5,1.38936592701022e-09,1.615040511126368,1.38936592701022e-09,2.817024678964321
1.397018211294875e-09,5,1.397018211294875e-09,1.574226040902687,1.397018211294875e-09,3.047735660004728
1.406702355258523e-09,5,1.406702355258523e-09,1.524132274067693,1.406702355258523e-09,3.331915763041335
1.415772885301092e-09,5,1.415772885301092e-09,1.479996530874781,1.415772885301092e-09,3.578779242089241
1.423539572060662e-09,5,1.423539572060662e-09,1.446428621588679,1.423539572060662e-09,3.767187521021484
1.431529892395055e-09,5,1.431529892395055e-09,1.414454315605304,1.431529892395055e-09,3.93732302507273
1.445475334374775e-09,5,1.445475334374775e-09,1.358036591542029,1.445475334374775e-09,4.182095623185773
1.455389681834433e-09,5,1.455389681834433e-09,1.314919585508443,1.455389681834433e-09,4.321486383978828
1.467156096367804e-09,5,1.467156096367804e-09,1.259999495098424,1.467156096367804e-09,4.456208262300904
1.476108040433757e-09,5,1.476108040433757e-09,1.215835229176927,1.476108040433757e-09,4.539966985911549
1.484659208959314e-09,5,1.484659208959314e-09,1.172238135378264,1.484659208959314e-09,4.607492082913602
1.492760186022582e-09,5,1.492760186022582e-09,1.130105620752467,1.492760186022582e-09,4.662041570857633
1.500701524483092e-09,5,1.500701524483092e-09,1.088375514161394,1.500701524483092e-09,4.708005338808032
1.508414064801427e-09,5,1.508414064801427e-09,1.04770176717825,1.508414064801427e-09,4.746558055832065
1.515949925782799e-09,5,1.515949925782799e-09,1.007980889967111,1.515949925782799e-09,4.779210436956072
1.523336912323769e-09,5,1.523336912323769e-09,0.969108643717093,1.523336912323769e-09,4.80699724329867
1.530692616087485e-09,5,1.530692616087485e-09,0.9303708263206129,1.530692616087485e-09,4.830996919817977
1.538332809935989e-09,5,1.538332809935989e-09,0.8898931901976113,1.538332809935989e-09,4.852499966867204
1.547065358427011e-09,5,1.547065358427011e-09,0.8432270035697856,1.547065358427011e-09,4.873342692784094
1.558564037952005e-09,5,1.558564037952005e-09,0.7820285086780122,1.558564037952005e-09,4.895626518816753
1.568752664297125e-09,5,1.568752664297125e-09,0.7293387849665567,1.568752664297125e-09,4.911235274690803
1.581010628485471e-09,5,1.581010628485471e-09,0.6689562754566976,1.581010628485471e-09,4.925987602981579
1.593583148174015e-09,5,1.593583148174015e-09,0.6109120087978775,1.593583148174015e-09,4.937639384572481
1.606467604610984e-09,5,1.606467604610984e-09,0.5556654095854461,1.606467604610984e-09,4.946888710613481
1.620588200695334e-09,5,1.620588200695334e-09,0.5000109001073268,1.620588200695334e-09,4.954789115987398
1.636183142661295e-09,5,1.636183142661295e-09,0.4442758474266208,1.636183142661295e-09,4.961603511774304
1.653267383277241e-09,5,1.653267383277241e-09,0.3897063039485467,1.653267383277241e-09,4.967467679438802
1.671961130042796e-09,5,1.671961130042796e-09,0.3371312415862927,1.671961130042796e-09,4.972556171076192
1.692372703142556e-09,5,1.692372703142556e-09,0.2873700754707194,1.692372703142556e-09,4.977005952098468
1.714583319223284e-09,5,1.714583319223284e-09,0.2411901257255919,1.714583319223284e-09,4.980913119862524
1.738710910164164e-09,5,1.738710910164164e-09,0.1991200671369006,1.738710910164164e-09,4.984347932162833
1.764936823466659e-09,5,1.764936823466659e-09,0.1614479407017463,1.764936823466659e-09,4.987359516856228
1.793525431237124e-09,5,1.793525431237124e-09,0.1282663376567228,1.793525431237124e-09,4.989981803670369
1.824856261508155e-09,5,1.824856261508155e-09,0.09951611378415905,1.824856261508155e-09,4.992240462911925
1.859461991666581e-09,5,1.859461991666581e-09,0.0750360144476587,1.859461991666581e-09,4.994157578657568
1.898079504813796e-09,5,1.898079504813796e-09,0.05460428449116053,1.898079504813796e-09,4.995754282943702
1.941730837121906e-09,5,1.941730837121906e-09,0.03796399009181203,1.941730837121906e-09,4.997052210522831
1.991857212362286e-09,5,1.991857212362286e-09,0.02483395188164685,1.991857212362286e-09,4.998074292545793
2.050549817092946e-09,5,2.050549817092946e-09,0.01490846204076435,2.050549817092946e-09,4.998845336736776
2.120968548204147e-09,5,2.120968548204147e-09,0.007848694233091601,2.120968548204147e-09,4.999392708719548
2.208153411178425e-09,5,2.208153411178425e-09,0.003268876766389067,2.208153411178425e-09,4.999747234848908
2.308153411178425e-09,5,2.308153411178425e-09,0.00094620189130246,2.308153411178425e-09,4.999926833833261
2.408153411178425e-09,5,2.408153411178425e-09,0.0001120212442909155,2.408153411178425e-09,4.999991312808359
2.508153411178425e-09,5,2.508153411178425e-09,-0.0001083576950938181,2.508153411178425e-09,5.000008356769796
2.608153411178426e-09,5,2.608153411178426e-09,-0.0001179113134405244,2.608153411178426e-09,5.000009024333041
2.708153411178426e-09,5,2.708153411178426e-09,-7.838875776801737e-05,2.708153411178426e-09,5.000005952134325
2.808153411178426e-09,5,2.808153411178426e-09,-4.220554249198429e-05,2.808153411178426e-09,5.000003184063145
2.908153411178426e-09,5,2.908153411178426e-09,-1.96010012775929e-05,2.908153411178426e-09,5.000001477494553
3.008153411178426e-09,5,3.008153411178426e-09,-7.84651478329423e-06,3.008153411178426e-09,5.00000058499784
3.108153411178426e-09,5,3.108153411178426e-09,-2.553358625904845e-06,3.108153411178426e-09,5.000000179462884
3.208153411178426e-09,5,3.208153411178426e-09,-5.107968814014312e-07,3.208153411178426e-09,5.000000021903618
3.308153411178426e-09,5,3.308153411178426e-09,1.132708370657366e-07,3.308153411178426e-09,4.99999997358511
3.408153411178426e-09,5,3.408153411178426e-09,2.119980009603602e-07,3.408153411178426e-09,4.999999965374166
3.508153411178426e-09,5,3.508153411178426e-09,1.635254484320815e-07,3.508153411178426e-09,4.99999996952221
3.608153411178426e-09,5,3.608153411178426e-09,9.939761783187253e-08,3.608153411178426e-09,4.999999974649977
3.708153411178426e-09,5,3.708153411178426e-09,5.35353791465414e-08,3.708153411178426e-09,4.999999978135496
3.808153411178426e-09,5,3.808153411178426e-09,2.761221361725506e-08,3.808153411178426e-09,4.999999980098492
3.908153411178426e-09,5,3.908153411178426e-09,1.504354233810628e-08,3.908153411178426e-09,4.999999981060023
4.008153411178426e-09,5,4.008153411178426e-09,9.748870647236856e-09,4.008153411178426e-09,4.999999981469684
4.108153411178427e-09,5,4.108153411178427e-09,7.876252747147364e-09,4.108153411178427e-09,4.999999981615739
4.208153411178427e-09,5,4.208153411178427e-09,7.398590899437621e-09,4.208153411178427e-09,4.999999981653189
4.308153411178427e-09,5,4.308153411178427e-09,7.390288862558485e-09,4.308153411178427e-09,4.999999981653915
4.408153411178427e-09,5,4.408153411178427e-09,7.486930220590261e-09,4.408153411178427e-09,4.999999981646419
4.508153411178427e-09,5,4.508153411178427e-09,7.572799578677549e-09,4.508153411178427e-09,4.999999981639759
4.608153411178427e-09,5,4.608153411178427e-09,7.626465506988599e-09,4.608153411178427e-09,4.999999981635599
4.708153411178427e-09,5,4.708153411178427e-09,7.654474900295457e-09,4.708153411178427e-09,4.999999981633431
4.808153411178427e-09,5,4.808153411178427e-09,7.667157443092315e-09,4.808153411178427e-09,4.999999981632448
4.908153411178427e-09,5,4.908153411178427e-09,7.672101078292709e-09,4.908153411178427e-09,4.999999981632066
5.008153411178427e-09,5,5.008153411178427e-09,7.673649504023381e-09,5.008153411178427e-09,4.999999981631947
5.108153411178427e-09,5,5.108153411178427e-09,7.673915995011238e-09,5.108153411178427e-09,4.999999981631926
5.208153411178427e-09,5,5.208153411178427e-09,7.673812849896049e-09,5.208153411178427e-09,4.999999981631934
5.308153411178427e-09,5,5.308153411178427e-09,7.673663902304919e-09,5.308153411178427e-09,4.999999981631945
5.408153411178427e-09,5,5.408153411178427e-09,7.673558528267537e-09,5.408153411178427e-09,4.999999981631954
5.508153411178427e-09,5,5.508153411178427e-09,7.673489108112166e-09,5.508153411178427e-09,4.999999981631958
5.608153411178428e-09,5,5.608153411178428e-09,7.673456594892842e-09,5.608153411178428e-09,4.99999998163196
5.708153411178428e-09,5,5.708153411178428e-09,7.673449544389623e-09,5.708153411178428e-09,4.999999981631962
5.808153411178428e-09,5,5.808153411178428e-09,7.673451239801981e-09,5.808153411178428e-09,4.999999981631962
5.908153411178428e-09,5,5.908153411178428e-09,7.673454568640244e-09,5.908153411178428e-09,4.999999981631962
6.008153411178428e-09,5,6.008153411178428e-09,7.673453573445824e-09,6.008153411178428e-09,4.999999981631961
6.1e-09,5,6.1e-09,7.673451237533628e-09,6.1e-09,4.999999981631961
6.1015625e-09,4.921874999999994,6.1015625e-09,-0.00364128927732697,6.1015625e-09,4.999255559681946
6.104122720062094e-09,4.793863996895286,6.104122720062094e-09,-0.009503528577434845,6.104122720062094e-09,4.998112270814551
6.109243160186283e-09,4.53784199068587,6.109243160186283e-09,-0.02078711531388616,6.109243160186283e-09,4.996142633953029
6.11052327021733e-09,4.473836489133495,6.11052327021733e-09,-0.02354130490088667,6.11052327021733e-09,4.995709386483046
6.113083490279425e-09,4.345825486028746,6.113083490279425e-09,-0.02932909530338602,6.113083490279425e-09,4.994834392910802
6.118203930403615e-09,4.089803479819247,6.118203930403615e-09,-0.04253969436033545,6.118203930403615e-09,4.992950252859439
6.119484040434663e-09,4.025797978266873,6.119484040434663e-09,-0.04567609358227466,6.119484040434663e-09,4.992557601119548
6.122044260496758e-09,3.897786975162123,6.122044260496758e-09,-0.05146221976870014,6.122044260496758e-09,4.99191682374174
