/net8 X,/net8 Y,/net10 X,/net10 Y,/net7 X,/net7 Y,/net9 X,/net9 Y,/net3 X,/net3 Y
0,5,0,5,0,5,0,5,0,1.67653861161883e-08
8.079999999999999e-11,5,8.079999999999999e-11,5,8.079999999999999e-11,5,8.079999999999999e-11,5,8.079999999999999e-11,1.676538068669405e-08
2.424e-10,5,2.424e-10,5,2.424e-10,5,2.424e-10,5,2.424e-10,1.676538199644184e-08
5.656e-10,5,5.656e-10,5,5.656e-10,5,5.656e-10,5,5.656e-10,1.676538467717804e-08
1e-09,5,1e-09,5,1e-09,5,1e-09,5,1e-09,1.67653866241233e-08
1.000084945590278e-09,4.995752720486109,1.000084945590278e-09,4.995752720486109,1.000084945590278e-09,4.995752720486109,1.000084945590278e-09,4.995752720486109,1.000084945590278e-09,-0.0005086001221728814
1.000148217691355e-09,4.992589115432249,1.000148217691355e-09,4.992589115432249,1.000148217691355e-09,4.992589115432249,1.000148217691355e-09,4.992589115432249,1.000148217691355e-09,-0.000888356799201252
1.000274761893509e-09,4.986261905324529,1.000274761893509e-09,4.986261905324529,1.000274761893509e-09,4.986261905324529,1.000274761893509e-09,4.986261905324529,1.000274761893509e-09,-0.001651348588537999
1.00043448926051e-09,4.978275536974502,1.00043448926051e-09,4.978275536974502,1.00043448926051e-09,4.978275536974502,1.00043448926051e-09,4.978275536974502,1.00043448926051e-09,-0.002621266997553369
1.000753943994511e-09,4.96230280027445,1.000753943994511e-09,4.96230280027445,1.000753943994511e-09,4.96230280027445,1.000753943994511e-09,4.96230280027445,1.000753943994511e-09,-0.004583306177947911
1.001392853462513e-09,4.930357326874343,1.001392853462513e-09,4.930357326874343,1.001392853462513e-09,4.930357326874343,1.001392853462513e-09,4.930357326874343,1.001392853462513e-09,-0.008588363672606882
1.002002761159452e-09,4.899861942027384,1.002002761159452e-09,4.899861942027384,1.002002761159452e-09,4.899861942027384,1.002002761159452e-09,4.899861942027384,1.002002761159452e-09,-0.01250171457995574
1.002651711002703e-09,4.867414449864834,1.002651711002703e-09,4.867414449864834,1.002651711002703e-09,4.867414449864834,1.002651711002703e-09,4.867414449864834,1.002651711002703e-09,-0.01674917746220375
1.003370126694376e-09,4.831493665281206,1.003370126694376e-09,4.831493665281206,1.003370126694376e-09,4.831493665281206,1.003370126694376e-09,4.831493665281206,1.003370126694376e-09,-0.02153636337972878
1.004141939908168e-09,4.792903004591581,1.004141939908168e-09,4.792903004591581,1.004141939908168e-09,4.792903004591581,1.004141939908168e-09,4.792903004591581,1.004141939908168e-09,-0.02676185863821558
1.004953856366814e-09,4.752307181659301,1.004953856366814e-09,4.752307181659301,1.004953856366814e-09,4.752307181659301,1.004953856366814e-09,4.752307181659301,1.004953856366814e-09,-0.03233338031860246
1.005831684845284e-09,4.708415757735827,1.005831684845284e-09,4.708415757735827,1.005831684845284e-09,4.708415757735827,1.005831684845284e-09,4.708415757735827,1.005831684845284e-09,-0.03842416817593724
1.006792665212663e-09,4.660366739366846,1.006792665212663e-09,4.660366739366846,1.006792665212663e-09,4.660366739366846,1.006792665212663e-09,4.660366739366846,1.006792665212663e-09,-0.04515087162766152
1.007844502274172e-09,4.607774886291388,1.007844502274172e-09,4.607774886291388,1.007844502274172e-09,4.607774886291388,1.007844502274172e-09,4.607774886291388,1.007844502274172e-09,-0.05256131789681436
1.00899643066188e-09,4.550178466906019,1.00899643066188e-09,4.550178466906019,1.00899643066188e-09,4.550178466906019,1.00899643066188e-09,4.550178466906019,1.00899643066188e-09,-0.06070918119694094
1.010258713251202e-09,4.487064337439904,1.010258713251202e-09,4.487064337439904,1.010258713251202e-09,4.487064337439904,1.010258713251202e-09,4.487064337439904,1.010258713251202e-09,-0.06965079482685943
1.011643847057563e-09,4.417807647121839,1.011643847057563e-09,4.417807647121839,1.011643847057563e-09,4.417807647121839,1.011643847057563e-09,4.417807647121839,1.011643847057563e-09,-0.07945259620583292
1.013167120620201e-09,4.341643968989957,1.013167120620201e-09,4.341643968989957,1.013167120620201e-09,4.341643968989957,1.013167120620201e-09,4.341643968989957,1.013167120620201e-09,-0.0901934444178097
1.014847401805827e-09,4.257629909708676,1.014847401805827e-09,4.257629909708676,1.014847401805827e-09,4.257629909708676,1.014847401805827e-09,4.257629909708676,1.014847401805827e-09,-0.1019693612576813
1.016708240187553e-09,4.164587990622343,1.016708240187553e-09,4.164587990622343,1.016708240187553e-09,4.164587990622343,1.016708240187553e-09,4.164587990622343,1.016708240187553e-09,-0.1149003758854431
1.018778656802423e-09,4.061067159878863,1.018778656802423e-09,4.061067159878863,1.018778656802423e-09,4.061067159878863,1.018778656802423e-09,4.061067159878863,1.018778656802423e-09,-0.1291252931622799
1.021093992051403e-09,3.945300397429834,1.021093992051403e-09,3.945300397429834,1.021093992051403e-09,3.945300397429834,1.021093992051403e-09,3.945300397429834,1.021093992051403e-09,-0.1448027799877037
1.023500960601007e-09,3.82495196994965,1.023500960601007e-09,3.82495196994965,1.023500960601007e-09,3.82495196994965,1.023500960601007e-09,3.82495196994965,1.023500960601007e-09,-0.1608279155958851
1.026431775241773e-09,3.678411237911374,1.026431775241773e-09,3.678411237911374,1.026431775241773e-09,3.678411237911374,1.026431775241773e-09,3.678411237911374,1.026431775241773e-09,-0.1799577198361917
1.029797462528966e-09,3.510126873551728,1.029797462528966e-09,3.510126873551728,1.029797462528966e-09,3.510126873551728,1.029797462528966e-09,3.510126873551728,1.029797462528966e-09,-0.2014137938612506
1.033663209114317e-09,3.316839544284143,1.033663209114317e-09,3.316839544284143,1.033663209114317e-09,3.316839544284143,1.033663209114317e-09,3.316839544284143,1.033663209114317e-09,-0.2254103909148235
1.038120605538873e-09,3.093969723056341,1.038120605538873e-09,3.093969723056341,1.038120605538873e-09,3.093969723056341,1.038120605538873e-09,3.093969723056341,1.038120605538873e-09,-0.252282316074059
1.043214322979403e-09,2.839283851029832,1.043214322979403e-09,2.839283851029832,1.043214322979403e-09,2.839283851029832,1.043214322979403e-09,2.839283851029832,1.043214322979403e-09,-0.2820547728177205
1.048912344606422e-09,2.554382769678886,1.048912344606422e-09,2.554382769678886,1.048912344606422e-09,2.554382769678886,1.048912344606422e-09,2.554382769678886,1.048912344606422e-09,-0.314347953156662
1.055025327625678e-09,2.248733618716091,1.055025327625678e-09,2.248733618716091,1.055025327625678e-09,2.248733618716091,1.055025327625678e-09,2.248733618716091,1.055025327625678e-09,-0.3480340401216273
1.061273520152606e-09,1.936323992369709,1.061273520152606e-09,1.936323992369709,1.061273520152606e-09,1.936323992369709,1.061273520152606e-09,1.936323992369709,1.061273520152606e-09,-0.3816963187610756
1.067443999998109e-09,1.627800000094549,1.067443999998109e-09,1.627800000094549,1.067443999998109e-09,1.627800000094549,1.067443999998109e-09,1.627800000094549,1.067443999998109e-09,-0.4144141979740886
1.073595183359731e-09,1.320240832013469,1.073595183359731e-09,1.320240832013469,1.073595183359731e-09,1.320240832013469,1.073595183359731e-09,1.320240832013469,1.073595183359731e-09,-0.4472518369697771
1.07567597464111e-09,1.216201267944513,1.07567597464111e-09,1.216201267944513,1.07567597464111e-09,1.216201267944513,1.07567597464111e-09,1.216201267944513,1.07567597464111e-09,-0.4616006479149302
1.077518609732007e-09,1.124069513399676,1.077518609732007e-09,1.124069513399676,1.077518609732007e-09,1.124069513399676,1.077518609732007e-09,1.124069513399676,1.077518609732007e-09,-0.4745243405674563
1.079664513526116e-09,1.01677432369421,1.079664513526116e-09,1.01677432369421,1.079664513526116e-09,1.01677432369421,1.079664513526116e-09,1.01677432369421,1.079664513526116e-09,-0.488741035688593
1.081726217188601e-09,0.9136891405699674,1.081726217188601e-09,0.9136891405699674,1.081726217188601e-09,0.9136891405699674,1.081726217188601e-09,0.9136891405699674,1.081726217188601e-09,-0.501242926502063
1.084395375893503e-09,0.780231205324843,1.084395375893503e-09,0.780231205324843,1.084395375893503e-09,0.780231205324843,1.084395375893503e-09,0.780231205324843,1.084395375893503e-09,-0.5152831799985251
1.086648679408403e-09,0.6675660295798338,1.086648679408403e-09,0.6675660295798338,1.086648679408403e-09,0.6675660295798338,1.086648679408403e-09,0.6675660295798338,1.086648679408403e-09,-0.5249568317201403
1.088782969305391e-09,0.5608515347304619,1.088782969305391e-09,0.5608515347304619,1.088782969305391e-09,0.5608515347304619,1.088782969305391e-09,0.5608515347304619,1.088782969305391e-09,-0.5320730201873565
1.091372681076628e-09,0.4313659461686259,1.091372681076628e-09,0.4313659461686259,1.091372681076628e-09,0.4313659461686259,1.091372681076628e-09,0.4313659461686259,1.091372681076628e-09,-0.5378420177907168
1.095437582902102e-09,0.2281208548949007,1.095437582902102e-09,0.2281208548949007,1.095437582902102e-09,0.2281208548949007,1.095437582902102e-09,0.2281208548949007,1.095437582902102e-09,-0.5399949310255749
1.097718791451051e-09,0.1140604274474547,1.097718791451051e-09,0.1140604274474547,1.097718791451051e-09,0.1140604274474547,1.097718791451051e-09,0.1140604274474547,1.097718791451051e-09,-0.5361734109281191
1.098859395725525e-09,0.05703021372373032,1.098859395725525e-09,0.05703021372373032,1.098859395725525e-09,0.05703021372373032,1.098859395725525e-09,0.05703021372373032,1.098859395725525e-09,-0.5327598174405902
1.1e-09,1.110223024625157e-16,1.1e-09,1.110223024625157e-16,1.1e-09,1.110223024625157e-16,1.1e-09,1.110223024625157e-16,1.1e-09,-0.5286221975452721
1.100464679642948e-09,4.163336342344337e-17,1.100464679642948e-09,4.163336342344337e-17,1.100464679642948e-09,4.163336342344337e-17,1.100464679642948e-09,4.163336342344337e-17,1.100464679642948e-09,-0.524754178737517
1.100908979436292e-09,1.43982048506075e-16,1.100908979436292e-09,1.43982048506075e-16,1.100908979436292e-09,1.43982048506075e-16,1.100908979436292e-09,1.43982048506075e-16,1.100908979436292e-09,-0.5210270007044111
1.101388908593204e-09,4.39817695831719e-16,1.101388908593204e-09,4.39817695831719e-16,1.101388908593204e-09,4.39817695831719e-16,1.101388908593204e-09,4.39817695831719e-16,1.101388908593204e-09,-0.5169591547073163
1.102348766907029e-09,-1.67601885436338e-16,1.102348766907029e-09,-1.67601885436338e-16,1.102348766907029e-09,-1.67601885436338e-16,1.102348766907029e-09,-1.67601885436338e-16,1.102348766907029e-09,-0.508675524463608
1.103831457498271e-09,1.927633853841537e-16,1.103831457498271e-09,1.927633853841537e-16,1.103831457498271e-09,1.927633853841537e-16,1.103831457498271e-09,1.927633853841537e-16,1.103831457498271e-09,-0.4954664136052117
1.105339991485332e-09,4.011355162603982e-16,1.105339991485332e-09,4.011355162603982e-16,1.105339991485332e-09,4.011355162603982e-16,1.105339991485332e-09,4.011355162603982e-16,1.105339991485332e-09,-0.4814933839983159
1.107096309906761e-09,4.426055404002634e-16,1.107096309906761e-09,4.426055404002634e-16,1.107096309906761e-09,4.426055404002634e-16,1.107096309906761e-09,4.426055404002634e-16,1.107096309906761e-09,-0.4645367866200725
1.109189655466188e-09,2.09369668397601e-16,1.109189655466188e-09,2.09369668397601e-16,1.109189655466188e-09,2.09369668397601e-16,1.109189655466188e-09,2.09369668397601e-16,1.109189655466188e-09,-0.4433669863995151
1.11170920242829e-09,4.091620007038949e-16,1.11170920242829e-09,4.091620007038949e-16,1.11170920242829e-09,4.091620007038949e-16,1.11170920242829e-09,4.091620007038949e-16,1.11170920242829e-09,-0.4164646141144338
1.114793546020783e-09,-4.080155595917403e-16,1.114793546020783e-09,-4.080155595917403e-16,1.114793546020783e-09,-4.080155595917403e-16,1.114793546020783e-09,-4.080155595917403e-16,1.114793546020783e-09,-0.3815782994691106
1.118569848354541e-09,-3.354794450082722e-16,1.118569848354541e-09,-3.354794450082722e-16,1.118569848354541e-09,-3.354794450082722e-16,1.118569848354541e-09,-3.354794450082722e-16,1.118569848354541e-09,-0.3362318142785699
1.123184537907867e-09,-4.194284449253425e-16,1.123184537907867e-09,-4.194284449253425e-16,1.123184537907867e-09,-4.194284449253425e-16,1.123184537907867e-09,-4.194284449253425e-16,1.123184537907867e-09,-0.2772203085167746
1.128813628068037e-09,1.093338366517948e-16,1.128813628068037e-09,1.093338366517948e-16,1.128813628068037e-09,1.093338366517948e-16,1.128813628068037e-09,1.093338366517948e-16,1.128813628068037e-09,-0.2004135515704883
1.135609859463978e-09,-1.043111351992336e-16,1.135609859463978e-09,-1.043111351992336e-16,1.135609859463978e-09,-1.043111351992336e-16,1.135609859463978e-09,-1.043111351992336e-16,1.135609859463978e-09,-0.1013864888615652
1.142893554437638e-09,4.083231576566505e-16,1.142893554437638e-09,4.083231576566505e-16,1.142893554437638e-09,4.083231576566505e-16,1.142893554437638e-09,4.083231576566505e-16,1.142893554437638e-09,0.01146463168326953
1.150424175456299e-09,-3.128382682265414e-17,1.150424175456299e-09,-3.128382682265414e-17,1.150424175456299e-09,-3.128382682265414e-17,1.150424175456299e-09,-3.128382682265414e-17,1.150424175456299e-09,0.1331398876632916
1.156271117554502e-09,-1.642478301016221e-16,1.156271117554502e-09,-1.642478301016221e-16,1.156271117554502e-09,-1.642478301016221e-16,1.156271117554502e-09,-1.642478301016221e-16,1.156271117554502e-09,0.2299274007011135
1.162346702985881e-09,-1.094554624946068e-16,1.162346702985881e-09,-1.094554624946068e-16,1.162346702985881e-09,-1.094554624946068e-16,1.162346702985881e-09,-1.094554624946068e-16,1.162346702985881e-09,0.3319887239176427
1.169793798092426e-09,2.259629313691507e-16,1.169793798092426e-09,2.259629313691507e-16,1.169793798092426e-09,2.259629313691507e-16,1.169793798092426e-09,2.259629313691507e-16,1.169793798092426e-09,0.4584982043544512
1.178288043842393e-09,8.107099491786733e-17,1.178288043842393e-09,8.107099491786733e-17,1.178288043842393e-09,8.107099491786733e-17,1.178288043842393e-09,8.107099491786733e-17,1.178288043842393e-09,0.6039921313680017
1.188145794697554e-09,9.638562373081123e-17,1.188145794697554e-09,9.638562373081123e-17,1.188145794697554e-09,9.638562373081123e-17,1.188145794697554e-09,9.638562373081123e-17,1.188145794697554e-09,0.7733646925391862
1.19467624017709e-09,2.15064996027428e-16,1.19467624017709e-09,2.15064996027428e-16,1.19467624017709e-09,2.15064996027428e-16,1.19467624017709e-09,2.15064996027428e-16,1.19467624017709e-09,0.8835065299909216
1.201173022739086e-09,4.189631483229693e-16,1.201173022739086e-09,4.189631483229693e-16,1.201173022739086e-09,4.189631483229693e-16,1.201173022739086e-09,4.189631483229693e-16,1.201173022739086e-09,0.9881298111221674
1.207013347603097e-09,-2.128492385548394e-16,1.207013347603097e-09,-2.128492385548394e-16,1.207013347603097e-09,-2.128492385548394e-16,1.207013347603097e-09,-2.128492385548394e-16,1.207013347603097e-09,1.079763399741923
1.213458974273899e-09,-2.964403176516965e-17,1.213458974273899e-09,-2.964403176516965e-17,1.213458974273899e-09,-2.964403176516965e-17,1.213458974273899e-09,-2.964403176516965e-17,1.213458974273899e-09,1.179517260765366
1.221380652902722e-09,-3.153832662596525e-16,1.221380652902722e-09,-3.153832662596525e-16,1.221380652902722e-09,-3.153832662596525e-16,1.221380652902722e-09,-3.153832662596525e-16,1.221380652902722e-09,1.300263968237164
1.237224010160369e-09,8.751358261881139e-17,1.237224010160369e-09,8.751358261881139e-17,1.237224010160369e-09,8.751358261881139e-17,1.237224010160369e-09,8.751358261881139e-17,1.237224010160369e-09,1.535340392633757
1.265083365010143e-09,3.940579168471094e-16,1.265083365010143e-09,3.940579168471094e-16,1.265083365010143e-09,3.940579168471094e-16,1.265083365010143e-09,3.940579168471094e-16,1.265083365010143e-09,1.926533895464231
1.291305960027008e-09,2.144396552762956e-16,1.291305960027008e-09,2.144396552762956e-16,1.291305960027008e-09,2.144396552762956e-16,1.291305960027008e-09,2.144396552762956e-16,1.291305960027008e-09,2.264763792378822
1.317538770286977e-09,-4.194983755940573e-16,1.317538770286977e-09,-4.194983755940573e-16,1.317538770286977e-09,-4.194983755940573e-16,1.317538770286977e-09,-4.194983755940573e-16,1.317538770286977e-09,2.566603966171811
1.341139919500467e-09,3.982607043998697e-16,1.341139919500467e-09,3.982607043998697e-16,1.341139919500467e-09,3.982607043998697e-16,1.341139919500467e-09,3.982607043998697e-16,1.341139919500467e-09,2.810655563661447
1.353457858463764e-09,-4.291036706871861e-16,1.353457858463764e-09,-4.291036706871861e-16,1.353457858463764e-09,-4.291036706871861e-16,1.353457858463764e-09,-4.291036706871861e-16,1.353457858463764e-09,2.932407718997783
1.365416702892516e-09,-2.789417736538209e-16,1.365416702892516e-09,-2.789417736538209e-16,1.365416702892516e-09,-2.789417736538209e-16,1.365416702892516e-09,-2.789417736538209e-16,1.365416702892516e-09,3.044407057003672
1.379406723655561e-09,2.007064864463239e-16,1.379406723655561e-09,2.007064864463239e-16,1.379406723655561e-09,2.007064864463239e-16,1.379406723655561e-09,2.007064864463239e-16,1.379406723655561e-09,3.164381030588316
1.396455646718369e-09,3.401641089669429e-16,1.396455646718369e-09,3.401641089669429e-16,1.396455646718369e-09,3.401641089669429e-16,1.396455646718369e-09,3.401641089669429e-16,1.396455646718369e-09,3.29503548500479
1.42161294537977e-09,-3.470710004304161e-16,1.42161294537977e-09,-3.470710004304161e-16,1.42161294537977e-09,-3.470710004304161e-16,1.42161294537977e-09,-3.470710004304161e-16,1.42161294537977e-09,3.460631554831755
1.440937696195892e-09,1.784145628829121e-16,1.440937696195892e-09,1.784145628829121e-16,1.440937696195892e-09,1.784145628829121e-16,1.440937696195892e-09,1.784145628829121e-16,1.440937696195892e-09,3.569207665893039
1.450570002235229e-09,-1.060362967396341e-16,1.450570002235229e-09,-1.060362967396341e-16,1.450570002235229e-09,-1.060362967396341e-16,1.450570002235229e-09,-1.060362967396341e-16,1.450570002235229e-09,3.618385426426131
1.461174943017246e-09,4.856470929828681e-17,1.461174943017246e-09,4.856470929828681e-17,1.461174943017246e-09,4.856470929828681e-17,1.461174943017246e-09,4.856470929828681e-17,1.461174943017246e-09,3.668594764500322
1.468692340630242e-09,-4.330903306053162e-16,1.468692340630242e-09,-4.330903306053162e-16,1.468692340630242e-09,-4.330903306053162e-16,1.468692340630242e-09,-4.330903306053162e-16,1.468692340630242e-09,3.701645999940705
1.476082366513497e-09,3.916551732493177e-16,1.476082366513497e-09,3.916551732493177e-16,1.476082366513497e-09,3.916551732493177e-16,1.476082366513497e-09,3.916551732493177e-16,1.476082366513497e-09,3.734056118544308
1.488277838816974e-09,1.265566567405467e-16,1.488277838816974e-09,1.265566567405467e-16,1.488277838816974e-09,1.265566567405467e-16,1.488277838816974e-09,1.265566567405467e-16,1.488277838816974e-09,3.789890111913812
1.50347358715109e-09,-3.72959855536263e-16,1.50347358715109e-09,-3.72959855536263e-16,1.50347358715109e-09,-3.72959855536263e-16,1.50347358715109e-09,-3.72959855536263e-16,1.50347358715109e-09,3.8638103507027
1.51511112070301e-09,5.727487906356703e-18,1.51511112070301e-09,5.727487906356703e-18,1.51511112070301e-09,5.727487906356703e-18,1.51511112070301e-09,5.727487906356703e-18,1.51511112070301e-09,3.922563028695942
1.526202210988597e-09,9.297074549813911e-17,1.526202210988597e-09,9.297074549813911e-17,1.526202210988597e-09,9.297074549813911e-17,1.526202210988597e-09,9.297074549813911e-17,1.526202210988597e-09,3.978911111008109
1.537804947179443e-09,-1.016101853013749e-16,1.537804947179443e-09,-1.016101853013749e-16,1.537804947179443e-09,-1.016101853013749e-16,1.537804947179443e-09,-1.016101853013749e-16,1.537804947179443e-09,4.037048625238819
1.550209452090011e-09,2.552531525476419e-16,1.550209452090011e-09,2.552531525476419e-16,1.550209452090011e-09,2.552531525476419e-16,1.550209452090011e-09,2.552531525476419e-16,1.550209452090011e-09,4.097389594397274
1.564129281588755e-09,-4.255680797977744e-16,1.564129281588755e-09,-4.255680797977744e-16,1.564129281588755e-09,-4.255680797977744e-16,1.564129281588755e-09,-4.255680797977744e-16,1.564129281588755e-09,4.162223606933754
