/net1 X,/net1 Y,/net010 X,/net010 Y,/o1 X,/o1 Y
0,0,0,4.999999981631962,0,1.704906655848801e-08
1e-11,0,1e-11,4.999999981631962,1e-11,1.704906653561593e-08
3e-11,0,3e-11,4.999999981631961,3e-11,1.704906642900125e-08
6.999999999999999e-11,0,6.999999999999999e-11,4.99999998163196,6.999999999999999e-11,1.704906674443068e-08
1.5e-10,0,1.5e-10,4.99999998163196,1.5e-10,1.704906692333364e-08
2.5e-10,0,2.5e-10,4.99999998163196,2.5e-10,1.704906685893217e-08
3.5e-10,0,3.5e-10,4.999999981631962,3.5e-10,1.704906650236236e-08
4.5e-10,0,4.5e-10,4.999999981631962,4.5e-10,1.704906645826908e-08
5.5e-10,0,5.5e-10,4.999999981631962,5.5e-10,1.704906661449204e-08
6.499999999999999e-10,0,6.499999999999999e-10,4.999999981631962,6.499999999999999e-10,1.704906674038493e-08
7.499999999999999e-10,0,7.499999999999999e-10,4.999999981631962,7.499999999999999e-10,1.704906647364006e-08
8.499999999999999e-10,0,8.499999999999999e-10,4.999999981631962,8.499999999999999e-10,1.704906627887683e-08
9.25e-10,0,9.25e-10,4.999999981631961,9.25e-10,1.70490666891305e-08
1e-09,0,1e-09,4.999999981631961,1e-09,1.704906689046838e-08
1.000042608538347e-09,0.002130426917340556,1.000042608538347e-09,5.000179777063686,1.000042608538347e-09,3.796904994942624e-05
1.000073754935942e-09,0.00368774679708731,1.000073754935942e-09,5.000311162631162,1.000073754935942e-09,6.567881182189999e-05
1.000136047731132e-09,0.006802386556580818,1.000136047731132e-09,5.000573766571798,1.000136047731132e-09,0.0001209699742983709
1.000260633321511e-09,0.01303166607556783,1.000260633321511e-09,5.001098261218604,1.000260633321511e-09,0.000231004576946778
1.000509804502271e-09,0.02549022511354186,1.000509804502271e-09,5.00214437463416,1.000509804502271e-09,0.000448870794512876
1.00100814686379e-09,0.05040734318948992,1.00100814686379e-09,5.004225179914128,1.00100814686379e-09,0.0008759028047502737
1.002004831586828e-09,0.100241579341386,1.002004831586828e-09,5.008341958958178,1.002004831586828e-09,0.001696198029516813
1.003998201032904e-09,0.1999100516451783,1.003998201032904e-09,5.016402979751473,1.003998201032904e-09,0.003209687061489369
1.00650499252907e-09,0.3252496264535004,1.00650499252907e-09,5.026230932276889,1.00650499252907e-09,0.004891999628729154
1.00912747689603e-09,0.4563738448015141,1.00912747689603e-09,5.036167482083813,1.00912747689603e-09,0.006414496126843356
1.01189363268823e-09,0.594681634411498,1.01189363268823e-09,5.046295321418413,1.01189363268823e-09,0.007787536671622034
1.014792322141935e-09,0.7396161070967335,1.014792322141935e-09,5.056569199656045,1.014792322141935e-09,0.009005406511022935
1.017736501211152e-09,0.8868250605575775,1.017736501211152e-09,5.067050768517213,1.017736501211152e-09,0.01011424075505718
1.019888436646341e-09,0.994421832317043,1.019888436646341e-09,5.075278836681979,1.019888436646341e-09,0.01095828367380725
1.02155364376407e-09,1.077682188203507,1.02155364376407e-09,5.081565304138433,1.02155364376407e-09,0.01154730404233561
1.023044811942841e-09,1.152240597142058,1.023044811942841e-09,5.086894074755548,1.023044811942841e-09,0.01198087299667256
1.024610033147606e-09,1.230501657380288,1.024610033147606e-09,5.092102911716732,1.024610033147606e-09,0.01232994179001904
1.027166873065279e-09,1.358343653263939,1.027166873065279e-09,5.09966586541255,1.027166873065279e-09,0.01266529704847472
1.032280552900625e-09,1.614027645031241,1.032280552900625e-09,5.11098307092345,1.032280552900625e-09,0.01251866708728942
1.036325584228337e-09,1.816279211416858,1.036325584228337e-09,5.116201089030302,1.036325584228337e-09,0.01169805767828456
1.039862736000926e-09,1.993136800046287,1.039862736000926e-09,5.117988578982092,1.039862736000926e-09,0.010527315454885
1.043376578762683e-09,2.168828938134127,1.043376578762683e-09,5.117157081204517,1.043376578762683e-09,0.008996763312740514
1.04684357552471e-09,2.342178776235497,1.04684357552471e-09,5.113764242245217,1.04684357552471e-09,0.007171479241154698
1.050395137275866e-09,2.519756863793318,1.050395137275866e-09,5.107619039508266,1.050395137275866e-09,0.005017333687053416
1.054111990153835e-09,2.705599507691741,1.054111990153835e-09,5.098270916140744,1.054111990153835e-09,0.002492632675055403
1.058046289599704e-09,2.902314479985209,1.058046289599704e-09,5.085090695617298,1.058046289599704e-09,-0.0004660220230352904
1.06369879161272e-09,3.184939580636021,1.06369879161272e-09,5.060123161206769,1.06369879161272e-09,-0.005310622234790182
1.066513049423782e-09,3.32565247118908,1.066513049423782e-09,5.044969431001971,1.066513049423782e-09,-0.007893495861995746
1.069080237462073e-09,3.454011873103647,1.069080237462073e-09,5.029513675141082,1.069080237462073e-09,-0.01034505991510166
1.074214613538656e-09,3.710730676932783,1.074214613538656e-09,4.993733770804713,1.074214613538656e-09,-0.01551376622117413
1.076234291878371e-09,3.811714593918569,1.076234291878371e-09,4.977885704067361,1.076234291878371e-09,-0.01763528415701386
1.078219312718656e-09,3.910965635932813,1.078219312718656e-09,4.960987254465131,1.078219312718656e-09,-0.019836127103252
1.079728078445925e-09,3.986403922296236,1.079728078445925e-09,4.946838519399588,1.079728078445925e-09,-0.02167127471048227
1.081199472504808e-09,4.059973625240418,1.081199472504808e-09,4.931266857894347,1.081199472504808e-09,-0.02373361408366885
1.082417669174079e-09,4.120883458703968,1.082417669174079e-09,4.916969846023719,1.082417669174079e-09,-0.02565157389717615
1.083837258012436e-09,4.191862900621776,1.083837258012436e-09,4.898996593832333,1.083837258012436e-09,-0.02805114178414944
1.085253766628927e-09,4.262688331446355,1.085253766628927e-09,4.880083616836022,1.085253766628927e-09,-0.03052108087898954
1.086562244554855e-09,4.328112227742758,1.086562244554855e-09,4.861967315728411,1.086562244554855e-09,-0.03281849786743471
1.088158670410058e-09,4.407933520502917,1.088158670410058e-09,4.839105057342779,1.088158670410058e-09,-0.0356236431433408
1.090811550845643e-09,4.540577542282159,1.090811550845643e-09,4.799296658096051,1.090811550845643e-09,-0.0402851560887697
1.096117311716813e-09,4.805865585840642,1.096117311716813e-09,4.712783732611616,1.096117311716813e-09,-0.04963872491954468
1.1e-09,5,1.1e-09,4.643542671570809,1.1e-09,-0.05653826330773115
1.100693313836299e-09,5,1.100693313836299e-09,4.628646755866386,1.100693313836299e-09,-0.05818274626768617
1.101471324194904e-09,5,1.101471324194904e-09,4.611917299449903,1.101471324194904e-09,-0.05999504592161224
1.102420627769429e-09,5,1.102420627769429e-09,4.591492057243478,1.102420627769429e-09,-0.06214408071561402
1.104319234918479e-09,5,1.104319234918479e-09,4.550616034800198,1.104319234918479e-09,-0.0662329839033983
1.108116449216579e-09,5,1.108116449216579e-09,4.468947153418976,1.108116449216579e-09,-0.07367056389435758
1.111965546048715e-09,5,1.111965546048715e-09,4.387524997952863,1.111965546048715e-09,-0.0804486090087753
1.115256709658899e-09,5,1.115256709658899e-09,4.321582349899235,1.115256709658899e-09,-0.08594613490217688
1.118187590366788e-09,5,1.118187590366788e-09,4.266469196023008,1.118187590366788e-09,-0.09060283436695354
1.120649319573024e-09,5,1.120649319573024e-09,4.221783522528055,1.120649319573024e-09,-0.09412260321588509
1.123234625566923e-09,5,1.123234625566923e-09,4.175594338052541,1.123234625566923e-09,-0.09724535402859262
1.125983432610268e-09,5,1.125983432610268e-09,4.12689812958493,1.125983432610268e-09,-0.09979272962004013
1.129242382172591e-09,5,1.129242382172591e-09,4.069501598307282,1.129242382172591e-09,-0.1016789859549304
1.133336855109467e-09,5,1.133336855109467e-09,3.997800809778246,1.133336855109467e-09,-0.1022339671086745
1.139015692580739e-09,5,1.139015692580739e-09,3.899060098187984,1.139015692580739e-09,-0.09966112295172583
1.141597195258291e-09,5,1.141597195258291e-09,3.854442820137556,1.141597195258291e-09,-0.09722201982807636
1.146760200613394e-09,5,1.146760200613394e-09,3.765703511601281,1.146760200613394e-09,-0.09004623713392644
1.153685931490503e-09,5,1.153685931490503e-09,3.647685657429686,1.153685931490503e-09,-0.07579066260879058
1.160375754274735e-09,5,1.160375754274735e-09,3.534778824410699,1.160375754274735e-09,-0.05716290990700621
1.167495996221732e-09,5,1.167495996221732e-09,3.415756402948823,1.167495996221732e-09,-0.03230478490788036
1.174747152573317e-09,5,1.174747152573317e-09,3.295704124809153,1.174747152573317e-09,-0.001961404916899293
1.177996134659823e-09,5,1.177996134659823e-09,3.242336785272697,1.177996134659823e-09,0.01264689737768771
1.180823572524208e-09,5,1.180823572524208e-09,3.196104631188452,1.180823572524208e-09,0.0260728807177795
1.18425441328292e-09,5,1.18425441328292e-09,3.140264613699083,1.18425441328292e-09,0.04335142666330778
1.18872855935208e-09,5,1.18872855935208e-09,3.067873461077878,1.18872855935208e-09,0.06750817975836272
1.197676851490399e-09,5,1.197676851490399e-09,2.924594428972215,1.197676851490399e-09,0.1214234505825421
1.208850972932823e-09,5,1.208850972932823e-09,2.748690160069465,1.208850972932823e-09,0.1999151599182879
1.217521488442455e-09,5,1.217521488442455e-09,2.614714598843126,1.217521488442455e-09,0.2703857139336601
1.224936804719015e-09,5,1.224936804719015e-09,2.502063518283388,1.224936804719015e-09,0.3384557980268287
1.231676735182262e-09,5,1.231676735182262e-09,2.401356119083726,1.231676735182262e-09,0.4079122433335074
1.23772067556295e-09,5,1.23772067556295e-09,2.312440396663758,1.23772067556295e-09,0.4778849024616054
1.243147933022283e-09,5,1.243147933022283e-09,2.233583917392984,1.243147933022283e-09,0.5487207462846626
1.247993064932052e-09,5,1.247993064932052e-09,2.163745973656219,1.247993064932052e-09,0.6203245461313331
1.252375292576133e-09,5,1.252375292576133e-09,2.101087312021414,1.252375292576133e-09,0.6934800510605772
1.256773789786329e-09,5,1.256773789786329e-09,2.039320876282811,1.256773789786329e-09,0.7757738887452613
1.262281351586352e-09,5,1.262281351586352e-09,1.964631228858407,1.262281351586352e-09,0.891790050349062
1.270715411043036e-09,5,1.270715411043036e-09,1.857033230445736,1.270715411043036e-09,1.09676236271538
1.276947631302971e-09,5,1.276947631302971e-09,1.782862774653941,1.276947631302971e-09,1.268143207876908
1.285013138203057e-09,5,1.285013138203057e-09,1.693281825017957,1.285013138203057e-09,1.512209423922434
1.29315603454055e-09,5,1.29315603454055e-09,1.609641428290152,1.29315603454055e-09,1.780438370721327
1.301082943961634e-09,5,1.301082943961634e-09,1.534166364226503,1.301082943961634e-09,2.058557011289081
1.309178520162017e-09,5,1.309178520162017e-09,1.462441853858986,1.309178520162017e-09,2.355263258133733
1.317387652815286e-09,5,1.317387652815286e-09,1.394463667460375,1.317387652815286e-09,2.663759129368792
1.325580681170631e-09,5,1.325580681170631e-09,1.330571281487803,1.325580681170631e-09,2.972404794800551
1.333450232444852e-09,5,1.333450232444852e-09,1.272489948781073,1.333450232444852e-09,3.259655666520477
1.340429116915634e-09,5,1.340429116915634e-09,1.225288190339055,1.340429116915634e-09,3.49561139639635
1.346645400341242e-09,5,1.346645400341242e-09,1.187913022056647,1.346645400341242e-09,3.684299859217939
1.353426747183539e-09,5,1.353426747183539e-09,1.150163634466477,1.353426747183539e-09,3.866578009381297
1.361231706892523e-09,5,1.361231706892523e-09,1.107703479149337,1.361231706892523e-09,4.048328979802577
1.367915034739426e-09,5,1.367915034739426e-09,1.070811522922904,1.367915034739426e-09,4.182388677115736
1.374339369684603e-09,5,1.374339369684603e-09,1.034376200631877,1.374339369684603e-09,4.2943597794132
1.380124814932269e-09,5,1.380124814932269e-09,1.000632347178188,1.380124814932269e-09,4.382422732740969
1.385667046213899e-09,5,1.385667046213899e-09,0.9674724652353566,1.385667046213899e-09,4.456588230757555
1.391019425999243e-09,5,1.391019425999243e-09,0.9346670100809584,1.391019425999243e-09,4.519716169588989
1.396403025028893e-09,5,1.396403025028893e-09,0.9008631899892801,1.396403025028893e-09,4.575685064013761
1.402076568254944e-09,5,1.402076568254944e-09,0.8643714472823077,1.402076568254944e-09,4.627409915845891
1.40845076831312e-09,5,1.40845076831312e-09,0.8225828581398757,1.40845076831312e-09,4.677702873977691
1.415716427950658e-09,5,1.415716427950658e-09,0.7747031074194072,1.415716427950658e-09,4.726265208912531
1.42347799225492e-09,5,1.42347799225492e-09,0.7242442202797987,1.42347799225492e-09,4.769341057350565
1.431530533096053e-09,5,1.431530533096053e-09,0.6734051249553491,1.431530533096053e-09,4.806018914257793
1.440086678893847e-09,5,1.440086678893847e-09,0.621599016681062,1.440086678893847e-09,4.837708220004705
1.449313905524619e-09,5,1.449313905524619e-09,0.5686618048587359,1.449313905524619e-09,4.865173107904627
1.459323920799927e-09,5,1.459323920799927e-09,0.5149355228177562,1.459323920799927e-09,4.888808533368132
1.468236161689236e-09,5,1.468236161689236e-09,0.4704394454218646,1.468236161689236e-09,4.905591831055053
1.48021330911317e-09,5,1.48021330911317e-09,0.4155928031978676,1.48021330911317e-09,4.923444981823928
1.490913449251246e-09,5,1.490913449251246e-09,0.371270055403228,1.490913449251246e-09,4.935873739861006
1.501471905687635e-09,5,1.501471905687635e-09,0.3316613501174074,1.501471905687635e-09,4.945675417990204
1.513015558684092e-09,5,1.513015558684092e-09,0.2927501788612274,1.513015558684092e-09,4.954292501091055
1.525365529996849e-09,5,1.525365529996849e-09,0.2558034872403634,1.525365529996849e-09,4.961682686789101
1.538526065454775e-09,5,1.538526065454775e-09,0.2212598537027201,1.538526065454775e-09,4.967993957250907
1.552725558378786e-09,5,1.552725558378786e-09,0.1889659708452791,1.552725558378786e-09,4.973447905558305
1.568100596464761e-09,5,1.568100596464761e-09,0.1590985932928218,1.568100596464761e-09,4.978166108559961
1.584782400214061e-09,5,1.584782400214061e-09,0.1318500986537813,1.584782400214061e-09,4.982240103266819
1.602968066525526e-09,5,1.602968066525526e-09,0.1073027838545954,1.602968066525526e-09,4.985752871853236
1.622905194992483e-09,5,1.622905194992483e-09,0.08549768539782177,1.622905194992483e-09,4.988769861024157
1.644905471029969e-09,5,1.644905471029969e-09,0.0664392826072526,1.644905471029969e-09,4.991341800992962
1.669381160502346e-09,5,1.669381160502346e-09,0.05008697569544738,1.669381160502346e-09,4.993509560296758
1.696886470213494e-09,5,1.696886470213494e-09,0.03636140771642926,1.696886470213494e-09,4.995306876001411
1.728180974729218e-09,5,1.728180974729218e-09,0.02514913203929208,1.728180974729218e-09,4.996763057629897
1.764336282354623e-09,5,1.764336282354623e-09,0.01630335903435814,1.764336282354623e-09,4.997905702827626
1.806917853427011e-09,5,1.806917853427011e-09,0.00964267707893946,1.806917853427011e-09,4.998763048425488
1.858314391920428e-09,5,1.858314391920428e-09,0.00494707659284778,1.858314391920428e-09,4.999366030006429
1.922381525412501e-09,5,1.922381525412501e-09,0.00195137220552308,1.922381525412501e-09,4.999750106548078
2.005821300162651e-09,5,2.005821300162651e-09,0.0003379551848077299,2.005821300162651e-09,4.999956736845447
2.105821300162651e-09,5,2.105821300162651e-09,-0.0001993515060720024,2.105821300162651e-09,5.000025508984288
2.205821300162651e-09,5,2.205821300162651e-09,-0.0002143183535398047,2.205821300162651e-09,5.000027233635563
2.305821300162651e-09,5,2.305821300162651e-09,-0.0001236806736588229,2.305821300162651e-09,5.000015590779127
2.405821300162651e-09,5,2.405821300162651e-09,-5.268503329604598e-05,2.405821300162651e-09,5.000006594112061
2.505821300162651e-09,5,2.505821300162651e-09,-1.645891369908761e-05,2.505821300162651e-09,5.000002052304289
2.605821300162651e-09,5,2.605821300162651e-09,-2.480973254721455e-06,2.605821300162651e-09,5.00000029829257
2.705821300162651e-09,5,2.705821300162651e-09,1.243291219692693e-06,2.705821300162651e-09,4.999999827807708
2.805821300162651e-09,5,2.805821300162651e-09,1.428565722611482e-06,2.805821300162651e-09,4.999999801528235
2.905821300162651e-09,5,2.905821300162651e-09,8.634523338663615e-07,2.905821300162651e-09,4.999999872116171
3.005821300162651e-09,5,3.005821300162651e-09,3.952067381143234e-07,3.005821300162651e-09,4.99999993200547
3.105821300162651e-09,5,3.105821300162651e-09,1.439262649811956e-07,3.105821300162651e-09,4.999999964990744
3.205821300162651e-09,5,3.205821300162651e-09,4.167061568522796e-08,3.205821300162651e-09,4.999999978437753
3.305821300162651e-09,5,3.305821300162651e-09,1.163964526281279e-08,3.305821300162651e-09,4.999999982348928
3.405821300162652e-09,5,3.405821300162652e-09,8.243616470290633e-09,3.405821300162652e-09,4.999999982774777
3.505821300162652e-09,5,3.505821300162652e-09,1.137616988496344e-08,3.505821300162652e-09,4.99999998236278
3.605821300162652e-09,5,3.605821300162652e-09,1.440725371569955e-08,3.605821300162652e-09,4.999999981970761
3.705821300162652e-09,5,3.705821300162652e-09,1.611803912026129e-08,3.705821300162652e-09,4.999999981751034
3.805821300162651e-09,5,3.805821300162651e-09,1.684320790194202e-08,3.805821300162651e-09,4.999999981658229
3.905821300162651e-09,5,3.905821300162651e-09,1.706954365246434e-08,3.905821300162651e-09,4.999999981629315
4.005821300162652e-09,5,4.005821300162652e-09,1.710381231497704e-08,4.005821300162652e-09,4.999999981624946
4.105821300162652e-09,5,4.105821300162652e-09,1.708683047892544e-08,4.105821300162652e-09,4.999999981627123
4.205821300162652e-09,5,4.205821300162652e-09,1.706738889043165e-08,4.205821300162652e-09,4.999999981629613
4.305821300162652e-09,5,4.305821300162652e-09,1.70558250325073e-08,4.305821300162652e-09,4.999999981631094
4.405821300162652e-09,5,4.405821300162652e-09,1.705072493449074e-08,4.405821300162652e-09,4.999999981631749
4.505821300162652e-09,5,4.505821300162652e-09,1.7049042703881e-08,4.505821300162652e-09,4.999999981631965
4.605821300162652e-09,5,4.605821300162652e-09,1.704873214935232e-08,4.605821300162652e-09,4.999999981632005
4.705821300162652e-09,5,4.705821300162652e-09,1.704881559790152e-08,4.705821300162652e-09,4.999999981631994
4.805821300162652e-09,5,4.805821300162652e-09,1.704893983852999e-08,4.805821300162652e-09,4.999999981631978
4.905821300162652e-09,5,4.905821300162652e-09,1.70490168786316e-08,4.905821300162652e-09,4.999999981631968
5.005821300162652e-09,5,5.005821300162652e-09,1.704905156661102e-08,5.005821300162652e-09,4.999999981631964
5.105821300162652e-09,5,5.105821300162652e-09,1.704906516791739e-08,5.105821300162652e-09,4.999999981631962
5.205821300162652e-09,5,5.205821300162652e-09,1.704906929249885e-08,5.205821300162652e-09,4.999999981631962
5.305821300162652e-09,5,5.305821300162652e-09,1.704906912158468e-08,5.305821300162652e-09,4.999999981631962
5.405821300162653e-09,5,5.405821300162653e-09,1.704906714464265e-08,5.405821300162653e-09,4.999999981631962
5.505821300162653e-09,5,5.505821300162653e-09,1.704906616789783e-08,5.505821300162653e-09,4.999999981631962
5.605821300162653e-09,5,5.605821300162653e-09,1.704906625842558e-08,5.605821300162653e-09,4.999999981631962
5.705821300162653e-09,5,5.705821300162653e-09,1.704906625185158e-08,5.705821300162653e-09,4.999999981631962
5.805821300162653e-09,5,5.805821300162653e-09,1.704906621525116e-08,5.805821300162653e-09,4.999999981631962
5.905821300162653e-09,5,5.905821300162653e-09,1.704906621569971e-08,5.905821300162653e-09,4.999999981631962
6.005821300162653e-09,5,6.005821300162653e-09,1.704906632027257e-08,6.005821300162653e-09,4.999999981631962
6.1e-09,5,6.1e-09,1.704906699038518e-08,6.1e-09,4.999999981631962
6.103125e-09,4.843749999999988,6.103125e-09,-0.0101152354338133,6.103125e-09,4.998020808652554
6.106611521620738e-09,4.669423918963122,6.106611521620738e-09,-0.02103776913902256,6.106611521620738e-09,4.996026877698385
6.113584564862212e-09,4.320771756889389,6.113584564862212e-09,-0.04221108771674358,6.113584564862212e-09,4.992690614754496
6.115327825672581e-09,4.233608716370956,6.115327825672581e-09,-0.04845427130682969,6.115327825672581e-09,4.991764266617846
6.118814347293318e-09,4.059282635334089,6.118814347293318e-09,-0.0608756964779547,6.118814347293318e-09,4.990060373222441
