/net3 X,/net3 Y,/net8 X,/net8 Y,/o4 X,/o4 Y
0,5,0,1.413849256083952e-08,0,4.999999981632027
1e-11,5,1e-11,1.413848926691339e-08,1e-11,4.999999981632011
3e-11,5,3e-11,1.413848516008393e-08,3e-11,4.999999981631992
6.999999999999999e-11,5,6.999999999999999e-11,1.413848309201046e-08,6.999999999999999e-11,4.99999998163197
1.5e-10,5,1.5e-10,1.413848760556708e-08,1.5e-10,4.999999981631959
2.5e-10,5,2.5e-10,1.413849081562608e-08,2.5e-10,4.999999981631959
3.5e-10,5,3.5e-10,1.413849160944237e-08,3.5e-10,4.999999981631961
4.5e-10,5,4.5e-10,1.413849149904275e-08,4.5e-10,4.999999981631962
5.5e-10,5,5.5e-10,1.413849156406335e-08,5.5e-10,4.999999981631962
6.499999999999999e-10,5,6.499999999999999e-10,1.413849120647868e-08,6.499999999999999e-10,4.999999981631962
7.499999999999999e-10,5,7.499999999999999e-10,1.413849099740393e-08,7.499999999999999e-10,4.999999981631962
8.499999999999999e-10,5,8.499999999999999e-10,1.413849124652691e-08,8.499999999999999e-10,4.999999981631962
9.25e-10,5,9.25e-10,1.413849182310033e-08,9.25e-10,4.999999981631962
1e-09,5,1e-09,1.413849268291762e-08,1e-09,4.999999981631962
1.000841200116687e-09,4.957939994165671,1.000841200116687e-09,-0.001410617585713415,1.000841200116687e-09,4.999705497472666
1.001532456568056e-09,4.923377171597218,1.001532456568056e-09,-0.00256333039349379,1.001532456568056e-09,4.99946827956402
1.002914969470794e-09,4.854251526460311,1.002914969470794e-09,-0.004843199889840555,1.002914969470794e-09,4.999012509787135
1.004833493751584e-09,4.758325312420826,1.004833493751584e-09,-0.007948888646577584,1.004833493751584e-09,4.998421749794182
1.008670542313163e-09,4.566472884341857,1.008670542313163e-09,-0.01396629491518205,1.008670542313163e-09,4.997374752399031
1.012269196466799e-09,4.386540176660066,1.012269196466799e-09,-0.01938928162424518,1.012269196466799e-09,4.996540257454246
1.014328277037663e-09,4.283586148116859,1.014328277037663e-09,-0.02240137198043087,1.014328277037663e-09,4.996121671206113
1.016352341949405e-09,4.182382902529765,1.016352341949405e-09,-0.02530197046782634,1.016352341949405e-09,4.995747841315941
1.01846446932682e-09,4.076776533658991,1.01846446932682e-09,-0.02826876724127879,1.01846446932682e-09,4.995394036969172
1.020081873847519e-09,3.99590630762407,1.020081873847519e-09,-0.03050117643846258,1.020081873847519e-09,4.995146415321994
1.022000612933234e-09,3.899969353338295,1.022000612933234e-09,-0.03310757480150208,1.022000612933234e-09,4.994876764067913
1.02487320447489e-09,3.756339776255527,1.02487320447489e-09,-0.03693045461518179,1.02487320447489e-09,4.99451731024548
1.028341149070553e-09,3.582942546472347,1.028341149070553e-09,-0.04142965285141075,1.028341149070553e-09,4.994146264685179
1.032139183144251e-09,3.393040842787463,1.032139183144251e-09,-0.04622701280783003,1.032139183144251e-09,4.993808429008213
1.036192089767208e-09,3.190395511639628,1.036192089767208e-09,-0.05121648559058805,1.036192089767208e-09,4.993514695274751
1.040507085993812e-09,2.974645700309397,1.040507085993812e-09,-0.05640677924380447,1.040507085993812e-09,4.993264085156786
1.045159447269349e-09,2.742027636532565,1.045159447269349e-09,-0.0618957994908889,1.045159447269349e-09,4.993050194455993
1.05027819622416e-09,2.486090188791991,1.05027819622416e-09,-0.06785462834640631,1.05027819622416e-09,4.992863978272241
1.056101831258731e-09,2.194908437063429,1.056101831258731e-09,-0.07460765280311854,1.056101831258731e-09,4.992690693420236
1.063489702942851e-09,1.825514852857429,1.063489702942851e-09,-0.08336507513246927,1.063489702942851e-09,4.992476050478136
1.065122160771453e-09,1.743891961427349,1.065122160771453e-09,-0.08559169447003435,1.065122160771453e-09,4.992375231884882
1.067267290020866e-09,1.636635498956727,1.067267290020866e-09,-0.08967152712152715,1.067267290020866e-09,4.992011933158374
1.068790765298668e-09,1.560461735066581,1.068790765298668e-09,-0.09342024087318111,1.068790765298668e-09,4.991589994770562
1.069990858003091e-09,1.500457099845478,1.069990858003091e-09,-0.09656123027682371,1.069990858003091e-09,4.991230666666042
1.071173618441459e-09,1.441319077927069,1.071173618441459e-09,-0.0996755196557752,1.071173618441459e-09,4.990884760532101
1.072594108506042e-09,1.370294574697906,1.072594108506042e-09,-0.103349132622686,1.072594108506042e-09,4.990499184865156
1.074465015982305e-09,1.276749200884741,1.074465015982305e-09,-0.1079673516023434,1.074465015982305e-09,4.990061725724089
1.076728539403606e-09,1.16357302981969,1.076728539403606e-09,-0.1130609105055456,1.076728539403606e-09,4.989666470681193
1.079200336135848e-09,1.039983193207587,1.079200336135848e-09,-0.1177800987245211,1.079200336135848e-09,4.989438253685766
1.081704065383486e-09,0.9147967308256817,1.081704065383486e-09,-0.1213831119405087,1.081704065383486e-09,4.989466335437018
1.084148872563626e-09,0.7925563718187227,1.084148872563626e-09,-0.1234155730730419,1.084148872563626e-09,4.989798263193542
1.086428709271673e-09,0.6785645364163617,1.086428709271673e-09,-0.1231756118963127,1.086428709271673e-09,4.990527206124201
1.088046264834181e-09,0.5976867582909691,1.088046264834181e-09,-0.1214789997941423,1.088046264834181e-09,4.991334175842802
1.089810385203282e-09,0.5094807398359213,1.089810385203282e-09,-0.118500084837048,1.089810385203282e-09,4.992406959802921
1.091532374618729e-09,0.4233812690635705,1.091532374618729e-09,-0.1145523945049836,1.091532374618729e-09,4.993617466297684
1.093969158319771e-09,0.3015420840114507,1.093969158319771e-09,-0.1071470542562815,1.093969158319771e-09,4.995600580166732
1.096984579159886e-09,0.150771042005724,1.096984579159886e-09,-0.09487750878219857,1.096984579159886e-09,4.9984919693573
1.1e-09,0,1.1e-09,-0.07897955362966017,1.1e-09,5.001959029711574
1.100603356216543e-09,0,1.100603356216543e-09,-0.07519061954315555,1.100603356216543e-09,5.002758405731718
1.101253762433375e-09,0,1.101253762433375e-09,-0.07095645173077286,1.101253762433375e-09,5.003641631259764
1.102073527294451e-09,0,1.102073527294451e-09,-0.06533354209460135,1.102073527294451e-09,5.00479464764494
1.103326334604873e-09,0,1.103326334604873e-09,-0.05609216864299842,1.103326334604873e-09,5.006643234741042
1.105641454145989e-09,0,1.105641454145989e-09,-0.03699431982806086,1.105641454145989e-09,5.010308939025418
1.10936705439178e-09,0,1.10936705439178e-09,-0.001140050002396585,1.10936705439178e-09,5.016754430117607
1.112258449187683e-09,0,1.112258449187683e-09,0.03070952847024513,1.112258449187683e-09,5.022118060053996
1.115004389820723e-09,0,1.115004389820723e-09,0.06391069721352884,1.115004389820723e-09,5.027416628309378
1.117781862899434e-09,0,1.117781862899434e-09,0.1001405366641647,1.117781862899434e-09,5.032904208278735
1.120550519218781e-09,0,1.120550519218781e-09,0.1386509969551089,1.120550519218781e-09,5.038440695757417
1.123493722952401e-09,0,1.123493722952401e-09,0.1819455765549846,1.123493722952401e-09,5.044340109626577
1.126805863286493e-09,0,1.126805863286493e-09,0.23324968030367,1.126805863286493e-09,5.050933183106795
1.130523659222498e-09,0,1.130523659222498e-09,0.2936969102335386,1.130523659222498e-09,5.058208263072792
1.13468666070015e-09,0,1.13468666070015e-09,0.3644775523382022,1.13468666070015e-09,5.066126438000597
1.139339308011434e-09,0,1.139339308011434e-09,0.4468461548563922,1.139339308011434e-09,5.074622136841037
1.144534692214813e-09,0,1.144534692214813e-09,0.5421631548376994,1.144534692214813e-09,5.083608399675954
1.150345408406223e-09,0,1.150345408406223e-09,0.6520650633865184,1.150345408406223e-09,5.092993493285634
1.156833677442135e-09,0,1.156833677442135e-09,0.7775952786480885,1.156833677442135e-09,5.102640900616454
1.163574649190066e-09,0,1.163574649190066e-09,0.9069279109956859,1.163574649190066e-09,5.111910159207618
1.168622673693685e-09,0,1.168622673693685e-09,1.000132996939045,1.168622673693685e-09,5.118001690860144
1.173420990400016e-09,0,1.173420990400016e-09,1.087534540973109,1.173420990400016e-09,5.121835015244075
1.178949134612718e-09,0,1.178949134612718e-09,1.187585939289529,1.178949134612718e-09,5.122985169099483
1.186800599919987e-09,0,1.186800599919987e-09,1.328239822827273,1.186800599919987e-09,5.118072266599463
1.1912009237036e-09,0,1.1912009237036e-09,1.406185842086949,1.1912009237036e-09,5.111955772232842
1.200001571270826e-09,0,1.200001571270826e-09,1.559701372585744,1.200001571270826e-09,5.09275358329691
1.205701572581069e-09,0,1.205701572581069e-09,1.657248243808379,1.205701572581069e-09,5.075529647975356
1.213111359065764e-09,0,1.213111359065764e-09,1.781520335528983,1.213111359065764e-09,5.047823982939022
1.22021560956265e-09,0,1.22021560956265e-09,1.897648118824102,1.22021560956265e-09,5.015877965146594
1.226615904579801e-09,0,1.226615904579801e-09,1.999909528116511,1.226615904579801e-09,4.983592317004581
1.234843003869589e-09,0,1.234843003869589e-09,2.127522217263818,1.234843003869589e-09,4.937246341512392
1.241149912357779e-09,0,1.241149912357779e-09,2.221697124276816,1.241149912357779e-09,4.897168430243613
1.253187981585875e-09,0,1.253187981585875e-09,2.392237820421428,1.253187981585875e-09,4.809765815802866
1.260229036507877e-09,0,1.260229036507877e-09,2.48650870528818,1.260229036507877e-09,4.751785241454954
1.267710847735557e-09,0,1.267710847735557e-09,2.582486748635415,1.267710847735557e-09,4.684221243767348
1.274331399369909e-09,0,1.274331399369909e-09,2.664063589014756,1.274331399369909e-09,4.618759360626938
1.280867146010955e-09,0,1.280867146010955e-09,2.741836329298389,1.280867146010955e-09,4.548036289987912
1.286971554682001e-09,0,1.286971554682001e-09,2.812431789042808,1.286971554682001e-09,4.475275754275364
1.292573669360844e-09,0,1.292573669360844e-09,2.876001139759949,1.292573669360844e-09,4.401204898730813
1.297571009483195e-09,0,1.297571009483195e-09,2.932084354762807,1.297571009483195e-09,4.327701936497323
1.307426512075352e-09,0,1.307426512075352e-09,3.039665087194328,1.307426512075352e-09,4.158889339204197
1.312393366002421e-09,0,1.312393366002421e-09,3.091278921542445,1.312393366002421e-09,4.06222940397765
1.322261075624772e-09,0,1.322261075624772e-09,3.187788607368603,1.322261075624772e-09,3.847374865660948
1.32957758699496e-09,0,1.32957758699496e-09,3.25426778553205,1.32957758699496e-09,3.668944058697075
1.338368508544877e-09,0,1.338368508544877e-09,3.32879103428487,1.338368508544877e-09,3.434067657546675
1.347009116158008e-09,0,1.347009116158008e-09,3.396747652662689,1.347009116158008e-09,3.182729642135613
1.356093495112565e-09,0,1.356093495112565e-09,3.462994761613821,1.356093495112565e-09,2.898362795807647
1.364936521112962e-09,0,1.364936521112962e-09,3.522798212799944,1.364936521112962e-09,2.603726072527026
1.37287554358206e-09,0,1.37287554358206e-09,3.572900116339165,1.37287554358206e-09,2.326125515507025
1.378943078745676e-09,0,1.378943078745676e-09,3.609098745759138,1.378943078745676e-09,2.106959221264817
1.3833728095458e-09,0,1.3833728095458e-09,3.634474071379381,1.3833728095458e-09,1.943992290639546
1.392232271146046e-09,0,1.392232271146046e-09,3.682970950007916,1.392232271146046e-09,1.617445478403167
1.401427256418631e-09,0,1.401427256418631e-09,3.729839090791182,1.401427256418631e-09,1.301643871748988
1.407963021239591e-09,0,1.407963021239591e-09,3.760456442031868,1.407963021239591e-09,1.10375433628408
1.414668511717809e-09,0,1.414668511717809e-09,3.791236236868717,1.414668511717809e-09,0.926304234015156
1.421465762481676e-09,0,1.421465762481676e-09,3.823120946472625,1.421465762481676e-09,0.7720778211825782
1.426754378283089e-09,0,1.426754378283089e-09,3.848783905987534,1.426754378283089e-09,0.6687971964263163
1.431796954777797e-09,0,1.431796954777797e-09,3.873993435433438,1.431796954777797e-09,0.5828269555587112
1.436393675089506e-09,0,1.436393675089506e-09,3.897539470717233,1.436393675089506e-09,0.5141308704478885
1.445587115712924e-09,0,1.445587115712924e-09,3.94572563371818,1.445587115712924e-09,0.4001988573229994
1.449881419580325e-09,0,1.449881419580325e-09,3.968607125691387,1.449881419580325e-09,0.3565529569064473
1.458470027315126e-09,0,1.458470027315126e-09,4.014523115546263,1.458470027315126e-09,0.2837417496685994
1.463210318317327e-09,0,1.463210318317327e-09,4.039808841629337,1.463210318317327e-09,0.2507663960082878
1.472690900321729e-09,0,1.472690900321729e-09,4.089762095149301,1.472690900321729e-09,0.1966586117966554
1.47808943477402e-09,0,1.47808943477402e-09,4.117715734035087,1.47808943477402e-09,0.1718848570139682
1.484698728870111e-09,0,1.484698728870111e-09,4.151318395864822,1.484698728870111e-09,0.1463139499667741
1.490990408416189e-09,0,1.490990408416189e-09,4.182606065526012,1.490990408416189e-09,0.1260197052772979
1.497819995022882e-09,0,1.497819995022882e-09,4.215771469762609,1.497819995022882e-09,0.1076691091246353
1.504999335520161e-09,0,1.504999335520161e-09,4.249781047114892,1.504999335520161e-09,0.09177325594465185
1.512813012098746e-09,0,1.512813012098746e-09,4.285928654097248,1.512813012098746e-09,0.07766276465925379
1.521649385521377e-09,0,1.521649385521377e-09,4.325915604901793,1.521649385521377e-09,0.06484203468687956
1.532638296095173e-09,0,1.532638296095173e-09,4.374311574682613,1.532638296095173e-09,0.0524054299776288
1.542220181073888e-09,0,1.542220181073888e-09,4.414829148267756,1.542220181073888e-09,0.04407935655886557
1.561383951031318e-09,0,1.561383951031318e-09,4.489498893758375,1.561383951031318e-09,0.03225670805570345
1.576917514743263e-09,0,1.576917514743263e-09,4.543358713559319,1.576917514743263e-09,0.02607381832445488
1.591320720495802e-09,0,1.591320720495802e-09,4.588252436427001,1.591320720495802e-09,0.02208090293102717
1.606780452492801e-09,0,1.606780452492801e-09,4.631547918024615,1.606780452492801e-09,0.01891687967810836
1.623912366587678e-09,0,1.623912366587678e-09,4.674235461738138,1.623912366587678e-09,0.01623078751538422
1.643030440168499e-09,0,1.643030440168499e-09,4.716066935775864,1.643030440168499e-09,0.01386448618084925
1.664325397274257e-09,0,1.664325397274257e-09,4.756377886675687,1.664325397274257e-09,0.01173768633739988
1.687921361296919e-09,0,1.687921361296919e-09,4.794407275177679,1.687921361296919e-09,0.009814087517335097
1.713949570115852e-09,0,1.713949570115852e-09,4.829526472487796,1.713949570115852e-09,0.008080660198857019
1.742615783409291e-09,0,1.742615783409291e-09,4.861331520521676,1.742615783409291e-09,0.006533997242638814
1.77424340618177e-09,0,1.77424340618177e-09,4.88962305639342,1.77424340618177e-09,0.005172641565827011
1.80930917738115e-09,0,1.80930917738115e-09,4.914350944630137,1.80930917738115e-09,0.003993418400987209
1.84848578661114e-09,0,1.84848578661114e-09,4.935561596402215,1.84848578661114e-09,0.002990437398738461
1.892703690875636e-09,0,1.892703690875636e-09,4.953360619165069,1.892703690875636e-09,0.002155472810350082
1.943252460009223e-09,0,1.943252460009223e-09,4.967893960549583,1.943252460009223e-09,0.001478612616881435
2.001955054732887e-09,0,2.001955054732887e-09,4.979344201665699,2.001955054732887e-09,0.000948615930997546
2.071476535558921e-09,0,2.071476535558921e-09,4.987936655401906,2.071476535558921e-09,0.0005528434376954598
2.155896470553063e-09,0,2.155896470553063e-09,4.993950878280615,2.155896470553063e-09,0.000276824920149679
2.255896470553063e-09,0,2.255896470553063e-09,4.997565629943156,2.255896470553063e-09,0.000111333337246292
2.355896470553063e-09,0,2.355896470553063e-09,4.999163030552705,2.355896470553063e-09,3.829571572263553e-05
2.455896470553063e-09,0,2.455896470553063e-09,4.999792738594668,2.455896470553063e-09,9.50537277219992e-06
2.555896470553063e-09,0,2.555896470553063e-09,5.000001803344051,2.555896470553063e-09,-6.23494723535017e-08
2.655896470553063e-09,0,2.655896470553063e-09,5.000048629046015,2.655896470553063e-09,-2.211511623335872e-06
2.755896470553063e-09,0,2.755896470553063e-09,5.000042894918675,2.755896470553063e-09,-1.995057816704166e-06
2.855896470553063e-09,0,2.855896470553063e-09,5.000027273385091,2.855896470553063e-09,-1.288157773221181e-06
2.955896470553063e-09,0,2.955896470553063e-09,5.000014861401278,2.955896470553063e-09,-6.914972448803119e-07
3.055896470553063e-09,0,3.055896470553063e-09,5.00000724030417,3.055896470553063e-09,-3.235644280150239e-07
3.155896470553063e-09,0,3.155896470553063e-09,5.000003169212134,3.155896470553063e-09,-1.310298291075576e-07
3.255896470553063e-09,0,3.255896470553063e-09,5.000001214588436,3.255896470553063e-09,-4.044408080787946e-08
3.355896470553063e-09,0,3.355896470553063e-09,5.000000369534611,3.355896470553063e-09,-1.602607461503124e-09
3.455896470553064e-09,0,3.455896470553064e-09,5.00000004833285,3.455896470553064e-09,1.320574617140802e-08
3.555896470553064e-09,0,3.555896470553064e-09,4.999999949302974,3.555896470553064e-09,1.781007783109509e-08
3.655896470553064e-09,0,3.655896470553064e-09,4.999999931509074,3.655896470553064e-09,1.856603092254432e-08
3.755896470553063e-09,0,3.755896470553063e-09,4.999999938460636,3.755896470553063e-09,1.828532275722539e-08
3.855896470553063e-09,0,3.855896470553063e-09,4.999999948861414,3.855896470553063e-09,1.783378379283805e-08
3.955896470553063e-09,0,3.955896470553063e-09,4.999999956728347,3.955896470553063e-09,1.747956233680118e-08
4.055896470553064e-09,0,4.055896470553064e-09,4.999999961506113,4.055896470553064e-09,1.726043508241184e-08
4.155896470553064e-09,0,4.155896470553064e-09,4.999999964056546,4.155896470553064e-09,1.714285479507964e-08
4.255896470553064e-09,0,4.255896470553064e-09,4.999999965287191,4.255896470553064e-09,1.708622608777444e-08
4.355896470553064e-09,0,4.355896470553064e-09,4.999999965825479,4.355896470553064e-09,1.706154847629504e-08
4.455896470553064e-09,0,4.455896470553064e-09,4.999999966034814,4.455896470553064e-09,1.70519778456997e-08
4.555896470553064e-09,0,4.555896470553064e-09,4.99999996610267,4.555896470553064e-09,1.704887779793064e-08
4.655896470553064e-09,0,4.655896470553064e-09,4.999999966116758,4.655896470553064e-09,1.704823451902958e-08
4.755896470553064e-09,0,4.755896470553064e-09,4.999999966114147,4.755896470553064e-09,1.704835333066225e-08
4.855896470553064e-09,0,4.855896470553064e-09,4.99999996610858,4.855896470553064e-09,1.704860766232708e-08
4.955896470553064e-09,0,4.955896470553064e-09,4.99999996610412,4.955896470553064e-09,1.704881211333496e-08
5.055896470553064e-09,0,5.055896470553064e-09,4.999999966101336,5.055896470553064e-09,1.704893992546006e-08
5.155896470553064e-09,0,5.155896470553064e-09,4.99999996609982,5.155896470553064e-09,1.704900912382475e-08
5.255896470553064e-09,0,5.255896470553064e-09,4.999999966099076,5.255896470553064e-09,1.704904338435871e-08
5.355896470553064e-09,0,5.355896470553064e-09,4.999999966098746,5.355896470553064e-09,1.704905814519505e-08
5.455896470553064e-09,0,5.455896470553064e-09,4.999999966098614,5.455896470553064e-09,1.70490641070129e-08
5.555896470553065e-09,0,5.555896470553065e-09,4.999999966098571,5.555896470553065e-09,1.704906635919677e-08
5.655896470553065e-09,0,5.655896470553065e-09,4.99999996609856,5.655896470553065e-09,1.704906680529844e-08
5.755896470553065e-09,0,5.755896470553065e-09,4.999999966098561,5.755896470553065e-09,1.704906710278477e-08
5.855896470553065e-09,0,5.855896470553065e-09,4.999999966098564,5.855896470553065e-09,1.704906685712098e-08
5.955896470553065e-09,0,5.955896470553065e-09,4.999999966098566,5.955896470553065e-09,1.704906652563073e-08
6.027948235276533e-09,0,6.027948235276533e-09,4.999999966098566,6.027948235276533e-09,1.704906666224086e-08
6.1e-09,0,6.1e-09,4.999999966098565,6.1e-09,1.704906698085243e-08
6.1015625e-09,0.07812500000000587,6.1015625e-09,5.000903843957088,6.1015625e-09,0.000180022976252939
6.104063555803991e-09,0.2031777901995251,6.104063555803991e-09,5.002784950214283,6.104063555803991e-09,0.0005381062922635567
6.109065667411971e-09,0.4532833705985634,6.109065667411971e-09,5.00817240674859,6.109065667411971e-09,0.001471248400569065
6.112151227737024e-09,0.6075613868512101,6.112151227737024e-09,5.012417825575087,6.112151227737024e-09,0.00214478364682804
6.11832234838713e-09,0.9161174193565035,6.11832234838713e-09,5.022754412563884,6.11832234838713e-09,0.003621723313124433
